Time Stamp,ID,Extended,Dir,Bus,LEN,D1,D2,D3,D4,D5,D6,D7,D8
18846853,00000118,false,Rx,0,8,57,04,22,18,00,00,00,00,
18846863,000002E5,false,Rx,0,8,00,00,03,0D,00,00,DD,00,
18846872,000001A5,false,Rx,0,3,E5,02,00,00,00,00,00,00,
18846881,00000195,false,Rx,0,5,00,08,08,00,28,00,00,00,
18846890,00000752,false,Rx,0,8,04,A4,2B,0C,FA,7F,53,01,
18846900,0000027A,false,Rx,0,2,C9,0F,00,00,00,00,00,00,
18846910,00000396,false,Rx,0,8,01,32,32,38,31,12,19,7D,
18846920,00000186,false,Rx,0,8,8E,07,00,00,00,00,00,00,
18846929,000006D4,false,Rx,0,8,0A,01,0D,32,FC,00,09,00,
18846938,000006D4,false,Rx,0,8,0B,00,1C,46,00,00,00,00,
18846948,000006D4,false,Rx,0,8,0D,00,00,00,35,8E,6F,5C,
18846957,00000129,false,Rx,0,8,18,26,37,5F,00,20,FF,3F,
18846967,000006D4,false,Rx,0,8,11,00,00,00,00,00,00,00,
18846976,000001D8,false,Rx,0,8,21,00,00,00,00,00,C0,BA,
18846985,00000288,false,Rx,0,8,83,18,06,00,80,27,80,52,
18846995,00000300,false,Rx,0,8,12,5F,80,5C,88,84,CD,CA,
18847004,00000312,false,Rx,0,8,00,44,7E,72,33,A2,A9,15,
18847013,000002C1,false,Rx,0,8,84,A6,92,01,64,A1,08,AE,
18847023,00000332,false,Rx,0,6,2D,1E,89,07,52,29,00,00,
18847032,00000352,false,Rx,0,8,F1,FA,B6,DB,6E,32,89,00,
18847042,000003B2,false,Rx,0,8,90,FA,DF,00,38,E5,E3,00,
18847051,000001D5,false,Rx,0,8,21,00,00,00,00,00,20,17,
18847060,000002E1,false,Rx,0,8,02,00,00,00,00,00,01,00,
18847070,0000024A,false,Rx,0,1,03,00,00,00,00,00,00,00,
18847079,00000379,false,Rx,0,8,6B,47,96,80,A1,99,05,01,
18847088,000003D2,false,Rx,0,8,94,7F,30,00,84,8F,32,00,
18847097,000003F2,false,Rx,0,8,00,B1,70,25,00,00,00,00,
18847141,00000421,false,Rx,0,7,00,00,00,00,04,00,00,00,
18847151,00000213,false,Rx,0,2,B0,C5,00,00,00,00,00,00,
18847160,00000272,false,Rx,0,8,0C,00,1A,42,10,90,0C,10,
18847169,00000082,false,Rx,0,8,00,00,00,80,00,80,00,80,
18847179,000006D4,false,Rx,0,8,12,16,48,B4,7A,66,41,FD,
18847188,0000078A,false,Rx,0,8,01,00,05,00,00,00,6A,06,
18847198,000006D4,false,Rx,0,8,13,03,00,00,00,00,00,00,
18847207,000006D4,false,Rx,0,8,14,06,00,00,ED,43,34,4A,
18847216,00000132,false,Rx,0,8,BD,90,CC,FF,BD,26,FF,0F,
18847226,00000320,false,Rx,0,8,00,00,00,00,00,00,00,00,
18847235,00000372,false,Rx,0,8,00,14,00,46,91,1D,B4,42,
18847244,000006D4,false,Rx,0,8,15,01,0D,32,D4,AF,BB,67,
18847254,00000344,false,Rx,0,8,00,00,00,00,00,00,60,A7,
18847263,00000266,false,Rx,0,8,00,00,01,1F,00,00,3D,01,
18847273,000002E5,false,Rx,0,8,00,00,03,0D,00,00,DD,00,
18847282,00000016,false,Rx,0,1,01,00,00,00,00,00,00,00,
18847291,00000385,false,Rx,0,8,00,00,00,00,00,00,00,00,
18847300,00000118,false,Rx,0,8,58,05,22,18,00,00,00,00,
18847310,00000257,false,Rx,0,8,BD,43,1F,00,02,00,00,00,
18847319,00000113,false,Rx,0,3,01,97,01,00,00,00,00,00,
18847328,000006C8,false,Rx,0,8,01,00,00,00,00,00,00,00,
18847337,00000757,false,Rx,0,8,32,0E,00,00,00,00,00,00,
18847347,000007AA,false,Rx,0,8,03,9C,F8,1A,07,03,00,00,
18847356,000007FF,false,Rx,0,8,03,81,09,69,61,C2,00,12,
18847366,00000318,false,Rx,0,8,14,03,17,0C,09,33,19,AA,
18847375,00000225,false,Rx,0,3,55,55,7A,00,00,00,00,00,
18847384,00000139,false,Rx,0,1,00,00,00,00,00,00,00,00,
18847393,000003A1,false,Rx,0,8,84,4E,74,85,01,2C,D2,6E,
18847402,00000458,false,Rx,0,7,02,02,00,80,00,00,00,00,
18847412,00000129,false,Rx,0,8,FB,27,36,5F,00,20,FF,3F,
18847421,000001FA,false,Rx,0,3,3A,C0,01,00,00,00,00,00,
18847430,000002A8,false,Rx,0,8,02,00,00,00,00,80,E0,0C,
18847690,00000132,false,Rx,0,8,C1,90,D2,FF,BB,26,FF,0F,
18847934,0000039A,false,Rx,0,8,CD,FF,FE,FE,FE,08,00,06,
18848335,00000242,false,Rx,0,2,55,D5,00,00,00,00,00,00,
18848616,0000031E,false,Rx,0,8,01,00,00,00,00,00,00,00,
18848860,000003DA,false,Rx,0,8,00,00,00,00,00,00,00,00,
18849113,00000266,false,Rx,0,8,00,00,01,1F,00,00,3D,01,
18849222,00000016,false,Rx,0,1,01,00,00,00,00,00,00,00,
18849467,00000118,false,Rx,0,8,59,06,22,18,00,00,00,00,
18849711,0000021D,false,Rx,0,8,04,00,04,00,00,00,00,00,
18849946,0000025D,false,Rx,0,8,47,28,05,BE,40,A1,02,C0,
18850187,000002E5,false,Rx,0,8,00,00,03,0D,00,00,DD,00,
18850437,0000027D,false,Rx,0,8,00,00,00,00,00,00,00,00,
18850722,0000029D,false,Rx,0,4,00,00,00,00,00,00,00,00,
18851122,000002BD,false,Rx,0,4,00,00,00,00,00,00,00,00,
18851369,0000023E,false,Rx,0,8,3F,C6,72,DB,05,02,A8,41,
18851479,0000041D,false,Rx,0,1,00,00,00,00,00,00,00,00,
18851728,000003C0,false,Rx,0,8,07,00,00,00,00,00,00,00,
18851959,000002E1,false,Rx,0,8,03,DE,99,02,1B,3F,EF,01,
18852165,0000043D,false,Rx,0,6,00,00,00,00,FF,00,00,00,
18852405,00000129,false,Rx,0,8,D8,28,37,5F,00,20,FF,3F,
18852634,000003A2,false,Rx,0,8,00,A0,72,F2,AC,0A,C5,67,
18852784,0000077D,false,Rx,0,3,11,00,00,00,00,00,00,00,
18853029,000001D8,false,Rx,0,8,21,00,00,00,00,00,00,FA,
18853161,000007DD,false,Rx,0,2,FF,00,00,00,00,00,00,00,
18853662,00000393,false,Rx,0,8,0C,00,1C,52,10,90,0C,10,
18853902,000002C1,false,Rx,0,8,18,66,18,0E,8E,3F,00,00,
18854122,00000428,false,Rx,0,6,00,00,10,11,00,00,00,00,
18854466,00000360,false,Rx,0,8,06,00,00,00,00,00,00,00,
18854741,000001D5,false,Rx,0,8,21,00,00,00,00,00,60,57,
18855780,0000037A,false,Rx,0,8,01,C0,19,BB,AC,D7,25,00,
18856655,00000103,false,Rx,0,8,22,33,00,00,36,3D,21,32,
18857675,00000132,false,Rx,0,8,C2,90,D0,FF,BC,26,FF,0F,
18858193,000003E8,false,Rx,0,8,03,00,00,00,00,00,00,00,
18858982,00000266,false,Rx,0,8,00,00,01,1F,00,00,3D,01,
18859096,00000016,false,Rx,0,1,01,00,00,00,00,00,00,00,
18859343,000002E5,false,Rx,0,8,00,00,03,0D,00,00,DD,00,
18859582,00000118,false,Rx,0,8,5A,07,22,18,00,00,00,00,
18859728,00000126,false,Rx,0,3,E3,06,00,00,00,00,00,00,
18859973,00000257,false,Rx,0,8,BE,44,1F,00,02,00,00,00,
18860163,000001D6,false,Rx,0,5,00,08,08,00,28,00,00,00,
18860293,00000279,false,Rx,0,2,CA,1F,00,00,00,00,00,00,
18860532,00000102,false,Rx,0,8,22,33,00,00,3E,F9,A0,09,
18860766,00000395,false,Rx,0,8,01,11,19,3B,18,04,09,7D,
18879761,00000108,false,Rx,0,8,10,07,00,00,00,00,00,00,
18879771,000002B6,false,Rx,0,2,00,03,00,00,00,00,00,00,
18879780,000003C2,false,Rx,0,8,00,55,55,55,00,00,65,09,
18879789,00000128,false,Rx,0,2,80,00,00,00,00,00,00,00,
18879798,00000123,false,Rx,0,8,00,00,12,12,D2,00,00,00,
18879807,00000268,false,Rx,0,5,2C,01,3F,01,9B,00,00,00,
18879817,000002B3,false,Rx,0,8,52,22,9C,0C,02,27,21,00,
18879826,00000129,false,Rx,0,8,79,29,36,5F,00,20,FF,3F,
18879835,00000359,false,Rx,0,8,10,00,00,00,00,00,00,00,
18879845,000001D8,false,Rx,0,8,21,00,00,00,00,00,20,1A,
18879854,00000247,false,Rx,0,8,AA,0E,FF,00,00,00,00,00,
18879863,00000201,false,Rx,0,8,28,A6,18,00,6C,24,03,00,
18879873,00000227,false,Rx,0,8,00,00,00,00,47,00,00,80,
18879882,000001D5,false,Rx,0,8,21,00,00,00,00,00,80,77,
18879892,000007A8,false,Rx,0,8,01,00,00,00,FF,A1,08,00,
18879901,00000122,false,Rx,0,6,00,00,12,12,D2,00,00,00,
18879911,000003A3,false,Rx,0,5,12,D0,00,00,08,00,00,00,
18879921,00000132,false,Rx,0,8,C1,90,CD,FF,BC,26,FF,0F,
18879930,000002E1,false,Rx,0,8,54,0F,00,10,03,03,00,00,
18879939,00000212,false,Rx,0,8,B9,04,8B,8D,00,00,1E,6B,
18879949,00000252,false,Rx,0,8,69,13,AA,7C,00,00,A1,0F,
18879958,00000266,false,Rx,0,8,00,00,01,1F,00,00,3D,01,
18879968,00000292,false,Rx,0,8,6F,46,89,E7,9C,0A,03,00,
18880011,00000016,false,Rx,0,1,01,00,00,00,00,00,00,00,
18880020,00000243,false,Rx,0,8,08,81,42,60,92,2C,0E,09,
18880029,00000118,false,Rx,0,8,5B,08,22,18,00,00,00,00,
18880038,000002D2,false,Rx,0,8,54,5E,5A,9D,14,05,E8,28,
18880048,000002E5,false,Rx,0,8,00,00,03,0D,00,00,DD,00,
18880057,000002F2,false,Rx,0,2,12,02,00,00,00,00,00,00,
18880066,0000038A,false,Rx,0,8,01,00,00,00,00,00,00,00,
18880076,00000772,false,Rx,0,8,A0,02,AC,08,52,08,AC,08,
18880085,000007D5,false,Rx,0,8,2B,00,00,00,00,00,00,00,
18880094,0000020C,false,Rx,0,7,00,78,33,0A,DA,00,30,00,
18880104,000007D5,false,Rx,0,8,32,0E,04,00,00,00,00,00,
18880120,00000228,false,Rx,0,8,83,08,06,00,A0,27,80,02,
18880130,00000129,false,Rx,0,8,52,2A,37,5F,00,20,FF,3F,
18880139,000001F8,false,Rx,0,4,3A,00,00,00,00,00,00,00,
18880148,00000229,false,Rx,0,3,46,00,00,00,00,00,00,00,
18880157,000001D8,false,Rx,0,8,21,00,00,00,00,00,40,3A,
18880167,00000249,false,Rx,0,3,2A,09,00,00,00,00,00,00,
18880176,0000054F,false,Rx,0,8,00,00,00,00,00,00,00,00,
18880185,000002C1,false,Rx,0,8,01,00,00,14,28,00,64,00,
18880195,00000381,false,Rx,0,8,23,F6,CA,C8,CC,D9,24,00,
18880204,00000409,false,Rx,0,1,20,00,00,00,00,00,00,00,
18880213,000001D5,false,Rx,0,8,21,00,00,00,00,00,A0,97,
18880255,00000221,false,Rx,0,8,61,05,05,00,00,00,80,0E,
18880265,000003E3,false,Rx,0,2,04,00,00,00,00,00,00,00,
18880274,00000132,false,Rx,0,8,BE,90,D0,FF,B7,26,FF,0F,
18880283,00000398,false,Rx,0,7,00,00,00,00,00,00,00,00,
18880292,0000039A,false,Rx,0,8,9A,93,8F,CB,8F,89,7D,0D,
18880302,000003E2,false,Rx,0,7,44,15,00,D1,EF,CE,00,00,
18880311,000001FB,false,Rx,0,8,21,0B,08,00,02,00,00,00,
18880320,00000261,false,Rx,0,8,FA,19,C8,05,09,40,F1,FF,
18880330,00000266,false,Rx,0,8,00,00,01,1F,00,00,3D,01,
18880339,00000016,false,Rx,0,1,01,00,00,00,00,00,00,00,
18880348,000002E5,false,Rx,0,8,00,00,03,0D,00,00,DD,00,
18880357,00000118,false,Rx,0,8,5C,09,22,18,00,00,00,00,
18880367,000006E8,false,Rx,0,8,01,00,00,00,00,00,00,00,
18880376,00000257,false,Rx,0,8,BF,45,1F,00,02,00,00,00,
18881671,000004E3,false,Rx,0,8,02,9D,01,00,00,00,08,00,
18882316,00000129,false,Rx,0,8,CA,2B,37,5F,FF,1F,FF,3F,
18882922,000001D8,false,Rx,0,8,21,00,00,00,00,00,60,5A,
18883707,00000201,false,Rx,0,8,C9,64,28,FF,07,FF,30,00,
18883947,000002F9,false,Rx,0,8,10,DB,EA,4F,1A,05,FF,00,
18884474,000004E2,false,Rx,0,8,02,A8,00,00,00,00,08,00,
18884749,000001D5,false,Rx,0,8,21,00,00,00,00,00,C0,B7,
18885707,000002E1,false,Rx,0,8,FD,1F,F9,E9,9D,EF,09,00,
18886203,000002E8,false,Rx,0,8,02,00,00,00,00,80,E0,4C,
18886458,00000272,false,Rx,0,8,11,00,C7,00,00,00,00,00,
18886650,000002E3,false,Rx,0,6,D4,43,63,29,9D,04,00,00,
18886900,00000473,false,Rx,0,8,30,00,00,00,00,00,00,00,
18887681,00000132,false,Rx,0,8,C1,90,CE,FF,BD,26,FF,0F,
18889058,00000266,false,Rx,0,8,00,00,01,1F,00,00,3D,01,
18889170,00000016,false,Rx,0,1,01,00,00,00,00,00,00,00,
18889414,00000118,false,Rx,0,8,5D,0A,22,18,00,00,00,00,
18889580,0000022A,false,Rx,0,4,00,00,39,17,00,00,00,00,
18889825,000002E5,false,Rx,0,8,00,00,03,0D,00,00,DD,00,
18890435,00000262,false,Rx,0,6,0B,00,BA,E1,00,30,00,00,
18890798,000003F9,false,Rx,0,8,00,00,00,00,00,00,00,00,
18891481,0000023E,false,Rx,0,8,3F,C6,72,DB,01,02,B8,4D,
18891716,00000343,false,Rx,0,8,00,90,54,2E,9E,49,01,00,
18891952,00000545,false,Rx,0,8,74,00,58,A0,9F,FA,A9,F8,
18892318,00000129,false,Rx,0,8,AA,2C,37,5F,FF,1F,FF,3F,
18892692,00000281,false,Rx,0,6,00,00,FF,1F,00,00,00,00,
18892941,000001D8,false,Rx,0,8,21,00,00,00,00,00,80,7A,
18893145,00000448,false,Rx,0,6,00,00,10,11,00,00,00,00,
18893721,000002C1,false,Rx,0,8,02,AB,83,51,00,AF,00,00,
18894455,00000282,false,Rx,0,8,89,29,28,28,20,02,40,0F,
18894736,000001D5,false,Rx,0,8,21,00,00,00,00,00,E0,D7,
18895673,00000263,false,Rx,0,8,00,C7,B4,5F,5F,BC,FA,00,
18896417,00000422,false,Rx,0,6,00,00,10,00,00,00,00,00,
18896682,000003C3,false,Rx,0,7,55,55,55,00,00,A9,00,00,
18897779,00000132,false,Rx,0,8,C6,90,CD,FF,AE,26,FF,0F,
18898014,00000339,false,Rx,0,8,5B,E1,02,00,80,03,40,03,
18899044,00000266,false,Rx,0,8,00,00,01,1F,00,00,3D,01,
18899161,00000016,false,Rx,0,1,01,00,00,00,00,00,00,00,
18899405,000002E5,false,Rx,0,8,00,00,03,0D,00,00,DD,00,
18899644,00000118,false,Rx,0,8,5E,0B,22,18,00,00,00,00,
18899884,00000257,false,Rx,0,8,C0,46,1F,00,02,00,00,00,
18900142,00000340,false,Rx,0,8,01,00,00,00,00,00,00,00,
18900516,00000207,false,Rx,0,8,00,2F,2F,19,15,00,00,00,
18901685,00000383,false,Rx,0,8,89,00,36,80,00,00,80,14,
18902321,00000129,false,Rx,0,8,B8,2D,37,5F,FF,1F,FF,3F,
18902561,000002C2,false,Rx,0,8,00,00,00,01,01,00,00,5A,
18902796,000002E1,false,Rx,0,8,10,21,0B,70,D3,48,00,00,
18903036,000001D8,false,Rx,0,8,21,00,00,00,00,00,A0,9A,
18921977,000003A2,false,Rx,0,8,7F,44,00,00,00,00,00,00,
18921987,00000393,false,Rx,0,8,11,00,C7,00,00,00,00,00,
18921996,00000201,false,Rx,0,8,FA,12,00,01,16,60,F3,03,
18922005,000001D5,false,Rx,0,8,21,00,00,00,00,00,00,F7,
18922015,000001F9,false,Rx,0,1,00,00,00,00,00,00,00,00,
18922024,00000423,false,Rx,0,6,80,00,10,00,00,00,00,00,
18922033,00000241,false,Rx,0,7,3C,78,2C,0F,1E,5B,00,00,
18922042,00000132,false,Rx,0,8,C2,90,CE,FF,B9,26,FF,0F,
18922052,0000039A,false,Rx,0,8,CD,FF,FE,FE,FE,08,00,06,
18922061,00000266,false,Rx,0,8,00,00,01,1F,00,00,3D,01,
18922071,00000016,false,Rx,0,1,01,00,00,00,00,00,00,00,
18922079,000002E5,false,Rx,0,8,00,00,03,0D,00,00,DD,00,
18922089,00000118,false,Rx,0,8,5F,0C,22,18,00,00,00,00,
18922098,000003C2,false,Rx,0,8,29,55,00,00,00,00,00,00,
18922115,000002C3,false,Rx,0,8,00,00,00,B0,01,00,00,5A,
18922125,00000439,false,Rx,0,8,00,00,20,00,00,00,FF,07,
18922134,00000129,false,Rx,0,8,FA,2E,36,5F,00,20,FF,3F,
18922143,00000362,false,Rx,0,3,00,00,00,00,00,00,00,00,
18922153,000001D8,false,Rx,0,8,21,00,00,00,00,00,C0,BA,
18922162,000002F1,false,Rx,0,8,0F,B9,D9,9C,99,53,39,28,
18922171,000002C1,false,Rx,0,8,03,00,64,0D,00,BE,04,00,
18922181,000001D5,false,Rx,0,8,21,00,00,00,00,00,20,17,
18922190,00000132,false,Rx,0,8,C1,90,CC,FF,B7,26,FF,0F,
18922200,00000372,false,Rx,0,8,01,A6,1A,01,00,03,10,03,
18922209,00000119,false,Rx,0,2,00,00,00,00,00,00,00,00,
18922218,00000266,false,Rx,0,8,00,00,01,1F,00,00,3D,01,
18922227,00000016,false,Rx,0,1,01,00,00,00,00,00,00,00,
18922236,00000118,false,Rx,0,8,60,0D,22,18,00,00,00,00,
18922246,00000257,false,Rx,0,8,C1,47,1F,00,02,00,00,00,
18922255,00000243,false,Rx,0,8,C9,00,E9,D2,35,32,02,00,
18922264,000002E1,false,Rx,0,8,39,6D,00,00,00,E5,67,03,
18922274,000002E5,false,Rx,0,8,00,00,03,0D,00,00,DD,00,
18922317,000003C8,false,Rx,0,8,04,00,00,00,00,00,00,00,
18922326,000003F5,false,Rx,0,8,00,C8,18,59,50,00,40,01,
18922335,000003D3,false,Rx,0,3,00,00,00,00,00,00,00,00,
18922345,00000129,false,Rx,0,8,0B,2F,36,5F,00,20,FF,3F,
18922912,000001D8,false,Rx,0,8,21,00,00,00,00,00,E0,DA,
18923707,00000201,false,Rx,0,8,CB,00,00,19,00,63,30,00,
18924150,000002C4,false,Rx,0,8,49,D9,FD,2E,A1,84,E5,88,
18924400,00000204,false,Rx,0,8,01,00,00,00,00,00,00,10,
18924608,00000264,false,Rx,0,6,38,00,00,00,A0,00,00,00,
18924852,000001D5,false,Rx,0,8,21,00,00,00,00,00,40,37,
18925092,00000224,false,Rx,0,8,44,08,00,00,13,01,10,08,
18925272,000002B4,false,Rx,0,5,65,8D,27,25,01,00,00,00,
18925500,00000287,false,Rx,0,8,5B,57,5A,58,E7,02,0A,09,
18925724,00000221,false,Rx,0,8,60,55,55,15,54,51,91,78,
18926159,00000788,false,Rx,0,8,C2,1E,0D,35,00,00,00,00,
18927603,000002D1,false,Rx,0,2,FF,01,00,00,00,00,00,00,
18927837,00000132,false,Rx,0,8,BE,90,C9,FF,A0,26,FF,0F,
18928061,00000398,false,Rx,0,7,00,00,00,00,00,00,00,00,
18928474,000001FB,false,Rx,0,8,F0,00,00,00,00,00,00,00,
18929045,00000266,false,Rx,0,8,00,00,01,1F,00,00,3D,01,
18929163,00000016,false,Rx,0,1,01,00,00,00,00,00,00,00,
18929401,000002E5,false,Rx,0,8,00,00,03,0D,00,00,DD,00,
18929646,00000118,false,Rx,0,8,61,0E,22,18,00,00,00,00,
18929798,000001A5,false,Rx,0,3,E5,02,00,00,00,00,00,00,
18929986,00000195,false,Rx,0,5,00,08,08,00,28,00,00,00,
18930123,0000027A,false,Rx,0,2,C9,0F,00,00,00,00,00,00,
18930346,00000396,false,Rx,0,8,01,32,32,38,31,12,19,7D,
18930590,00000186,false,Rx,0,8,8D,08,00,00,00,FF,FF,00,
18931506,0000023E,false,Rx,0,8,3F,C6,72,DB,01,02,C8,5D,
18932323,00000129,false,Rx,0,8,1A,20,37,5F,00,20,FF,3F,
18932932,000001D8,false,Rx,0,8,21,00,00,00,00,00,00,FA,
18933164,00000288,false,Rx,0,8,83,18,06,00,80,27,90,62,
18933709,000002C1,false,Rx,0,8,84,A6,92,01,64,A1,08,AE,
18934708,00000421,false,Rx,0,7,00,00,00,00,04,00,00,00,
18934948,000001D5,false,Rx,0,8,21,00,00,00,00,00,60,57,
18935184,00000379,false,Rx,0,8,68,07,68,80,A1,C1,E9,00,
18935641,0000077A,false,Rx,0,8,01,00,E4,5D,20,5E,FC,5D,
18935949,000003B3,false,Rx,0,4,D8,00,04,02,00,00,00,00,
18936186,0000076A,false,Rx,0,8,00,7D,4B,DF,02,00,00,00,
18936430,0000078A,false,Rx,0,8,01,00,06,00,00,00,08,00,
18936664,00000272,false,Rx,0,8,0C,00,1A,42,10,90,0C,10,
18936910,000002E1,false,Rx,0,8,02,00,00,00,00,00,01,00,
18937769,00000132,false,Rx,0,8,C1,90,CB,FF,BC,26,FF,0F,
18937999,0000039A,false,Rx,0,8,98,95,8F,CB,8F,89,7D,0D,
18939039,00000266,false,Rx,0,8,00,00,01,1F,00,00,3D,01,
18939155,00000016,false,Rx,0,1,01,00,00,00,00,00,00,00,
18939398,00000118,false,Rx,0,8,62,0F,22,18,00,00,00,00,
18939643,00000257,false,Rx,0,8,C2,48,1F,00,02,00,00,00,
18939882,000002E5,false,Rx,0,8,00,00,03,0D,00,00,DD,00,
18940136,00000757,false,Rx,0,8,32,0E,00,00,00,00,00,00,
18940276,00000113,false,Rx,0,3,01,97,01,00,00,00,00,00,
18940525,000006C8,false,Rx,0,8,40,06,00,1C,00,00,00,00,
18940765,000007FF,false,Rx,0,8,01,0D,42,47,02,04,16,00,
18940995,00000318,false,Rx,0,8,14,03,17,0C,09,33,1B,AC,
18941226,00000458,false,Rx,0,7,02,02,00,80,00,00,00,00,
18941465,00000405,false,Rx,0,8,10,00,00,00,00,35,59,4A,
18941610,00000225,false,Rx,0,3,55,55,7A,00,00,00,00,00,
18941730,00000139,false,Rx,0,1,00,00,00,00,00,00,00,00,
18941954,000003A1,false,Rx,0,8,84,4E,74,85,01,2C,E2,7E,
18942180,00000545,false,Rx,0,8,03,19,64,32,19,00,B0,C5,
18942420,00000129,false,Rx,0,8,0D,21,37,5F,00,20,FF,3F,
18942571,000001FA,false,Rx,0,3,3A,C0,01,00,00,00,00,00,
18942971,000001D8,false,Rx,0,8,21,00,00,00,00,00,20,1A,
18943674,00000361,false,Rx,0,5,1B,07,10,03,00,00,00,00,
18943915,00000201,false,Rx,0,8,CC,00,00,19,00,63,30,00,
18944457,00000282,false,Rx,0,8,74,B4,D1,06,14,54,F3,24,
18944737,000001D5,false,Rx,0,8,21,00,00,00,00,00,80,77,
18945291,00000211,false,Rx,0,6,AB,16,71,0F,00,02,00,00,
18946625,00000283,false,Rx,0,6,1A,16,00,00,41,00,00,00,
18947152,000002A8,false,Rx,0,8,02,00,00,00,00,80,F0,1C,
18947686,00000132,false,Rx,0,8,C3,90,D0,FF,AC,26,FF,0F,
18948342,00000242,false,Rx,0,2,55,D5,00,00,00,00,00,00,
18948788,000003DA,false,Rx,0,8,00,00,00,00,00,00,00,00,
18949044,00000266,false,Rx,0,8,00,00,01,1F,00,00,3D,01,
18949160,00000016,false,Rx,0,1,01,00,00,00,00,00,00,00,
18968011,00000118,false,Rx,0,8,53,00,22,18,00,00,00,00,
18968020,0000021D,false,Rx,0,8,04,00,04,00,00,00,00,00,
18968030,0000025D,false,Rx,0,8,47,28,05,BE,40,A1,02,C0,
18968039,000002E5,false,Rx,0,8,00,00,03,0D,00,00,DD,00,
18968049,0000027D,false,Rx,0,8,00,00,00,00,00,00,00,00,
18968058,0000029D,false,Rx,0,4,00,00,00,00,00,00,00,00,
18968067,0000041D,false,Rx,0,1,00,00,00,00,00,00,00,00,
18968076,000002BD,false,Rx,0,4,00,00,00,00,00,00,00,00,
18968085,0000043D,false,Rx,0,6,00,00,00,00,FF,00,00,00,
18968095,000003C0,false,Rx,0,8,00,00,00,00,00,00,00,00,
18968104,000002B3,false,Rx,0,8,03,4E,4E,D0,00,32,01,00,
18968121,0000075D,false,Rx,0,8,08,67,AD,5A,AD,BB,AD,02,
18968130,00000129,false,Rx,0,8,44,22,37,5F,00,20,FF,3F,
18968140,000003A2,false,Rx,0,8,00,20,F3,F0,AC,0A,C5,67,
18968149,0000077D,false,Rx,0,3,11,00,00,00,00,00,00,00,
18968158,000001D8,false,Rx,0,8,21,00,00,00,00,00,40,3A,
18968168,000007DD,false,Rx,0,2,FF,00,00,00,00,00,00,00,
18968177,00000393,false,Rx,0,8,0C,00,1C,62,10,90,0C,10,
18968186,000002C1,false,Rx,0,8,18,66,18,0E,8E,3F,00,00,
18968195,000002E1,false,Rx,0,8,03,DE,99,02,1B,3F,EF,01,
18968205,00000428,false,Rx,0,6,00,00,10,11,00,00,00,00,
18968214,00000360,false,Rx,0,8,07,00,00,00,00,00,00,00,
18968223,000001D5,false,Rx,0,8,21,00,00,00,00,00,A0,97,
18968233,0000037A,false,Rx,0,8,02,40,1B,3A,19,8F,36,00,
18968242,00000103,false,Rx,0,8,22,33,00,00,36,3D,21,32,
18968251,00000132,false,Rx,0,8,C5,90,CC,FF,B1,26,FF,0F,
18968261,000003E8,false,Rx,0,8,04,00,00,00,00,00,00,00,
18968270,00000266,false,Rx,0,8,00,00,01,1F,00,00,3D,01,
18968280,00000016,false,Rx,0,1,01,00,00,00,00,00,00,00,
18968289,000002E5,false,Rx,0,8,00,00,03,0D,00,00,DD,00,
18968298,00000118,false,Rx,0,8,54,01,22,18,00,00,00,00,
18968307,00000126,false,Rx,0,3,E3,06,00,00,00,00,00,00,
18968316,00000257,false,Rx,0,8,C3,49,1F,00,02,00,00,00,
18968326,000001D6,false,Rx,0,5,00,08,08,00,28,00,00,00,
18968335,00000279,false,Rx,0,2,CA,1F,00,00,00,00,00,00,
18968344,00000102,false,Rx,0,8,22,33,00,00,3C,F9,A0,09,
18968353,00000395,false,Rx,0,8,01,11,1A,3B,18,04,0A,7D,
18968363,000003C2,false,Rx,0,8,00,55,55,55,00,00,65,09,
18968372,00000108,false,Rx,0,8,12,08,00,00,00,01,00,00,
18968381,000002B6,false,Rx,0,2,00,03,00,00,00,00,00,00,
18968390,00000128,false,Rx,0,2,80,00,00,00,00,00,00,00,
18968400,00000123,false,Rx,0,8,00,00,12,12,D2,00,00,00,
18968409,00000268,false,Rx,0,5,2C,01,3F,01,9B,00,00,00,
18968418,00000129,false,Rx,0,8,53,23,37,5F,00,20,FF,3F,
18968427,00000263,false,Rx,0,8,01,C5,BA,60,5D,BC,FA,03,
18968437,00000359,false,Rx,0,8,11,00,00,00,00,00,00,00,
18968446,000001D8,false,Rx,0,8,21,00,00,00,00,00,60,5A,
18968456,00000247,false,Rx,0,8,A8,0E,FF,00,00,00,00,00,
18968498,00000201,false,Rx,0,8,28,26,18,00,6C,24,03,00,
18968507,00000227,false,Rx,0,8,00,00,00,00,47,00,00,80,
18968517,00000381,false,Rx,0,8,24,F4,C9,C8,CB,DA,24,00,
18968526,000001D5,false,Rx,0,8,21,00,00,00,00,00,C0,B7,
18968535,000007A8,false,Rx,0,8,BA,1E,1D,F5,00,00,00,00,
18968545,00000122,false,Rx,0,6,00,00,12,12,D2,00,00,00,
18968554,00000252,false,Rx,0,8,69,13,AA,7C,00,00,A1,0F,
18968563,00000212,false,Rx,0,8,B9,04,8B,8D,00,00,1E,6B,
18968573,00000292,false,Rx,0,8,6F,46,89,E7,9C,0A,03,00,
18968582,000002D2,false,Rx,0,8,54,5E,5A,9D,14,05,E8,28,
18968592,000002F2,false,Rx,0,2,12,02,00,00,00,00,00,00,
18968601,000003A3,false,Rx,0,5,12,D0,00,00,08,00,00,00,
18968610,0000039A,false,Rx,0,8,CD,FF,FE,FE,FE,08,00,06,
18968619,00000132,false,Rx,0,8,C7,90,CD,FF,B0,26,FF,0F,
18968859,00000266,false,Rx,0,8,00,00,01,1F,00,00,3D,01,
18968980,00000016,false,Rx,0,1,01,00,00,00,00,00,00,00,
18969221,000002E5,false,Rx,0,8,00,00,03,0D,00,00,DD,00,
18969460,00000118,false,Rx,0,8,55,02,22,18,00,00,00,00,
18969694,00000243,false,Rx,0,8,08,81,42,60,92,2C,0E,09,
18969942,0000038A,false,Rx,0,8,03,00,00,00,00,00,00,00,
18970195,000007D5,false,Rx,0,8,2B,00,00,00,00,00,00,00,
18970439,000007D5,false,Rx,0,8,32,0E,04,00,00,00,00,00,
18970730,000002E1,false,Rx,0,8,54,0F,00,10,03,03,00,00,
18971650,0000023E,false,Rx,0,8,3F,C6,72,DB,01,02,D8,6D,
18971875,0000020C,false,Rx,0,7,00,98,33,0A,DA,00,30,00,
18972241,00000228,false,Rx,0,8,83,08,06,00,80,27,90,F2,
18972481,00000129,false,Rx,0,8,D5,24,37,5F,00,20,FF,3F,
18972653,000001F8,false,Rx,0,4,3A,00,00,00,00,00,00,00,
18972798,00000229,false,Rx,0,3,44,01,00,00,00,00,00,00,
18973043,000001D8,false,Rx,0,8,21,00,00,00,00,00,80,7A,
18973192,00000249,false,Rx,0,3,74,0A,00,00,00,00,00,00,
18973462,0000054F,false,Rx,0,8,00,00,00,00,00,00,00,00,
18973577,00000409,false,Rx,0,1,20,00,00,00,00,00,00,00,
18973816,000002C1,false,Rx,0,8,01,00,00,14,28,00,64,00,
18974730,000001D5,false,Rx,0,8,21,00,00,00,00,00,E0,D7,
18975708,00000221,false,Rx,0,8,61,05,05,00,00,00,A0,2E,
18976562,000003E3,false,Rx,0,2,04,00,00,00,00,00,00,00,
18977695,00000132,false,Rx,0,8,CA,90,CC,FF,9B,26,FF,0F,
18977943,0000034A,false,Rx,0,8,03,00,00,00,00,00,00,00,
18978169,00000398,false,Rx,0,7,00,00,00,00,00,00,00,00,
18978444,000003E2,false,Rx,0,7,44,15,00,D1,EF,CE,00,00,
18978683,000001FB,false,Rx,0,8,21,0B,08,00,02,00,00,00,
18978922,00000261,false,Rx,0,8,FD,19,C8,05,09,40,18,00,
18979159,00000266,false,Rx,0,8,00,00,01,1F,00,00,3D,01,
18979279,00000016,false,Rx,0,1,01,00,00,00,00,00,00,00,
18979518,000002E5,false,Rx,0,8,00,00,03,0D,00,00,DD,00,
18979762,00000118,false,Rx,0,8,56,03,22,18,00,00,00,00,
18980003,00000257,false,Rx,0,8,C4,4A,1F,00,02,00,00,00,
18980250,000006E8,false,Rx,0,8,40,06,00,1C,00,00,00,00,
18981673,000004E3,false,Rx,0,8,03,DE,00,00,00,00,08,00,
18982319,00000129,false,Rx,0,8,36,25,36,5F,00,20,FF,3F,
18982912,000001D8,false,Rx,0,8,21,00,00,00,00,00,A0,9A,
18983713,00000201,false,Rx,0,8,C9,64,28,FF,07,FF,30,00,
18983954,000002F9,false,Rx,0,8,10,DB,EA,4F,1A,05,FF,00,
18984474,000004E2,false,Rx,0,8,03,13,02,00,00,00,08,00,
18984734,000001D5,false,Rx,0,8,21,00,00,00,00,00,00,F7,
18985784,00000333,false,Rx,0,4,04,10,E8,07,00,00,00,00,
18986035,00000334,false,Rx,0,8,3F,3F,FF,C8,00,02,80,FE,
18986276,000002E8,false,Rx,0,8,02,00,00,00,00,80,F0,5C,
19005159,00000272,false,Rx,0,8,11,00,C7,00,00,00,00,00,
19005168,000002E3,false,Rx,0,6,A0,00,0D,25,82,03,00,00,
19005178,00000132,false,Rx,0,8,C6,90,C7,FF,AC,26,FF,0F,
19005187,000002E1,false,Rx,0,8,FD,1F,F9,F9,9D,F9,09,00,
19005196,00000266,false,Rx,0,8,00,00,01,1F,00,00,3D,01,
19005206,00000016,false,Rx,0,1,01,00,00,00,00,00,00,00,
19005215,00000118,false,Rx,0,8,57,04,22,18,00,00,00,00,
19005224,0000022A,false,Rx,0,4,00,00,39,17,00,00,00,00,
19005233,000002E5,false,Rx,0,8,00,00,03,0D,00,00,DD,00,
19005243,00000262,false,Rx,0,6,0B,00,BA,E1,00,30,00,00,
19005252,000003F9,false,Rx,0,8,01,00,00,00,00,00,00,00,
19005261,00000343,false,Rx,0,8,00,90,64,5E,9E,49,01,00,
19005271,00000545,false,Rx,0,8,74,00,58,C0,9F,FC,C9,3A,
19005280,00000129,false,Rx,0,8,EC,26,36,5F,00,20,FF,3F,
19005289,00000281,false,Rx,0,6,00,00,FF,1F,00,00,00,00,
19005299,000001D8,false,Rx,0,8,21,00,00,00,00,00,C0,BA,
19005308,00000448,false,Rx,0,6,00,00,10,11,00,00,00,00,
19005317,000002C1,false,Rx,0,8,02,AB,83,51,00,AF,00,00,
19005327,00000282,false,Rx,0,8,89,29,28,28,54,01,40,0F,
19005336,000001D5,false,Rx,0,8,21,00,00,00,00,00,20,17,
19005345,00000422,false,Rx,0,6,00,00,10,00,00,00,00,00,
19005355,000003C3,false,Rx,0,7,55,55,55,00,00,A9,00,00,
19005364,00000132,false,Rx,0,8,C6,90,CC,FF,9F,26,FF,0F,
19005373,00000339,false,Rx,0,8,5B,E1,02,00,80,03,40,03,
19005383,0000039A,false,Rx,0,8,98,95,8F,CB,8F,89,7D,0D,
19005392,00000372,false,Rx,0,8,02,61,00,7C,01,00,00,00,
19005402,000007C8,false,Rx,0,8,11,00,00,00,00,00,00,00,
19005411,00000266,false,Rx,0,8,00,00,01,1F,00,00,3D,01,
19005420,00000016,false,Rx,0,1,01,00,00,00,00,00,00,00,
19005429,000002E5,false,Rx,0,8,00,00,03,0D,00,00,DD,00,
19005439,00000118,false,Rx,0,8,58,05,22,18,00,00,00,00,
19005448,00000257,false,Rx,0,8,C5,4B,1F,00,02,00,00,00,
19005457,00000340,false,Rx,0,8,02,00,00,00,00,00,00,00,
19005467,00000207,false,Rx,0,8,00,2D,2D,1A,17,00,00,00,
19005476,00000383,false,Rx,0,8,89,00,36,80,00,00,80,14,
19005486,00000129,false,Rx,0,8,0F,27,37,5F,00,20,FF,3F,
19005495,000002C2,false,Rx,0,8,55,5B,A9,C6,03,00,52,00,
19005504,000003A2,false,Rx,0,8,7F,44,00,00,00,00,00,00,
19005514,000001D8,false,Rx,0,8,21,00,00,00,00,00,E0,DA,
19005523,00000393,false,Rx,0,8,11,00,C7,00,00,00,00,00,
19005532,00000201,false,Rx,0,8,FA,12,00,01,16,60,F3,03,
19005542,000001D5,false,Rx,0,8,21,00,00,00,00,00,40,37,
19005551,000001F9,false,Rx,0,1,00,00,00,00,00,00,00,00,
19005560,000002E1,false,Rx,0,8,10,21,0B,70,D3,48,00,00,
19006621,00000423,false,Rx,0,6,80,00,10,00,00,00,00,00,
19006845,00000241,false,Rx,0,7,3C,78,2C,0F,1E,5B,00,00,
19007684,00000132,false,Rx,0,8,C4,90,D0,FF,B2,26,FF,0F,
19008917,00000266,false,Rx,0,8,00,00,01,1F,00,00,3D,01,
19009159,000002E5,false,Rx,0,8,00,00,03,0D,00,00,DD,00,
19009274,00000016,false,Rx,0,1,01,00,00,00,00,00,00,00,
19009518,00000118,false,Rx,0,8,59,06,22,18,00,00,00,00,
19010490,000003C2,false,Rx,0,8,29,55,00,00,00,00,00,00,
19011665,000002C3,false,Rx,0,8,55,63,A9,C6,03,00,5A,00,
19011905,0000023E,false,Rx,0,8,3F,C6,72,DB,05,02,E8,81,
19012152,00000439,false,Rx,0,8,00,00,20,00,00,00,FF,07,
19012391,00000129,false,Rx,0,8,D8,28,37,5F,00,20,FF,3F,
19012635,000002E2,false,Rx,0,8,01,00,00,FB,C0,02,00,00,
19012935,000001D8,false,Rx,0,8,21,00,00,00,00,00,00,FA,
19013710,000002F1,false,Rx,0,8,10,87,03,41,14,00,28,28,
19013950,000002C1,false,Rx,0,8,03,00,64,0D,00,BE,04,00,
19014745,000001D5,false,Rx,0,8,21,00,00,00,00,00,60,57,
19017682,00000132,false,Rx,0,8,C4,90,CB,FF,A7,26,FF,0F,
19018675,00000119,false,Rx,0,2,00,00,00,00,00,00,00,00,
19018988,00000266,false,Rx,0,8,00,00,01,1F,00,00,3D,01,
19019103,00000016,false,Rx,0,1,01,00,00,00,00,00,00,00,
19019344,000002E5,false,Rx,0,8,00,00,03,0D,00,00,DD,00,
19019583,00000118,false,Rx,0,8,5A,07,22,18,00,00,00,00,
19019817,00000243,false,Rx,0,8,C9,00,E9,D2,35,32,02,00,
19020057,00000257,false,Rx,0,8,C6,4C,1F,00,02,00,00,00,
19020310,000003C8,false,Rx,0,8,05,00,00,00,00,00,00,00,
19020762,000003F5,false,Rx,0,8,00,C8,18,59,50,00,40,01,
19021719,000002E1,false,Rx,0,8,39,6D,00,00,00,E5,67,03,
19022324,00000129,false,Rx,0,8,8D,29,37,5F,00,20,FF,3F,
19022911,000001D8,false,Rx,0,8,21,00,00,00,00,00,20,1A,
19023717,00000201,false,Rx,0,8,CB,00,00,19,00,63,30,00,
19024162,000002C4,false,Rx,0,8,0A,00,00,80,45,AF,00,00,
19024412,00000204,false,Rx,0,8,01,00,00,00,00,00,00,10,
19024620,00000264,false,Rx,0,6,38,00,00,00,A0,00,00,00,
19024865,000001D5,false,Rx,0,8,21,00,00,00,00,00,80,77,
19025099,00000224,false,Rx,0,8,44,08,00,00,13,01,10,08,
19025285,000002B4,false,Rx,0,5,65,8D,27,27,01,00,00,00,
19025721,00000221,false,Rx,0,8,60,55,55,15,54,51,B1,98,
19026187,00000788,false,Rx,0,8,F4,E4,E1,63,04,00,00,00,
19026753,00000287,false,Rx,0,8,5B,57,5A,58,E7,02,0A,09,
19027606,000002D1,false,Rx,0,2,FF,01,00,00,00,00,00,00,
19027834,00000132,false,Rx,0,8,C1,90,CC,FF,9A,26,FF,0F,
19028065,00000398,false,Rx,0,7,00,00,00,00,00,00,00,00,
19028307,0000039A,false,Rx,0,8,CD,FF,FE,FE,FE,00,00,06,
19028556,000001FB,false,Rx,0,8,F0,00,00,00,00,00,00,00,
19029056,00000266,false,Rx,0,8,00,00,01,1F,00,00,3D,01,
19029167,00000016,false,Rx,0,1,01,00,00,00,00,00,00,00,
19029412,000002E5,false,Rx,0,8,00,00,03,0D,00,00,DD,00,
19029651,00000118,false,Rx,0,8,5B,08,22,18,00,00,00,00,
19029807,000001A5,false,Rx,0,3,E5,02,00,00,00,00,00,00,
19030042,00000263,false,Rx,0,8,02,00,00,04,F8,23,32,00,
19030233,00000195,false,Rx,0,5,00,08,08,00,28,00,00,00,
19030363,0000027A,false,Rx,0,2,CA,0F,00,00,00,00,00,00,
19030596,00000396,false,Rx,0,8,01,32,32,38,31,13,19,7D,
19030836,00000186,false,Rx,0,8,8E,09,00,00,00,FF,FF,00,
19032320,00000129,false,Rx,0,8,52,2A,37,5F,00,20,FF,3F,
19032920,000001D8,false,Rx,0,8,21,00,00,00,00,00,40,3A,
19033163,00000288,false,Rx,0,8,83,18,06,00,80,27,A0,72,
19033707,000002C1,false,Rx,0,8,84,A6,92,01,64,A1,08,AE,
19034704,00000421,false,Rx,0,7,00,00,00,00,04,00,00,00,
19034944,000001D5,false,Rx,0,8,21,00,00,00,00,00,A0,97,
19035181,00000379,false,Rx,0,8,69,07,68,80,A1,C1,E9,00,
19054182,000007AA,false,Rx,0,8,04,00,0F,C0,00,25,00,00,
19054191,0000078A,false,Rx,0,8,01,00,07,00,00,00,A5,04,
19054201,000003BB,false,Rx,0,2,2B,0F,00,00,00,00,00,00,
19054210,00000272,false,Rx,0,8,0C,00,1C,42,10,90,0C,10,
19054219,000002F3,false,Rx,0,5,07,C7,22,24,00,00,00,00,
19054229,0000033A,false,Rx,0,8,AF,00,AF,00,F5,00,39,39,
19054238,00000132,false,Rx,0,8,B9,90,CF,FF,B4,26,FF,0F,
19054247,000002E1,false,Rx,0,8,02,00,00,00,00,00,01,00,
19054257,00000266,false,Rx,0,8,00,00,01,1F,00,00,3D,01,
19054266,000002E5,false,Rx,0,8,00,00,03,0D,00,00,DD,00,
19054275,00000016,false,Rx,0,1,01,00,00,00,00,00,00,00,
19054284,00000757,false,Rx,0,8,32,0E,00,00,00,00,00,00,
19054294,00000118,false,Rx,0,8,5C,09,22,18,00,00,00,00,
19054303,00000257,false,Rx,0,8,C7,4D,1F,00,02,00,00,00,
19054312,00000113,false,Rx,0,3,01,97,01,00,00,00,00,00,
19054354,000006C8,false,Rx,0,8,01,00,00,00,00,00,00,00,
19054363,000007FF,false,Rx,0,8,02,46,F6,79,DC,51,18,A2,
19054373,00000318,false,Rx,0,8,14,03,17,0C,09,33,1D,AE,
19054382,00000458,false,Rx,0,7,02,02,00,80,00,00,00,00,
19054391,00000225,false,Rx,0,3,55,55,7A,00,00,00,00,00,
19054400,00000139,false,Rx,0,1,00,00,00,00,00,00,00,00,
19054409,000002B3,false,Rx,0,8,04,B1,B1,9F,9F,00,00,00,
19054419,000003A1,false,Rx,0,8,84,4E,74,85,01,2C,F2,8E,
19054428,00000129,false,Rx,0,8,57,2B,36,5F,00,20,FF,3F,
19054438,000001FA,false,Rx,0,3,3A,C0,01,00,00,00,00,00,
19054447,00000545,false,Rx,0,8,03,19,64,32,19,00,D0,E5,
19054456,000001D8,false,Rx,0,8,21,00,00,00,00,00,60,5A,
19054465,00000201,false,Rx,0,8,CC,00,00,19,00,63,30,00,
19054475,00000282,false,Rx,0,8,74,B4,D1,06,14,54,F3,24,
19054484,000001D5,false,Rx,0,8,21,00,00,00,00,00,C0,B7,
19054494,00000211,false,Rx,0,6,AC,17,71,0F,00,02,00,00,
19054503,00000283,false,Rx,0,6,1A,16,00,00,41,00,00,00,
19054512,000002A8,false,Rx,0,8,02,00,00,00,00,80,00,2C,
19054521,00000132,false,Rx,0,8,B9,90,C8,FF,92,26,FF,0F,
19054531,00000242,false,Rx,0,2,55,D5,00,00,00,00,00,00,
19054540,000003DA,false,Rx,0,8,00,00,00,00,00,00,00,00,
19054549,00000266,false,Rx,0,8,00,00,01,1F,00,00,3D,01,
19054559,00000016,false,Rx,0,1,01,00,00,00,00,00,00,00,
19054568,000002E5,false,Rx,0,8,00,00,03,0D,00,00,DD,00,
19054610,00000118,false,Rx,0,8,5D,0A,22,18,00,00,00,00,
19054619,0000021D,false,Rx,0,8,04,00,04,00,00,00,00,00,
19054629,0000025D,false,Rx,0,8,47,28,05,BE,40,A1,02,C0,
19054638,0000027D,false,Rx,0,8,00,00,00,00,00,00,00,00,
19054647,0000041D,false,Rx,0,1,00,00,00,00,00,00,00,00,
19054656,0000029D,false,Rx,0,4,00,00,00,00,00,00,00,00,
19054666,0000043D,false,Rx,0,6,00,00,00,00,FF,00,00,00,
19054675,000002BD,false,Rx,0,4,00,00,00,00,00,00,00,00,
19054684,0000023E,false,Rx,0,8,3F,C6,72,DB,05,02,F8,91,
19054693,000003C0,false,Rx,0,8,01,00,00,00,00,00,00,00,
19054703,0000077D,false,Rx,0,3,11,00,00,00,00,00,00,00,
19054712,000007DD,false,Rx,0,2,FF,00,00,00,00,00,00,00,
19054721,00000129,false,Rx,0,8,C3,2C,37,5F,00,20,FF,3F,
19054730,000003A2,false,Rx,0,8,00,A0,F2,F5,AC,0A,C5,67,
19054740,000001D8,false,Rx,0,8,21,00,00,00,00,00,80,7A,
19054749,00000393,false,Rx,0,8,0C,00,1C,62,10,90,0C,10,
19054758,000002C1,false,Rx,0,8,18,66,18,0E,8E,3F,00,00,
19054768,00000381,false,Rx,0,8,05,FF,BF,FD,FD,BF,24,00,
19054777,00000428,false,Rx,0,6,00,00,10,11,00,00,00,00,
19054786,00000360,false,Rx,0,8,00,00,00,00,00,00,00,00,
19054850,000001D5,false,Rx,0,8,21,00,00,00,00,00,E0,D7,
19055709,000002E1,false,Rx,0,8,03,DE,99,02,1B,3F,EF,01,
19055944,0000037A,false,Rx,0,8,00,80,1A,C9,73,FD,37,00,
19056673,00000103,false,Rx,0,8,22,33,00,00,36,3D,21,32,
19057677,00000132,false,Rx,0,8,BD,90,CE,FF,A7,26,FF,0F,
19057827,00000399,false,Rx,0,3,00,00,00,00,00,00,00,00,
19058052,0000039A,false,Rx,0,8,98,95,8F,CB,91,89,7B,0D,
19058304,000003E8,false,Rx,0,8,05,00,00,00,00,00,00,00,
19059030,00000266,false,Rx,0,8,00,00,01,1F,00,00,3D,01,
19059146,00000016,false,Rx,0,1,01,00,00,00,00,00,00,00,
19059390,00000118,false,Rx,0,8,5E,0B,22,18,00,00,00,00,
19059536,00000126,false,Rx,0,3,E3,06,00,00,00,00,00,00,
19059780,00000257,false,Rx,0,8,C8,4E,1F,00,02,00,00,00,
19059964,000001D6,false,Rx,0,5,00,08,08,00,28,00,00,00,
19060094,00000279,false,Rx,0,2,CA,1F,00,00,00,00,00,00,
19060340,000002E5,false,Rx,0,8,00,00,03,0D,00,00,DD,00,
19060574,00000102,false,Rx,0,8,22,33,00,00,3C,F9,A0,09,
19060809,00000395,false,Rx,0,8,01,11,1A,3B,18,04,0A,7D,
19061055,00000108,false,Rx,0,8,12,09,00,00,00,00,00,00,
19061193,000002B6,false,Rx,0,2,00,03,00,00,00,00,00,00,
19061427,000003C2,false,Rx,0,8,00,55,55,55,00,00,65,09,
19061557,00000128,false,Rx,0,2,80,00,00,00,00,00,00,00,
19061801,00000123,false,Rx,0,8,00,00,12,12,D2,00,00,00,
19061985,00000268,false,Rx,0,5,2C,01,3F,01,9B,00,00,00,
19062321,00000129,false,Rx,0,8,25,2D,36,5F,00,20,FF,3F,
19062788,00000359,false,Rx,0,8,12,00,00,00,00,00,00,00,
19063028,000001D8,false,Rx,0,8,21,00,00,00,00,00,A0,9A,
19063736,00000201,false,Rx,0,8,28,26,18,00,6C,24,03,00,
19063981,00000227,false,Rx,0,8,00,00,00,00,47,00,00,80,
19064223,00000247,false,Rx,0,8,A9,0E,FF,00,00,00,00,00,
19064727,000001D5,false,Rx,0,8,21,00,00,00,00,00,00,F7,
19065214,000007A8,false,Rx,0,8,F8,E4,E1,63,04,00,00,00,
19066445,00000122,false,Rx,0,6,00,00,12,12,D2,00,00,00,
19066627,000003A3,false,Rx,0,5,14,D0,00,00,08,00,00,00,
19066862,00000212,false,Rx,0,8,B9,04,8B,8D,00,00,1E,6B,
19067092,00000252,false,Rx,0,8,69,13,AA,7C,00,00,A1,0F,
19067324,00000292,false,Rx,0,8,6F,46,89,E7,9C,0A,03,00,
19067548,000002D2,false,Rx,0,8,54,5E,5A,9D,14,05,E8,28,
19067678,000002F2,false,Rx,0,2,12,02,00,00,00,00,00,00,
19068485,00000132,false,Rx,0,8,BF,90,D0,FF,A6,26,FF,0F,
19069052,00000266,false,Rx,0,8,00,00,01,1F,00,00,3D,01,
19069293,000002E5,false,Rx,0,8,00,00,03,0D,00,00,DD,00,
19069413,00000016,false,Rx,0,1,01,00,00,00,00,00,00,00,
19069662,000007D5,false,Rx,0,8,2B,00,00,00,00,00,00,00,
19069907,00000118,false,Rx,0,8,5F,0C,22,18,00,00,00,00,
19070143,00000243,false,Rx,0,8,08,81,42,60,92,2C,0E,09,
19070387,0000038A,false,Rx,0,8,00,00,00,00,00,00,00,00,
19070637,000007D5,false,Rx,0,8,32,0E,04,00,00,00,00,00,
19071646,0000020C,false,Rx,0,7,00,98,33,0A,DA,00,30,00,
19090517,00000228,false,Rx,0,8,83,08,06,00,80,27,A0,02,
19090527,00000129,false,Rx,0,8,FA,2E,36,5F,00,20,FF,3F,
19090536,000001F8,false,Rx,0,4,3A,00,00,00,00,00,00,00,
19090545,00000229,false,Rx,0,3,52,02,00,00,00,00,00,00,
19090554,000001D8,false,Rx,0,8,21,00,00,00,00,00,C0,BA,
19090564,00000249,false,Rx,0,3,05,0B,00,00,00,00,00,00,
19090573,000002E1,false,Rx,0,8,54,0F,00,10,03,03,00,00,
19090582,0000054F,false,Rx,0,8,00,00,00,00,00,00,00,00,
19090592,000002C1,false,Rx,0,8,01,00,00,14,28,00,64,00,
19090601,00000409,false,Rx,0,1,20,00,00,00,00,00,00,00,
19090610,000001D5,false,Rx,0,8,21,00,00,00,00,00,20,17,
19090619,00000221,false,Rx,0,8,61,05,05,00,00,00,C0,4E,
19090629,000003E3,false,Rx,0,2,04,00,00,00,00,00,00,00,
19090638,00000132,false,Rx,0,8,C0,90,C9,FF,92,26,FF,0F,
19090647,00000372,false,Rx,0,8,03,80,00,00,00,00,00,00,
19090657,00000398,false,Rx,0,7,00,00,00,00,00,00,00,00,
19090666,000003E2,false,Rx,0,7,44,15,00,D1,EF,CE,00,00,
19090675,000001FB,false,Rx,0,8,21,0B,08,00,02,00,00,00,
19090685,00000261,false,Rx,0,8,FB,19,C8,05,09,40,F1,FF,
19090694,00000266,false,Rx,0,8,00,00,01,1F,00,00,3D,01,
19090703,00000016,false,Rx,0,1,01,00,00,00,00,00,00,00,
19090712,00000118,false,Rx,0,8,60,0D,22,18,00,00,00,00,
19090722,00000257,false,Rx,0,8,C9,4F,1F,00,02,00,00,00,
19090731,000002E5,false,Rx,0,8,00,00,03,0D,00,00,DD,00,
19090740,000006E8,false,Rx,0,8,01,00,00,00,00,00,00,00,
19090750,000004E3,false,Rx,0,8,04,00,3F,00,74,00,00,00,
19090759,00000129,false,Rx,0,8,0B,2F,36,5F,00,20,FF,3F,
19090769,000001D8,false,Rx,0,8,21,00,00,00,00,00,E0,DA,
19090811,00000201,false,Rx,0,8,C9,64,28,FF,07,FF,30,00,
19090821,000002F9,false,Rx,0,8,10,DB,EA,4F,1A,05,FF,00,
19090830,000004E2,false,Rx,0,8,04,00,15,00,16,00,00,00,
19090839,000001D5,false,Rx,0,8,21,00,00,00,00,00,40,37,
19090849,000002E8,false,Rx,0,8,02,00,00,00,00,80,00,6C,
19090858,00000272,false,Rx,0,8,11,00,C7,00,00,00,00,00,
19090868,000002E3,false,Rx,0,6,01,00,00,05,C1,02,00,00,
19090877,00000273,false,Rx,0,8,81,E1,30,40,18,13,30,12,
19090886,00000132,false,Rx,0,8,C1,90,D1,FF,97,26,FF,0F,
19090896,0000039A,false,Rx,0,8,CD,FF,FE,FE,FE,00,00,06,
19090905,00000266,false,Rx,0,8,00,00,01,1F,00,00,3D,01,
19090915,00000016,false,Rx,0,1,01,00,00,00,00,00,00,00,
19090924,00000118,false,Rx,0,8,61,0E,22,18,00,00,00,00,
19090933,0000022A,false,Rx,0,4,00,00,39,17,00,00,00,00,
19090943,000002E1,false,Rx,0,8,FD,1F,FA,F9,9D,F0,09,00,
19090952,000002E5,false,Rx,0,8,00,00,03,0D,00,00,DD,00,
19090961,00000262,false,Rx,0,6,0B,00,BA,E1,00,30,00,00,
19090971,000003F9,false,Rx,0,8,02,00,00,00,00,00,00,00,
19091626,0000023E,false,Rx,0,8,3F,C6,72,DB,01,02,08,9D,
19091866,00000343,false,Rx,0,8,00,90,64,8E,9E,4C,01,00,
19092096,00000545,false,Rx,0,8,74,00,5C,F0,9F,FB,E9,8D,
19092338,00000129,false,Rx,0,8,1A,20,37,5F,00,20,FF,3F,
19092696,00000281,false,Rx,0,6,00,00,FF,1F,00,00,00,00,
19092947,000001D8,false,Rx,0,8,21,00,00,00,00,00,00,FA,
19093159,00000448,false,Rx,0,6,00,00,10,11,00,00,00,00,
19093723,000002C1,false,Rx,0,8,02,AB,83,51,00,AF,00,00,
19094459,00000282,false,Rx,0,8,89,29,28,28,88,00,40,0F,
19094723,000001D5,false,Rx,0,8,21,00,00,00,00,00,60,57,
19096424,00000422,false,Rx,0,6,00,00,10,00,00,00,00,00,
19096690,000003C3,false,Rx,0,7,55,55,55,00,00,A9,00,00,
19096932,00000263,false,Rx,0,8,00,C7,B4,5F,5F,BC,FA,00,
19097768,00000132,false,Rx,0,8,C3,90,CE,FF,A2,26,FF,0F,
19098004,00000339,false,Rx,0,8,5B,E1,02,00,80,03,40,03,
19099028,00000266,false,Rx,0,8,00,00,01,1F,00,00,3D,01,
19099270,000002E5,false,Rx,0,8,00,00,03,0D,00,00,DD,00,
19099384,00000016,false,Rx,0,1,01,00,00,00,00,00,00,00,
19099629,00000118,false,Rx,0,8,62,0F,22,18,00,00,00,00,
19099879,00000340,false,Rx,0,8,03,00,00,00,00,00,00,00,
19100120,00000257,false,Rx,0,8,BA,40,1F,00,02,00,00,00,
19101683,00000383,false,Rx,0,8,89,00,36,80,00,00,80,14,
19102320,00000129,false,Rx,0,8,0D,21,37,5F,00,20,FF,3F,
19102564,000002C2,false,Rx,0,8,00,00,00,01,01,00,00,5A,
19102809,000003A2,false,Rx,0,8,7D,44,00,00,00,00,00,00,
19103055,000001D8,false,Rx,0,8,21,00,00,00,00,00,20,1A,
19103290,00000207,false,Rx,0,8,00,2F,2F,1A,17,00,00,00,
19103669,00000393,false,Rx,0,8,11,00,C7,00,00,00,00,00,
19103907,00000201,false,Rx,0,8,FA,12,00,01,16,60,F3,03,
19104735,000001D5,false,Rx,0,8,21,00,00,00,00,00,80,77,
19104850,000001F9,false,Rx,0,1,00,00,00,00,00,00,00,00,
19106632,00000423,false,Rx,0,6,80,00,10,00,00,00,00,00,
19106851,00000241,false,Rx,0,7,3D,78,6C,0F,1E,5B,00,00,
19107081,000002E1,false,Rx,0,8,10,21,0B,70,D3,48,00,00,
19107686,00000132,false,Rx,0,8,C2,90,C9,FF,8B,26,FF,0F,
19109037,00000266,false,Rx,0,8,00,00,01,1F,00,00,3D,01,
19109280,000002E5,false,Rx,0,8,00,00,03,0D,00,00,DD,00,
19109395,00000016,false,Rx,0,1,01,00,00,00,00,00,00,00,
19109638,00000118,false,Rx,0,8,53,00,22,18,00,00,00,00,
19110487,000003C2,false,Rx,0,8,29,55,00,00,00,00,00,00,
19111693,000002C3,false,Rx,0,8,00,00,00,B0,01,00,00,5A,
19111944,00000439,false,Rx,0,8,00,00,20,00,00,00,FF,07,
19112321,00000129,false,Rx,0,8,44,22,37,5F,00,20,FF,3F,
19112965,000001D8,false,Rx,0,8,21,00,00,00,00,00,40,3A,
19113709,000002F1,false,Rx,0,8,11,C0,00,A3,00,C6,05,28,
19113954,000002C1,false,Rx,0,8,03,00,64,0D,00,BE,04,00,
19114713,000001D5,false,Rx,0,8,21,00,00,00,00,00,A0,97,
19117681,00000132,false,Rx,0,8,BF,90,CF,FF,9C,26,FF,0F,
19117906,0000039A,false,Rx,0,8,98,93,8F,CB,91,89,7D,0D,
19118671,00000119,false,Rx,0,2,00,00,00,00,00,00,00,00,
19118924,00000266,false,Rx,0,8,00,00,01,1F,00,00,3D,01,
19119034,00000016,false,Rx,0,1,01,00,00,00,00,00,00,00,
19119275,00000118,false,Rx,0,8,54,01,22,18,00,00,00,00,
19119519,00000257,false,Rx,0,8,BB,41,1F,00,02,00,00,00,
19119753,00000243,false,Rx,0,8,C9,00,E8,D2,35,32,02,00,
19119993,000002E5,false,Rx,0,8,00,00,03,0D,00,00,DD,00,
19120244,000003C8,false,Rx,0,8,00,00,00,00,00,00,00,00,
19120747,000003F5,false,Rx,0,8,00,C8,18,59,50,00,40,01,
19122319,00000129,false,Rx,0,8,A7,23,36,5F,00,20,FF,3F,
19141140,000001D8,false,Rx,0,8,21,00,00,00,00,00,60,5A,
19141149,000002E1,false,Rx,0,8,39,6D,00,00,00,E5,67,03,
19141159,00000201,false,Rx,0,8,CB,00,00,19,00,63,30,00,
19141168,000002C4,false,Rx,0,8,0B,40,00,80,60,B4,00,00,
19141178,00000204,false,Rx,0,8,01,00,00,00,00,00,00,10,
19141187,00000264,false,Rx,0,6,38,00,00,00,A0,00,00,00,
19141196,000001D5,false,Rx,0,8,21,00,00,00,00,00,C0,B7,
19141206,00000224,false,Rx,0,8,44,08,00,00,13,01,10,08,
19141215,000002B4,false,Rx,0,5,65,85,27,27,01,00,00,00,
19141224,00000221,false,Rx,0,8,60,55,55,15,54,51,D1,B8,
19141234,00000788,false,Rx,0,8,01,00,00,00,FF,A1,08,00,
19141243,000002D1,false,Rx,0,2,FF,01,00,00,00,00,00,00,
19141285,00000132,false,Rx,0,8,C2,90,D0,FF,A6,26,FF,0F,
19141295,00000287,false,Rx,0,8,5B,57,5A,58,E7,02,0A,09,
19141304,00000398,false,Rx,0,7,00,00,00,00,00,00,00,00,
19141313,000001FB,false,Rx,0,8,F0,00,00,00,00,00,00,00,
19141323,00000266,false,Rx,0,8,00,00,01,1F,00,00,3D,01,
19141332,00000016,false,Rx,0,1,01,00,00,00,00,00,00,00,
19141341,00000118,false,Rx,0,8,55,02,22,18,00,00,00,00,
19141350,000002E5,false,Rx,0,8,00,00,03,0D,00,00,DD,00,
19141360,000001A5,false,Rx,0,3,E5,02,00,00,00,00,00,00,
19141369,00000195,false,Rx,0,5,00,08,08,00,28,00,00,00,
19141378,0000027A,false,Rx,0,2,C9,0F,00,00,00,00,00,00,
19141387,00000396,false,Rx,0,8,01,32,32,38,31,12,19,7D,
19141396,00000186,false,Rx,0,8,91,0A,00,00,00,00,00,00,
19141406,0000023E,false,Rx,0,8,3F,C6,72,DB,01,02,18,AD,
19141415,000002B3,false,Rx,0,8,05,00,FD,7E,08,25,00,00,
19141425,00000129,false,Rx,0,8,D5,24,37,5F,00,20,FF,3F,
19141434,000001D8,false,Rx,0,8,21,00,00,00,00,00,80,7A,
19141443,00000288,false,Rx,0,8,83,18,06,00,80,27,B0,82,
19141453,000002C1,false,Rx,0,8,84,A6,92,01,64,A1,08,AE,
19141462,000001D5,false,Rx,0,8,21,00,00,00,00,00,E0,D7,
19141471,00000379,false,Rx,0,8,6A,07,70,80,A1,C1,E9,00,
19141481,00000421,false,Rx,0,7,00,00,00,00,04,00,00,00,
19141490,0000078A,false,Rx,0,8,01,00,08,00,00,00,4F,00,
19141500,000007AA,false,Rx,0,8,05,05,00,0C,B0,08,CB,04,
19141509,00000272,false,Rx,0,8,0C,00,1A,42,10,90,0C,10,
19141518,00000132,false,Rx,0,8,C8,90,CE,FF,8B,26,FF,0F,
19141528,00000284,false,Rx,0,5,10,00,00,00,00,00,00,00,
19141537,00000285,false,Rx,0,8,A1,03,67,01,03,00,18,00,
19141546,000003D8,false,Rx,0,2,33,00,00,00,00,00,00,00,
19141555,00000266,false,Rx,0,8,00,00,01,1F,00,00,3D,01,
19141598,00000016,false,Rx,0,1,01,00,00,00,00,00,00,00,
19141607,00000118,false,Rx,0,8,56,03,22,18,00,00,00,00,
19141616,00000257,false,Rx,0,8,BC,42,1F,00,02,00,00,00,
19141625,000002E5,false,Rx,0,8,00,00,03,0D,00,00,DD,00,
19141635,00000757,false,Rx,0,8,32,0E,00,00,00,00,00,00,
19141644,000006C8,false,Rx,0,8,40,06,00,1C,00,00,00,00,
19141653,00000113,false,Rx,0,3,01,97,01,00,00,00,00,00,
19141662,000007FF,false,Rx,0,8,03,81,09,69,61,C2,00,12,
19141672,000002E1,false,Rx,0,8,02,00,00,00,00,00,01,00,
19141713,00000318,false,Rx,0,8,14,03,17,0C,09,33,1F,B0,
19141723,00000458,false,Rx,0,7,02,02,00,80,00,00,00,00,
19141732,00000225,false,Rx,0,3,55,55,7A,00,00,00,00,00,
19141741,00000139,false,Rx,0,1,00,00,00,00,00,00,00,00,
19141942,000003A1,false,Rx,0,8,84,4E,74,85,01,2C,02,9E,
19142169,00000545,false,Rx,0,8,03,19,64,32,19,00,F0,05,
19142409,00000129,false,Rx,0,8,36,25,36,5F,00,20,FF,3F,
19142560,000001FA,false,Rx,0,3,3A,C0,01,00,00,00,00,00,
19142887,000001D8,false,Rx,0,8,21,00,00,00,00,00,A0,9A,
19143735,00000301,false,Rx,0,8,10,FF,00,00,1E,DB,FC,69,
19143975,00000201,false,Rx,0,8,CC,00,00,19,00,63,30,00,
19144207,00000381,false,Rx,0,8,F6,FF,FF,37,8D,B4,24,00,
19144462,00000282,false,Rx,0,8,6C,B4,D1,06,10,54,F3,24,
19144716,000001D5,false,Rx,0,8,21,00,00,00,00,00,00,F7,
19145331,00000211,false,Rx,0,6,AD,18,71,0F,00,02,00,00,
19146624,00000283,false,Rx,0,6,1A,16,00,00,41,00,00,00,
19147162,000002A8,false,Rx,0,8,02,00,00,00,00,80,10,3C,
19147680,00000132,false,Rx,0,8,CD,90,D0,FF,B1,26,FF,0F,
19147920,0000039A,false,Rx,0,8,CD,FF,FE,FE,FE,00,00,06,
19148348,00000242,false,Rx,0,2,55,D5,00,00,00,00,00,00,
19148576,0000033D,false,Rx,0,8,1A,29,0A,BE,87,4A,FA,98,
19148827,000003DA,false,Rx,0,8,00,00,00,00,00,00,00,00,
19149073,00000266,false,Rx,0,8,00,00,01,1F,00,00,3D,01,
19149184,00000016,false,Rx,0,1,01,00,00,00,00,00,00,00,
19149429,00000118,false,Rx,0,8,57,04,22,18,00,00,00,00,
19149667,000002E5,false,Rx,0,8,00,00,03,0D,00,00,DD,00,
19149880,0000037D,false,Rx,0,7,51,50,D1,07,51,D0,07,00,
19150329,0000021D,false,Rx,0,8,04,00,04,00,00,00,00,00,
19150776,0000025D,false,Rx,0,8,47,28,05,BE,40,A1,02,C0,
19151015,0000041D,false,Rx,0,1,00,00,00,00,00,00,00,00,
19151268,0000027D,false,Rx,0,8,00,00,00,00,00,00,00,00,
19151470,0000043D,false,Rx,0,6,00,00,00,00,FF,00,00,00,
19151647,0000029D,false,Rx,0,4,00,00,00,00,00,00,00,00,
19151892,000003C0,false,Rx,0,8,02,00,00,00,00,00,00,00,
19152101,000002BD,false,Rx,0,4,00,00,00,00,00,00,00,00,
19152338,00000129,false,Rx,0,8,EC,26,36,5F,00,20,FF,3F,
19152572,000003A2,false,Rx,0,8,00,00,73,F2,94,0A,C5,67,
19152811,0000075D,false,Rx,0,8,09,00,00,A0,02,23,00,00,
19153063,000001D8,false,Rx,0,8,21,00,00,00,00,00,C0,BA,
19153212,0000077D,false,Rx,0,3,11,00,00,00,00,00,00,00,
19153347,000007DD,false,Rx,0,2,FF,00,00,00,00,00,00,00,
19153669,00000393,false,Rx,0,8,0C,00,1A,62,10,90,0C,10,
19153903,000002C1,false,Rx,0,8,18,66,18,0E,8E,3F,00,00,
19154140,00000428,false,Rx,0,6,00,00,10,11,00,00,00,00,
19154472,00000360,false,Rx,0,8,01,00,00,00,00,00,00,00,
19154717,000001D5,false,Rx,0,8,21,00,00,00,00,00,20,17,
19155793,0000037A,false,Rx,0,8,01,C0,19,BB,AC,D7,25,00,
19156662,00000103,false,Rx,0,8,22,33,00,00,36,3D,21,32,
19157671,00000132,false,Rx,0,8,CB,90,CF,FF,9C,26,FF,0F,
19157905,000002E1,false,Rx,0,8,03,DE,99,02,1B,3F,EF,01,
19158141,00000372,false,Rx,0,8,04,00,D3,00,7E,A8,F1,00,
19158390,000003E8,false,Rx,0,8,00,00,00,00,00,00,00,00,
19158873,00000266,false,Rx,0,8,00,00,01,1F,00,00,3D,01,
19158988,00000016,false,Rx,0,1,01,00,00,00,00,00,00,00,
19159293,000002E5,false,Rx,0,8,00,00,03,0D,00,00,DD,00,
19159537,00000118,false,Rx,0,8,58,05,22,18,00,00,00,00,
19178388,00000126,false,Rx,0,3,E3,06,00,00,00,00,00,00,
19178398,00000257,false,Rx,0,8,BD,43,1F,00,02,00,00,00,
19178407,000001D6,false,Rx,0,5,00,08,08,00,28,00,00,00,
19178449,00000279,false,Rx,0,2,CA,1F,00,00,00,00,00,00,
19178458,00000395,false,Rx,0,8,01,11,1B,3B,18,04,0A,7D,
19178468,00000102,false,Rx,0,8,22,33,00,00,3E,F9,A0,09,
19178477,00000108,false,Rx,0,8,14,0A,00,00,00,01,00,00,
19178487,000003C2,false,Rx,0,8,00,55,55,55,00,00,65,09,
19178496,000002B6,false,Rx,0,2,00,03,00,00,00,00,00,00,
19178505,00000128,false,Rx,0,2,80,00,00,00,00,00,00,00,
19178514,00000268,false,Rx,0,5,2C,01,3F,01,9B,00,00,00,
19178523,00000123,false,Rx,0,8,00,00,12,12,D2,00,00,00,
19178533,00000129,false,Rx,0,8,0F,27,37,5F,00,20,FF,3F,
19178542,00000302,false,Rx,0,8,10,FF,00,00,FF,FF,FF,FF,
19178551,00000359,false,Rx,0,8,13,00,00,00,00,00,00,00,
19178561,000001D8,false,Rx,0,8,21,00,00,00,00,00,E0,DA,
19178570,00000263,false,Rx,0,8,01,C5,BA,60,5D,BC,FA,03,
19178579,00000201,false,Rx,0,8,28,A6,18,00,6C,24,03,00,
19178589,00000227,false,Rx,0,8,00,00,00,00,47,00,00,80,
19178598,00000247,false,Rx,0,8,AA,0E,FF,00,00,00,00,00,
19178608,000001D5,false,Rx,0,8,21,00,00,00,00,00,40,37,
19178617,000007A8,false,Rx,0,8,01,00,00,00,FF,A1,08,00,
19178626,00000122,false,Rx,0,6,00,00,12,12,D2,00,00,00,
19178636,000003A3,false,Rx,0,5,14,D0,00,00,08,00,00,00,
19178645,00000212,false,Rx,0,8,B9,04,8B,8D,00,00,1E,6B,
19178688,00000252,false,Rx,0,8,69,13,AA,7C,00,00,A1,0F,
19178697,00000292,false,Rx,0,8,6F,46,89,E7,9C,0A,03,00,
19178706,000002D2,false,Rx,0,8,54,5E,5A,9D,14,05,E8,28,
19178716,000002F2,false,Rx,0,2,12,02,00,00,00,00,00,00,
19178725,00000132,false,Rx,0,8,C8,90,CE,FF,91,26,FF,0F,
19178734,00000320,false,Rx,0,8,01,00,00,00,00,00,00,00,
19178744,00000266,false,Rx,0,8,00,00,01,1F,00,00,3D,01,
19178753,000002E5,false,Rx,0,8,00,00,03,0D,00,00,DD,00,
19178762,00000016,false,Rx,0,1,01,00,00,00,00,00,00,00,
19178771,000007D5,false,Rx,0,8,2B,00,00,00,00,00,00,00,
19178781,00000118,false,Rx,0,8,59,06,22,18,00,00,00,00,
19178790,00000243,false,Rx,0,8,08,81,42,60,92,2C,0E,09,
19178799,0000038A,false,Rx,0,8,01,00,00,00,00,00,00,00,
19178809,000007D5,false,Rx,0,8,32,0E,04,00,00,00,00,00,
19178818,0000023E,false,Rx,0,8,3F,C6,72,DB,05,02,28,C1,
19178828,0000020C,false,Rx,0,7,00,78,33,0A,DA,00,30,00,
19178837,00000303,false,Rx,0,8,11,00,00,00,00,00,00,00,
19178846,00000228,false,Rx,0,8,83,08,06,00,80,27,B0,12,
19178856,00000129,false,Rx,0,8,D8,28,37,5F,00,20,FF,3F,
19178865,000001F8,false,Rx,0,4,3A,00,00,00,00,00,00,00,
19178874,00000229,false,Rx,0,3,6D,03,00,00,00,00,00,00,
19178916,000001D8,false,Rx,0,8,21,00,00,00,00,00,00,FA,
19178925,00000249,false,Rx,0,3,47,0C,00,00,00,00,00,00,
19178934,0000054F,false,Rx,0,8,00,00,00,00,00,00,00,00,
19178944,00000409,false,Rx,0,1,20,00,00,00,00,00,00,00,
19178953,000002C1,false,Rx,0,8,01,00,00,14,28,00,64,00,
19178962,000001D5,false,Rx,0,8,21,00,00,00,00,00,60,57,
19178972,000002E1,false,Rx,0,8,54,0F,00,10,03,03,00,00,
19178981,00000221,false,Rx,0,8,61,05,05,00,00,00,E0,6E,
19178990,000003E3,false,Rx,0,2,04,00,00,00,00,00,00,00,
19178999,00000132,false,Rx,0,8,C7,90,CE,FF,AC,26,FF,0F,
19179009,00000398,false,Rx,0,7,00,00,00,00,00,00,00,00,
19179018,0000039A,false,Rx,0,8,98,93,8F,CB,91,89,7B,0D,
19179027,000003E2,false,Rx,0,7,44,15,00,D1,EF,CE,00,00,
19179037,000001FB,false,Rx,0,8,21,0B,08,00,02,00,00,00,
19179046,00000261,false,Rx,0,8,F5,19,C8,05,09,40,1F,00,
19179170,00000266,false,Rx,0,8,00,00,01,1F,00,00,3D,01,
19179283,00000016,false,Rx,0,1,01,00,00,00,00,00,00,00,
19179528,000002E5,false,Rx,0,8,00,00,03,0D,00,00,DD,00,
19179767,00000118,false,Rx,0,8,5A,07,22,18,00,00,00,00,
19180012,00000257,false,Rx,0,8,BE,44,1F,00,02,00,00,00,
19180253,000006E8,false,Rx,0,8,40,06,00,1C,00,00,00,00,
19181681,000004E3,false,Rx,0,8,B5,05,66,C1,00,18,00,00,
19182317,00000129,false,Rx,0,8,79,29,36,5F,00,20,FF,3F,
19182881,000001D8,false,Rx,0,8,21,00,00,00,00,00,20,1A,
19183720,00000201,false,Rx,0,8,C9,64,28,FF,07,FF,30,00,
19183954,000002F9,false,Rx,0,8,10,DB,EA,4F,1A,05,FF,00,
19184476,000004E2,false,Rx,0,8,45,04,76,51,00,3A,00,00,
19184721,000001D5,false,Rx,0,8,21,00,00,00,00,00,80,77,
19186220,000002E8,false,Rx,0,8,02,00,00,00,00,80,10,7C,
19186459,00000313,false,Rx,0,8,02,64,64,01,00,00,20,01,
19186698,00000272,false,Rx,0,8,11,00,C7,00,00,00,00,00,
19186901,000002E3,false,Rx,0,6,02,00,00,03,C1,02,00,00,
19187687,00000132,false,Rx,0,8,C3,90,D4,FF,9F,26,FF,0F,
19188666,00000285,false,Rx,0,8,02,BB,00,00,00,00,E2,00,
19189025,00000266,false,Rx,0,8,00,00,01,1F,00,00,3D,01,
19189141,00000016,false,Rx,0,1,01,00,00,00,00,00,00,00,
19189380,000002E5,false,Rx,0,8,00,00,03,0D,00,00,DD,00,
19189625,00000118,false,Rx,0,8,5B,08,22,18,00,00,00,00,
19189791,0000022A,false,Rx,0,4,00,00,39,17,00,00,00,00,
19190443,00000262,false,Rx,0,6,0B,00,BA,E1,00,30,00,00,
19190816,000003F9,false,Rx,0,8,03,00,00,00,00,00,00,00,
19191293,00000405,false,Rx,0,8,11,33,46,37,45,42,36,4B,
19191683,00000343,false,Rx,0,8,00,90,60,3E,9E,49,01,00,
19191919,000002E1,false,Rx,0,8,FD,1F,FA,F9,9D,F3,09,00,
19192144,00000545,false,Rx,0,8,7E,00,58,50,9F,F5,09,0D,
19192378,00000129,false,Rx,0,8,52,2A,37,5F,00,20,FF,3F,
19192705,00000281,false,Rx,0,6,00,00,FF,1F,00,00,00,00,
19192950,000001D8,false,Rx,0,8,21,00,00,00,00,00,40,3A,
19193176,00000448,false,Rx,0,6,00,00,10,11,00,00,00,00,
19193421,000003E9,false,Rx,0,8,01,48,00,00,00,00,20,55,
19193738,000002C1,false,Rx,0,8,02,AB,83,51,00,AF,00,00,
19194477,00000282,false,Rx,0,8,89,29,28,28,64,02,40,0F,
19194722,000001D5,false,Rx,0,8,21,00,00,00,00,00,A0,97,
19196433,00000422,false,Rx,0,6,00,00,10,00,00,00,00,00,
19196692,000003C3,false,Rx,0,7,55,55,55,00,00,A9,00,00,
19197769,00000132,false,Rx,0,8,C0,90,CE,FF,B1,26,FF,0F,
19198003,00000339,false,Rx,0,8,5B,E1,02,00,80,03,40,03,
19199029,00000266,false,Rx,0,8,00,00,01,1F,00,00,3D,01,
19199140,00000016,false,Rx,0,1,01,00,00,00,00,00,00,00,
19199379,00000118,false,Rx,0,8,5C,09,22,18,00,00,00,00,
19199618,000002E5,false,Rx,0,8,00,00,03,0D,00,00,DD,00,
19218619,00000257,false,Rx,0,8,BF,45,1F,00,02,00,00,00,
19218628,00000340,false,Rx,0,8,04,00,00,00,00,00,00,00,
19218671,00000383,false,Rx,0,8,89,00,36,80,00,00,80,14,
19218680,00000129,false,Rx,0,8,A3,2B,37,5F,00,20,FF,3F,
19218689,000002C2,false,Rx,0,8,55,5B,A9,C6,03,00,52,00,
19218699,000003A2,false,Rx,0,8,7D,44,00,00,00,00,00,00,
19218708,000001D8,false,Rx,0,8,21,00,00,00,00,00,60,5A,
19218717,00000393,false,Rx,0,8,11,00,C7,00,00,00,00,00,
19218727,00000201,false,Rx,0,8,FA,12,00,01,16,60,F3,03,
19218736,00000207,false,Rx,0,8,00,2F,2F,19,15,00,00,00,
19218746,000001D5,false,Rx,0,8,21,00,00,00,00,00,C0,B7,
19218755,000001F9,false,Rx,0,1,00,00,00,00,00,00,00,00,
19218764,00000423,false,Rx,0,6,80,00,10,00,00,00,00,00,
19218773,00000241,false,Rx,0,7,3C,78,2C,0F,1E,5B,00,00,
19218783,00000132,false,Rx,0,8,C5,90,D2,FF,A9,26,FF,0F,
19218792,0000039A,false,Rx,0,8,CD,FF,FE,FE,FE,08,00,06,
19218801,000002E1,false,Rx,0,8,10,21,0B,70,D3,48,00,00,
19218811,00000266,false,Rx,0,8,00,00,01,1F,00,00,3D,01,
19218820,00000016,false,Rx,0,1,01,00,00,00,00,00,00,00,
19218829,000002E5,false,Rx,0,8,00,00,03,0D,00,00,DD,00,
19218838,00000118,false,Rx,0,8,5D,0A,22,18,00,00,00,00,
19218848,000003C2,false,Rx,0,8,29,55,00,00,00,00,00,00,
19218857,0000023E,false,Rx,0,8,3F,C6,72,DB,05,02,38,D1,
19218867,000002C3,false,Rx,0,8,55,63,A9,C6,03,00,5A,00,
19218876,00000439,false,Rx,0,8,00,00,20,00,00,00,FF,07,
19218885,00000129,false,Rx,0,8,37,2C,36,5F,00,20,FF,3F,
19218895,000002E2,false,Rx,0,8,92,12,62,26,A9,A4,52,0F,
19218904,000001D8,false,Rx,0,8,21,00,00,00,00,00,80,7A,
19218914,000002F1,false,Rx,0,8,00,92,EF,80,45,80,14,00,
19218924,000002C1,false,Rx,0,8,03,00,64,0D,00,BE,04,00,
19218933,000001D5,false,Rx,0,8,21,00,00,00,00,00,E0,D7,
19218943,00000132,false,Rx,0,8,C5,90,D2,FF,AC,26,FF,0F,
19218952,00000119,false,Rx,0,2,00,00,00,00,00,00,00,00,
19219020,00000266,false,Rx,0,8,00,00,01,1F,00,00,3D,01,
19219141,00000016,false,Rx,0,1,01,00,00,00,00,00,00,00,
19219380,00000118,false,Rx,0,8,5E,0B,22,18,00,00,00,00,
19219619,000002E5,false,Rx,0,8,00,00,03,0D,00,00,DD,00,
19219854,00000243,false,Rx,0,8,C9,00,E8,D2,35,32,02,00,
19220094,00000257,false,Rx,0,8,C0,46,1F,00,02,00,00,00,
19220347,000003C8,false,Rx,0,8,01,00,00,00,00,00,00,00,
19220751,000003F5,false,Rx,0,8,00,C8,18,59,50,00,40,01,
19221693,000002B3,false,Rx,0,8,06,AF,A4,64,61,B9,F0,1D,
19222319,00000129,false,Rx,0,8,D1,2D,37,5F,00,20,FF,3F,
19222878,000001D8,false,Rx,0,8,21,00,00,00,00,00,A0,9A,
19223717,00000201,false,Rx,0,8,CB,00,00,19,00,63,30,00,
19223953,00000319,false,Rx,0,8,10,00,00,00,94,F5,7F,4D,
19224195,000002C4,false,Rx,0,8,0C,40,00,00,38,B4,00,00,
19224445,00000204,false,Rx,0,8,01,00,00,00,00,00,00,10,
19224648,00000264,false,Rx,0,6,39,00,00,00,A0,00,00,00,
19224892,000001D5,false,Rx,0,8,21,00,00,00,00,00,00,F7,
19225140,00000224,false,Rx,0,8,44,08,00,00,13,01,10,08,
19225311,000002B4,false,Rx,0,5,66,89,27,1F,01,00,00,00,
19225742,000002E1,false,Rx,0,8,39,6D,00,00,00,E5,67,03,
19225972,00000221,false,Rx,0,8,60,55,55,15,54,51,F1,D8,
19226214,00000788,false,Rx,0,8,BE,1E,0D,35,00,00,00,00,
19227704,00000132,false,Rx,0,8,C6,90,CF,FF,BA,26,FF,0F,
19227840,000002D1,false,Rx,0,2,FF,01,00,00,00,00,00,00,
19228069,00000398,false,Rx,0,7,00,00,00,00,00,00,00,00,
19228311,000003DB,false,Rx,0,8,05,00,00,F6,00,00,00,00,
19228561,000001FB,false,Rx,0,8,F0,00,00,00,00,00,00,00,
19228790,00000287,false,Rx,0,8,5B,57,5A,58,E7,02,0A,09,
19229036,00000266,false,Rx,0,8,00,00,01,1F,00,00,3D,01,
19229152,00000016,false,Rx,0,1,01,00,00,00,00,00,00,00,
19229396,00000118,false,Rx,0,8,5F,0C,22,18,00,00,00,00,
19229635,000002E5,false,Rx,0,8,00,00,03,0D,00,00,DD,00,
19229792,000001A5,false,Rx,0,3,E5,02,00,00,00,00,00,00,
19229980,00000195,false,Rx,0,5,00,08,08,00,28,00,00,00,
19230117,0000027A,false,Rx,0,2,CA,0F,00,00,00,00,00,00,
19230341,00000396,false,Rx,0,8,01,32,32,38,31,12,19,7D,
19230585,00000186,false,Rx,0,8,93,0B,00,00,00,01,00,00,
19230825,00000263,false,Rx,0,8,02,00,00,04,F8,23,32,00,
19232314,00000129,false,Rx,0,8,67,2E,37,5F,FF,1F,FF,3F,
19232911,000001D8,false,Rx,0,8,21,00,00,00,00,00,C0,BA,
19233168,00000288,false,Rx,0,8,83,18,06,00,80,27,C0,92,
19233713,000002C1,false,Rx,0,8,84,A6,92,01,64,A1,08,AE,
19233959,00000381,false,Rx,0,8,27,FF,BF,FD,FD,BF,24,00,
19234708,000001D5,false,Rx,0,8,21,00,00,00,00,00,20,17,
19234949,00000379,false,Rx,0,8,6F,C7,C1,22,3E,00,01,0A,
19235176,00000421,false,Rx,0,7,00,00,00,00,04,00,00,00,
19235653,0000076A,false,Rx,0,8,00,7D,4B,DF,02,00,00,00,
19236154,0000078A,false,Rx,0,8,01,00,00,00,00,00,2A,13,
19236466,00000272,false,Rx,0,8,0C,00,1A,42,10,90,0C,10,
19237759,00000132,false,Rx,0,8,C3,90,D0,FF,A2,26,FF,0F,
19237984,0000039A,false,Rx,0,8,98,93,8F,CB,91,89,7B,0D,
19238351,00000372,false,Rx,0,8,05,01,56,00,AE,9D,70,00,
19239011,00000266,false,Rx,0,8,00,00,01,1F,00,00,3D,01,
19239139,00000016,false,Rx,0,1,01,00,00,00,00,00,00,00,
19239367,00000118,false,Rx,0,8,60,0D,22,18,00,00,00,00,
19239612,00000257,false,Rx,0,8,C1,47,1F,00,02,00,00,00,
19239852,00000285,false,Rx,0,8,03,9F,7D,9B,9F,00,00,00,
19240092,000002E5,false,Rx,0,8,00,00,03,0D,00,00,DD,00,
19240345,000006C8,false,Rx,0,8,01,00,00,00,00,00,00,00,
19240490,00000113,false,Rx,0,3,01,97,01,00,00,00,00,00,
19240740,00000757,false,Rx,0,8,32,0E,00,00,00,00,00,00,
19240980,000007FF,false,Rx,0,8,01,0D,42,47,02,04,16,00,
19241212,00000318,false,Rx,0,8,14,03,17,0C,09,33,01,92,
19241441,00000458,false,Rx,0,7,02,02,00,80,00,00,00,00,
19241602,00000225,false,Rx,0,3,55,55,7A,00,00,00,00,00,
19241721,00000139,false,Rx,0,1,00,00,00,00,00,00,00,00,
19241946,000003A1,false,Rx,0,8,84,4E,74,85,01,2C,12,AE,
19242178,00000545,false,Rx,0,8,03,19,64,32,19,00,10,25,
19242411,00000129,false,Rx,0,8,0B,2F,36,5F,00,20,FF,3F,
19242563,000001FA,false,Rx,0,3,3A,C0,01,00,00,00,00,00,
19242807,000002E1,false,Rx,0,8,02,00,00,00,00,00,01,00,
19243052,000001D8,false,Rx,0,8,21,00,00,00,00,00,E0,DA,
19243729,00000201,false,Rx,0,8,CC,00,00,19,00,63,30,00,
19262721,00000282,false,Rx,0,8,74,B4,D1,06,14,54,F3,24,
19262730,000001D5,false,Rx,0,8,21,00,00,00,00,00,40,37,
19262740,00000748,false,Rx,0,5,25,1E,07,00,00,00,00,00,
19262749,00000211,false,Rx,0,6,AE,19,71,0F,00,02,00,00,
19262758,00000283,false,Rx,0,6,1A,16,00,00,41,00,00,00,
19262767,000002A8,false,Rx,0,8,02,00,00,00,00,80,20,4C,
19262810,00000132,false,Rx,0,8,BF,90,D4,FF,C5,26,FF,0F,
19262820,00000242,false,Rx,0,2,55,D5,00,00,00,00,00,00,
19262829,000003DA,false,Rx,0,8,00,00,00,00,00,00,00,00,
19262838,00000266,false,Rx,0,8,00,00,01,1F,00,00,3D,01,
19262848,00000016,false,Rx,0,1,01,00,00,00,00,00,00,00,
19262857,000002E5,false,Rx,0,8,00,00,03,0D,00,00,DD,00,
19262866,00000118,false,Rx,0,8,61,0E,22,18,00,00,00,00,
19262875,0000021D,false,Rx,0,8,04,00,04,00,00,00,00,00,
19262885,0000025D,false,Rx,0,8,47,28,05,BE,40,A1,02,C0,
19262894,0000027D,false,Rx,0,8,00,00,00,00,00,00,00,00,
19262904,0000041D,false,Rx,0,1,00,00,00,00,00,00,00,00,
19262913,0000029D,false,Rx,0,4,00,00,00,00,00,00,00,00,
19262923,0000043D,false,Rx,0,6,00,00,00,00,FF,00,00,00,
19262932,000002BD,false,Rx,0,4,00,00,00,00,00,00,00,00,
19262941,0000023E,false,Rx,0,8,3F,C6,72,DB,01,02,48,DD,
19262950,000003C0,false,Rx,0,8,03,00,00,00,00,00,00,00,
19262960,0000077D,false,Rx,0,3,11,00,00,00,00,00,00,00,
19262969,000007DD,false,Rx,0,2,FF,00,00,00,00,00,00,00,
19262978,00000129,false,Rx,0,8,1A,20,37,5F,00,20,FF,3F,
19262987,000003A2,false,Rx,0,8,00,00,F3,F6,AC,0A,C5,67,
19262997,000001D8,false,Rx,0,8,21,00,00,00,00,00,00,FA,
19263006,00000393,false,Rx,0,8,0C,00,1C,62,10,90,0C,10,
19263049,000002C1,false,Rx,0,8,18,66,18,0E,8E,3F,00,00,
19263058,00000428,false,Rx,0,6,00,00,10,11,00,00,00,00,
19263068,00000360,false,Rx,0,8,02,00,00,00,00,00,00,00,
19263077,000001D5,false,Rx,0,8,21,00,00,00,00,00,60,57,
19263086,00000307,false,Rx,0,8,00,00,00,00,00,00,00,3D,
19263096,0000037A,false,Rx,0,8,02,40,1B,3A,19,8F,36,00,
19263105,00000103,false,Rx,0,8,22,33,00,00,36,3D,21,32,
19263123,00000132,false,Rx,0,8,BF,90,CE,FF,A5,26,FF,0F,
19263132,000003E8,false,Rx,0,8,01,00,00,00,00,00,00,00,
19263141,00000266,false,Rx,0,8,00,00,01,1F,00,00,3D,01,
19263151,00000016,false,Rx,0,1,01,00,00,00,00,00,00,00,
19263160,000002E5,false,Rx,0,8,00,00,03,0D,00,00,DD,00,
19263169,00000118,false,Rx,0,8,62,0F,22,18,00,00,00,00,
19263178,00000126,false,Rx,0,3,E3,06,00,00,00,00,00,00,
19263187,00000257,false,Rx,0,8,C2,48,1F,00,02,00,00,00,
19263197,000001D6,false,Rx,0,5,00,08,08,00,28,00,00,00,
19263206,00000279,false,Rx,0,2,CA,1F,00,00,00,00,00,00,
19263215,00000102,false,Rx,0,8,22,33,00,00,3C,F9,A0,09,
19263224,000002E1,false,Rx,0,8,03,DE,99,02,1B,3F,EF,01,
19263234,00000395,false,Rx,0,8,01,11,1A,3B,18,04,0A,7D,
19263243,00000108,false,Rx,0,8,15,0B,00,00,00,01,00,00,
19263253,000002B6,false,Rx,0,2,00,03,00,00,00,00,00,00,
19263262,00000128,false,Rx,0,2,80,00,00,00,00,00,00,00,
19263271,00000123,false,Rx,0,8,00,00,12,12,D2,00,00,00,
19263280,00000268,false,Rx,0,5,2C,01,3F,01,9B,00,00,00,
19263289,000003C2,false,Rx,0,8,00,55,55,55,00,00,65,09,
19263299,00000129,false,Rx,0,8,F9,21,36,5F,00,20,FF,3F,
19263308,00000359,false,Rx,0,8,14,00,00,00,00,00,00,00,
19263317,000001D8,false,Rx,0,8,21,00,00,00,00,00,20,1A,
19263748,00000201,false,Rx,0,8,28,26,18,00,68,24,03,00,
19264177,00000247,false,Rx,0,8,A9,0E,FF,00,00,00,00,00,
19264422,00000227,false,Rx,0,8,00,00,00,00,47,00,00,80,
19264697,000001D5,false,Rx,0,8,21,00,00,00,00,00,80,77,
19265262,000007A8,false,Rx,0,8,BA,1E,1D,F5,00,00,00,00,
19266451,00000122,false,Rx,0,6,00,00,12,12,D2,00,00,00,
19266633,000003A3,false,Rx,0,5,12,D0,00,00,08,00,00,00,
19266867,00000212,false,Rx,0,8,B9,04,8B,8D,00,00,1E,6B,
19267096,00000252,false,Rx,0,8,69,13,AA,7C,00,00,A1,0F,
19267328,00000292,false,Rx,0,8,6F,46,89,E7,9C,0A,03,00,
19267557,000002D2,false,Rx,0,8,54,5E,5A,9D,14,05,E8,28,
19267687,000002F2,false,Rx,0,2,12,02,00,00,00,00,00,00,
19267934,0000039A,false,Rx,0,8,CD,FF,FE,FE,FE,08,00,06,
19268502,00000132,false,Rx,0,8,BE,90,D2,FF,B7,26,FF,0F,
19269027,00000266,false,Rx,0,8,00,00,01,1F,00,00,3D,01,
19269269,000002E5,false,Rx,0,8,00,00,03,0D,00,00,DD,00,
19269384,00000016,false,Rx,0,1,01,00,00,00,00,00,00,00,
19269632,000007D5,false,Rx,0,8,2B,00,00,00,00,00,00,00,
19269876,00000118,false,Rx,0,8,53,00,22,18,00,00,00,00,
19270120,00000243,false,Rx,0,8,08,81,42,60,92,2C,0E,09,
19270354,0000038A,false,Rx,0,8,03,00,00,00,00,00,00,00,
19270604,000007D5,false,Rx,0,8,32,0E,04,00,00,00,00,00,
19271665,0000020C,false,Rx,0,7,00,78,33,0A,DA,00,30,00,
19272223,00000228,false,Rx,0,8,83,08,06,00,80,27,C0,22,
19272463,00000129,false,Rx,0,8,B0,22,36,5F,00,20,FF,3F,
19272635,000001F8,false,Rx,0,4,3A,00,00,00,00,00,00,00,
19272780,00000229,false,Rx,0,3,43,04,00,00,00,00,00,00,
19273030,000001D8,false,Rx,0,8,21,00,00,00,00,00,40,3A,
19273178,00000249,false,Rx,0,3,D5,0D,00,00,00,00,00,00,
19273442,0000054F,false,Rx,0,8,00,00,00,00,00,00,00,00,
19273754,000002C1,false,Rx,0,8,01,00,00,14,28,00,64,00,
19273879,00000409,false,Rx,0,1,20,00,00,00,00,00,00,00,
19274707,000001D5,false,Rx,0,8,21,00,00,00,00,00,A0,97,
19275726,00000221,false,Rx,0,8,61,05,05,00,00,00,00,8E,
19276569,000003E3,false,Rx,0,2,04,00,00,00,00,00,00,00,
19276819,000002E1,false,Rx,0,8,54,0F,00,10,03,03,00,00,
19277689,00000132,false,Rx,0,8,BB,90,D3,FF,C6,26,FF,0F,
19277921,00000398,false,Rx,0,7,00,00,00,00,00,00,00,00,
19278454,000003E2,false,Rx,0,7,44,15,00,D1,EF,CE,00,00,
19278693,000001FB,false,Rx,0,8,21,0B,08,00,02,00,00,00,
19278935,00000261,false,Rx,0,8,F3,19,C8,05,09,40,3A,00,
19279172,00000266,false,Rx,0,8,00,00,01,1F,00,00,3D,01,
19279287,00000016,false,Rx,0,1,01,00,00,00,00,00,00,00,
19279526,00000118,false,Rx,0,8,54,01,22,18,00,00,00,00,
19279766,000002E5,false,Rx,0,8,00,00,03,0D,00,00,DD,00,
19280005,00000257,false,Rx,0,8,C3,49,1F,00,02,00,00,00,
19280252,00000345,false,Rx,0,8,14,05,00,00,00,00,00,00,
19280501,000006E8,false,Rx,0,8,01,00,00,00,00,00,00,00,
19281691,000004E3,false,Rx,0,8,00,67,03,00,00,00,08,00,
19282317,00000129,false,Rx,0,8,A7,23,36,5F,00,20,FF,3F,
19282936,000001D8,false,Rx,0,8,21,00,00,00,00,00,60,5A,
19301857,00000201,false,Rx,0,8,C9,64,28,FF,07,FF,30,00,
19301866,000002F9,false,Rx,0,8,10,DB,EA,4F,1A,05,FF,00,
19301875,000004E2,false,Rx,0,8,00,8A,02,00,00,00,08,00,
19301885,000001D5,false,Rx,0,8,21,00,00,00,00,00,C0,B7,
19301894,000002E8,false,Rx,0,8,02,00,00,00,00,80,20,8C,
19301904,00000272,false,Rx,0,8,11,00,C7,00,00,00,00,00,
19301914,00000293,false,Rx,0,8,00,0C,55,00,55,04,CF,1E,
19301923,000002E3,false,Rx,0,6,03,00,00,40,C1,02,00,00,
19301932,00000253,false,Rx,0,7,61,9F,64,4F,15,64,00,00,
19301942,00000132,false,Rx,0,8,B9,90,CC,FF,AC,26,FF,0F,
19301951,00000266,false,Rx,0,8,00,00,01,1F,00,00,3D,01,
19301961,00000016,false,Rx,0,1,01,00,00,00,00,00,00,00,
19301970,00000118,false,Rx,0,8,55,02,22,18,00,00,00,00,
19301979,0000022A,false,Rx,0,4,00,00,39,17,00,00,00,00,
19301988,000002E5,false,Rx,0,8,00,00,03,0D,00,00,DD,00,
19301997,00000262,false,Rx,0,6,0B,00,BA,E1,00,30,00,00,
19302007,000003F9,false,Rx,0,8,00,00,00,00,00,00,00,00,
19302016,0000023E,false,Rx,0,8,3F,C6,72,DB,01,02,58,ED,
19302025,00000343,false,Rx,0,8,00,90,58,FE,9E,49,01,00,
19302035,00000545,false,Rx,0,8,74,00,58,10,A0,01,2A,F1,
19302044,00000387,false,Rx,0,8,40,43,44,41,52,50,00,30,
19302054,00000129,false,Rx,0,8,D5,24,37,5F,00,20,FF,3F,
19302063,00000281,false,Rx,0,6,00,00,FF,1F,00,00,00,00,
19302072,000001D8,false,Rx,0,8,21,00,00,00,00,00,80,7A,
19302082,00000448,false,Rx,0,6,00,00,10,11,00,00,00,00,
19302091,000002E1,false,Rx,0,8,FD,1F,F9,E9,9D,F3,09,00,
19302100,000002C1,false,Rx,0,8,02,AB,83,51,00,AF,00,00,
19302117,00000282,false,Rx,0,8,89,29,28,28,98,01,40,0F,
19302127,000001D5,false,Rx,0,8,21,00,00,00,00,00,E0,D7,
19302136,00000422,false,Rx,0,6,00,00,10,00,00,00,00,00,
19302146,000003C3,false,Rx,0,7,55,55,55,00,00,A9,00,00,
19302155,00000263,false,Rx,0,8,00,C7,B4,5F,5F,BC,FA,00,
19302164,00000132,false,Rx,0,8,BD,90,D1,FF,C6,26,FF,0F,
19302174,00000339,false,Rx,0,8,5B,E1,02,00,80,03,40,03,
19302183,0000039A,false,Rx,0,8,98,95,91,CB,93,89,7B,0D,
19302192,00000266,false,Rx,0,8,00,00,01,1F,00,00,3D,01,
19302202,00000016,false,Rx,0,1,01,00,00,00,00,00,00,00,
19302211,00000118,false,Rx,0,8,56,03,22,18,00,00,00,00,
19302220,00000257,false,Rx,0,8,C4,4A,1F,00,02,00,00,00,
19302229,000002E5,false,Rx,0,8,00,00,03,0D,00,00,DD,00,
19302239,00000340,false,Rx,0,8,05,00,00,00,00,00,00,00,
19302248,00000383,false,Rx,0,8,89,00,36,80,00,00,80,14,
19302322,00000129,false,Rx,0,8,36,25,36,5F,00,20,FF,3F,
19302561,000002C2,false,Rx,0,8,00,00,00,01,01,00,00,5A,
19302806,000003A2,false,Rx,0,8,83,44,00,00,00,00,00,00,
19303051,000001D8,false,Rx,0,8,21,00,00,00,00,00,A0,9A,
19303671,00000393,false,Rx,0,8,11,00,C7,00,00,00,00,00,
19303912,00000201,false,Rx,0,8,FA,12,00,01,16,60,F3,03,
19304490,00000207,false,Rx,0,8,00,2D,2D,1A,16,00,00,00,
19304729,000001D5,false,Rx,0,8,21,00,00,00,00,00,00,F7,
19304848,000001F9,false,Rx,0,1,00,00,00,00,00,00,00,00,
19306631,00000423,false,Rx,0,6,80,00,10,00,00,00,00,00,
19306854,00000241,false,Rx,0,7,3C,78,2C,0F,1E,5B,00,00,
19307682,00000132,false,Rx,0,8,C0,90,D2,FF,BC,26,FF,0F,
19308810,00000266,false,Rx,0,8,00,00,01,1F,00,00,3D,01,
19308934,00000016,false,Rx,0,1,01,00,00,00,00,00,00,00,
19309274,00000118,false,Rx,0,8,57,04,22,18,00,00,00,00,
19309513,000002E5,false,Rx,0,8,00,00,03,0D,00,00,DD,00,
19310485,000003C2,false,Rx,0,8,29,55,00,00,00,00,00,00,
19310755,000002E1,false,Rx,0,8,10,21,0B,70,D3,48,00,00,
19311702,000002C3,false,Rx,0,8,00,00,00,B0,01,00,00,5A,
19311939,000002B3,false,Rx,0,8,07,D7,D4,EC,EB,F3,F0,E2,
19312182,00000439,false,Rx,0,8,00,00,20,00,00,00,FF,07,
19312421,00000129,false,Rx,0,8,18,26,37,5F,00,20,FF,3F,
19312899,000001D8,false,Rx,0,8,21,00,00,00,00,00,C0,BA,
19313722,000002F1,false,Rx,0,8,01,12,F0,80,45,00,10,00,
19313962,000002C1,false,Rx,0,8,03,00,64,0D,00,BE,04,00,
19314701,000001D5,false,Rx,0,8,21,00,00,00,00,00,20,17,
19317673,00000132,false,Rx,0,8,C1,90,D0,FF,BA,26,FF,0F,
19317908,00000372,false,Rx,0,8,06,00,85,01,16,9A,87,01,
19318676,00000119,false,Rx,0,2,00,00,00,00,00,00,00,00,
19318934,00000266,false,Rx,0,8,00,00,01,1F,00,00,3D,01,
19319038,00000016,false,Rx,0,1,01,00,00,00,00,00,00,00,
19319284,000002E5,false,Rx,0,8,00,00,03,0D,00,00,DD,00,
19319524,00000118,false,Rx,0,8,58,05,22,18,00,00,00,00,
19319753,00000243,false,Rx,0,8,C9,00,E9,D2,35,32,02,00,
19319998,00000257,false,Rx,0,8,C5,4B,1F,00,02,00,00,00,
19320246,000003C8,false,Rx,0,8,02,00,00,00,00,00,00,00,
19320765,000003F5,false,Rx,0,8,00,C8,18,59,50,00,40,01,
19322316,00000129,false,Rx,0,8,FB,27,36,5F,00,20,FF,3F,
19322876,000001D8,false,Rx,0,8,21,00,00,00,00,00,E0,DA,
19323721,00000201,false,Rx,0,8,CB,00,00,19,00,63,30,00,
19323962,00000381,false,Rx,0,8,28,FF,BF,FD,FD,BF,24,00,
19324203,000002C4,false,Rx,0,8,6D,C0,00,02,00,00,00,00,
19324458,00000204,false,Rx,0,8,01,00,00,00,00,00,00,10,
19324665,00000264,false,Rx,0,6,38,00,00,00,A0,00,00,00,
19324912,000001D5,false,Rx,0,8,21,00,00,00,00,00,40,37,
19325147,00000224,false,Rx,0,8,44,08,00,00,13,01,10,08,
19325323,000002B4,false,Rx,0,5,65,8D,27,2A,01,00,00,00,
19325728,00000221,false,Rx,0,8,60,55,55,15,54,51,11,F8,
19326177,00000788,false,Rx,0,8,F4,E4,E1,63,04,00,00,00,
19327710,00000132,false,Rx,0,8,BE,90,D2,FF,C0,26,FF,0F,
19327845,000002D1,false,Rx,0,2,FF,01,00,00,00,00,00,00,
19328080,000002E1,false,Rx,0,8,39,6D,00,00,00,E5,67,03,
19328311,00000398,false,Rx,0,7,00,00,00,00,00,00,00,00,
19328561,000001FB,false,Rx,0,8,F0,00,00,00,00,00,00,00,
19328800,0000039A,false,Rx,0,8,CD,FF,FE,FE,FE,08,00,06,
19329041,00000266,false,Rx,0,8,00,00,01,1F,00,00,3D,01,
19329159,00000016,false,Rx,0,1,01,00,00,00,00,00,00,00,
19329403,000002E5,false,Rx,0,8,00,00,03,0D,00,00,DD,00,
19329642,00000118,false,Rx,0,8,59,06,22,18,00,00,00,00,
19329798,000001A5,false,Rx,0,3,E5,02,00,00,00,00,00,00,
19329985,00000195,false,Rx,0,5,00,08,08,00,28,00,00,00,
19330217,00000287,false,Rx,0,8,5B,57,5A,58,E7,02,0A,09,
19330348,0000027A,false,Rx,0,2,CA,0F,00,00,00,00,00,00,
19330582,00000396,false,Rx,0,8,01,32,32,38,31,12,19,7D,
19349583,00000186,false,Rx,0,8,93,0C,00,00,00,00,00,00,
19349592,0000023E,false,Rx,0,8,3F,C6,72,DB,05,02,68,01,
19349601,00000129,false,Rx,0,8,D8,28,37,5F,00,20,FF,3F,
19349643,000001D8,false,Rx,0,8,21,00,00,00,00,00,00,FA,
19349653,00000288,false,Rx,0,8,83,18,06,00,80,27,D0,A2,
19349662,000002C1,false,Rx,0,8,84,A6,92,01,64,A1,08,AE,
19349672,000001D5,false,Rx,0,8,21,00,00,00,00,00,60,57,
19349681,00000379,false,Rx,0,8,6E,07,E0,1E,D2,00,01,0A,
19349690,00000421,false,Rx,0,7,00,00,00,00,04,00,00,00,
19349700,00000310,false,Rx,0,8,14,05,00,00,AC,62,52,33,
19349709,000003AA,false,Rx,0,8,00,00,00,00,00,00,00,00,
19349718,000007AA,false,Rx,0,8,06,45,00,B3,06,06,00,00,
19349728,0000078A,false,Rx,0,8,01,00,01,00,00,00,02,0D,
19349737,00000272,false,Rx,0,8,0C,00,1A,52,10,90,0C,10,
19349747,00000213,false,Rx,0,2,C0,D5,00,00,00,00,00,00,
19349756,00000132,false,Rx,0,8,BF,90,CD,FF,C6,26,FF,0F,
19349765,00000266,false,Rx,0,8,00,00,01,1F,00,00,3D,01,
19349774,00000016,false,Rx,0,1,01,00,00,00,00,00,00,00,
19349783,000002E5,false,Rx,0,8,00,00,03,0D,00,00,DD,00,
19349793,00000118,false,Rx,0,8,5A,07,22,18,00,00,00,00,
19349802,00000257,false,Rx,0,8,C6,4C,1F,00,02,00,00,00,
19349811,00000757,false,Rx,0,8,32,0E,00,00,00,00,00,00,
19349821,000006C8,false,Rx,0,8,40,06,00,1C,00,00,00,00,
19349830,00000113,false,Rx,0,3,01,97,01,00,00,00,00,00,
19349839,000007FF,false,Rx,0,8,02,46,F6,79,DC,51,18,A2,
19349849,00000318,false,Rx,0,8,14,03,17,0C,09,33,03,94,
19349858,00000458,false,Rx,0,7,02,02,00,80,00,00,00,00,
19349901,00000225,false,Rx,0,3,55,55,7A,00,00,00,00,00,
19349911,00000139,false,Rx,0,1,00,00,00,00,00,00,00,00,
19349920,000003A1,false,Rx,0,8,84,4E,74,85,01,2C,22,BE,
19349930,00000545,false,Rx,0,8,03,19,64,32,19,00,30,45,
19349939,00000129,false,Rx,0,8,8D,29,37,5F,00,20,FF,3F,
19349948,000001FA,false,Rx,0,3,3A,C0,01,00,00,00,00,00,
19349957,000001D8,false,Rx,0,8,21,00,00,00,00,00,20,1A,
19349967,00000321,false,Rx,0,8,CB,25,A7,65,02,5F,00,00,
19349976,00000201,false,Rx,0,8,CC,00,00,19,00,63,30,00,
19349986,00000282,false,Rx,0,8,74,B4,D1,06,14,54,F3,24,
19349995,000001D5,false,Rx,0,8,21,00,00,00,00,00,80,77,
19350004,000002E1,false,Rx,0,8,02,00,00,00,00,00,01,00,
19350014,00000211,false,Rx,0,6,AF,1A,71,0F,00,02,00,00,
19350023,00000283,false,Rx,0,6,1A,16,00,00,41,00,00,00,
19350032,000002A8,false,Rx,0,8,02,00,00,00,00,80,30,5C,
19350042,00000132,false,Rx,0,8,BC,90,CD,FF,B5,26,FF,0F,
19350051,00000242,false,Rx,0,2,55,D5,00,00,00,00,00,00,
19350060,000003DA,false,Rx,0,8,00,00,00,00,00,00,00,00,
19350069,00000266,false,Rx,0,8,00,00,01,1F,00,00,3D,01,
19350079,00000016,false,Rx,0,1,01,00,00,00,00,00,00,00,
19350088,000002E5,false,Rx,0,8,00,00,03,0D,00,00,DD,00,
19350137,00000118,false,Rx,0,8,5B,08,22,18,00,00,00,00,
19350147,0000021D,false,Rx,0,8,04,00,04,00,00,00,00,00,
19350156,0000025D,false,Rx,0,8,47,28,05,BE,40,A1,02,C0,
19350618,0000027D,false,Rx,0,8,00,00,00,00,00,00,00,00,
19350732,0000041D,false,Rx,0,1,00,00,00,00,00,00,00,00,
19351080,0000029D,false,Rx,0,4,00,00,00,00,00,00,00,00,
19351255,000002BD,false,Rx,0,4,00,00,00,00,00,00,00,00,
19351457,0000043D,false,Rx,0,6,00,00,00,00,FF,00,00,00,
19351706,000003C0,false,Rx,0,8,04,00,00,00,00,00,00,00,
19351947,0000075D,false,Rx,0,8,AA,03,20,50,03,22,00,00,
19352319,00000129,false,Rx,0,8,52,2A,37,5F,00,20,FF,3F,
19352548,000003A2,false,Rx,0,8,00,C0,72,F3,C4,0A,C5,67,
19352700,0000077D,false,Rx,0,3,11,00,00,00,00,00,00,00,
19352945,000001D8,false,Rx,0,8,21,00,00,00,00,00,40,3A,
19353080,000007DD,false,Rx,0,2,FF,00,00,00,00,00,00,00,
19353677,00000393,false,Rx,0,8,0C,00,1C,62,10,90,0C,10,
19353918,000002C1,false,Rx,0,8,18,66,18,0E,8E,3F,00,00,
19354137,00000428,false,Rx,0,6,00,00,10,11,00,00,00,00,
19354480,00000360,false,Rx,0,8,03,00,00,00,00,00,00,00,
19354719,000001D5,false,Rx,0,8,21,00,00,00,00,00,A0,97,
19355801,0000037A,false,Rx,0,8,00,80,1A,C9,73,FD,37,00,
19356671,00000103,false,Rx,0,8,22,33,00,00,36,3D,21,32,
19357676,00000132,false,Rx,0,8,BB,90,CD,FF,C4,26,FF,0F,
19357905,0000039A,false,Rx,0,8,98,95,8F,CB,93,89,79,0D,
19358210,000003E8,false,Rx,0,8,02,00,00,00,00,00,00,00,
19359008,00000266,false,Rx,0,8,00,00,01,1F,00,00,3D,01,
19359122,00000016,false,Rx,0,1,01,00,00,00,00,00,00,00,
19359374,00000118,false,Rx,0,8,5C,09,22,18,00,00,00,00,
19359609,00000257,false,Rx,0,8,C7,4D,1F,00,02,00,00,00,
19359760,00000126,false,Rx,0,3,E3,06,00,00,00,00,00,00,
19360001,000002E5,false,Rx,0,8,00,00,03,0D,00,00,DD,00,
19360186,000001D6,false,Rx,0,5,00,08,08,00,28,00,00,00,
19360316,00000279,false,Rx,0,2,CA,1F,00,00,00,00,00,00,
19360560,00000102,false,Rx,0,8,22,33,00,00,3E,F9,A0,09,
19360794,00000395,false,Rx,0,8,01,11,19,3B,18,05,09,7D,
19361039,00000108,false,Rx,0,8,15,0C,00,00,00,00,00,00,
19361177,000002B6,false,Rx,0,2,00,03,00,00,00,00,00,00,
19361307,00000128,false,Rx,0,2,80,00,00,00,00,00,00,00,
19361546,000003C2,false,Rx,0,8,00,55,55,55,00,00,65,09,
19361786,00000123,false,Rx,0,8,00,00,12,12,D2,00,00,00,
19361970,00000268,false,Rx,0,5,2C,01,3F,01,9B,00,00,00,
19362201,000002E1,false,Rx,0,8,03,DE,99,02,1B,3F,EF,01,
19362435,00000129,false,Rx,0,8,57,2B,36,5F,00,20,FF,3F,
19362824,00000359,false,Rx,0,8,15,00,00,00,00,00,00,00,
19363070,000001D8,false,Rx,0,8,21,00,00,00,00,00,60,5A,
19363752,00000201,false,Rx,0,8,08,26,18,00,68,24,03,00,
19364346,00000247,false,Rx,0,8,A9,0E,FF,00,00,00,00,00,
19364590,00000227,false,Rx,0,8,00,00,00,00,47,00,00,80,
19364841,000001D5,false,Rx,0,8,21,00,00,00,00,00,C0,B7,
19365071,00000263,false,Rx,0,8,01,C5,BA,60,5D,BC,FA,03,
19365312,000007A8,false,Rx,0,8,F8,E4,E1,63,04,00,00,00,
19366465,00000122,false,Rx,0,6,00,00,12,12,D2,00,00,00,
19366700,00000252,false,Rx,0,8,69,13,AA,7C,00,00,A1,0F,
19366935,00000212,false,Rx,0,8,B9,04,8B,8D,00,00,1E,6B,
19367161,00000292,false,Rx,0,8,6F,46,89,E7,9C,0A,03,00,
19367385,000002D2,false,Rx,0,8,54,5E,5A,9D,14,05,E8,28,
19367515,000002F2,false,Rx,0,2,12,02,00,00,00,00,00,00,
19367696,000003A3,false,Rx,0,5,12,D0,00,00,08,00,00,00,
19368504,00000132,false,Rx,0,8,BF,90,D2,FF,C9,26,FF,0F,
19387365,00000266,false,Rx,0,8,00,00,01,1F,00,00,3D,01,
19387374,000002E5,false,Rx,0,8,00,00,03,0D,00,00,DD,00,
19387383,00000016,false,Rx,0,1,01,00,00,00,00,00,00,00,
19387392,000007D5,false,Rx,0,8,2B,00,00,00,00,00,00,00,
19387402,00000118,false,Rx,0,8,5D,0A,22,18,00,00,00,00,
19387411,00000243,false,Rx,0,8,08,81,42,60,92,2C,0E,09,
19387420,0000038A,false,Rx,0,8,00,00,00,00,00,00,00,00,
19387430,000007D5,false,Rx,0,8,32,0E,04,00,00,00,00,00,
19387439,0000023E,false,Rx,0,8,3F,C6,72,DB,05,02,78,11,
19387449,0000020C,false,Rx,0,7,00,78,33,0A,DA,00,30,00,
19387458,00000228,false,Rx,0,8,83,08,06,00,80,27,D0,32,
19387467,00000129,false,Rx,0,8,C3,2C,37,5F,00,20,FF,3F,
19387477,000001F8,false,Rx,0,4,3A,00,00,00,00,00,00,00,
19387486,000001D8,false,Rx,0,8,21,00,00,00,00,00,80,7A,
19387495,00000229,false,Rx,0,3,41,05,00,00,00,00,00,00,
19387504,00000249,false,Rx,0,3,8B,0E,00,00,00,00,00,00,
19387513,0000054F,false,Rx,0,8,00,00,00,00,00,00,00,00,
19387523,000002C1,false,Rx,0,8,01,00,00,14,28,00,64,00,
19387532,00000409,false,Rx,0,1,20,00,00,00,00,00,00,00,
19387541,000001D5,false,Rx,0,8,21,00,00,00,00,00,E0,D7,
19387550,00000221,false,Rx,0,8,61,05,05,00,00,00,20,AE,
19387560,000003E3,false,Rx,0,2,04,00,00,00,00,00,00,00,
19387569,00000132,false,Rx,0,8,C4,90,D0,FF,B4,26,FF,0F,
19387578,00000398,false,Rx,0,7,00,00,00,00,00,00,00,00,
19387588,000003E2,false,Rx,0,7,44,15,00,D1,EF,CE,00,00,
19387597,000001FB,false,Rx,0,8,21,0B,08,00,02,00,00,00,
19387606,00000261,false,Rx,0,8,F7,19,C7,05,09,40,1C,00,
19387616,00000266,false,Rx,0,8,00,00,01,1F,00,00,3D,01,
19387625,00000016,false,Rx,0,1,01,00,00,00,00,00,00,00,
19387667,00000118,false,Rx,0,8,5E,0B,22,18,00,00,00,00,
19387676,000002E1,false,Rx,0,8,54,0F,00,10,03,03,00,00,
19387686,00000257,false,Rx,0,8,C8,4E,1F,00,02,00,00,00,
19387695,000002E5,false,Rx,0,8,00,00,03,0D,00,00,DD,00,
19387704,000006E8,false,Rx,0,8,40,06,00,1C,00,00,00,00,
19387714,000004E3,false,Rx,0,8,01,69,05,00,00,00,08,00,
19387723,00000129,false,Rx,0,8,D1,2D,37,5F,00,20,FF,3F,
19387733,000001D8,false,Rx,0,8,21,00,00,00,00,00,A0,9A,
19387742,00000201,false,Rx,0,8,C9,64,28,FF,07,FF,30,00,
19387751,000002F9,false,Rx,0,8,10,DB,EA,4F,1A,05,FF,00,
19387761,000004E2,false,Rx,0,8,01,A7,05,FF,0F,00,08,00,
19387770,000001D5,false,Rx,0,8,21,00,00,00,00,00,00,F7,
19387779,00000473,false,Rx,0,8,30,00,00,00,00,00,00,00,
19387789,000002E8,false,Rx,0,8,02,00,00,00,00,80,30,9C,
19387798,00000272,false,Rx,0,8,11,00,C7,00,00,00,00,00,
19387808,000002E3,false,Rx,0,6,D4,43,63,29,9D,04,00,00,
19387817,00000132,false,Rx,0,8,BB,90,CD,FF,C5,26,FF,0F,
19387914,0000039A,false,Rx,0,8,CD,FF,FE,FE,FE,08,00,06,
19389000,00000266,false,Rx,0,8,00,00,01,1F,00,00,3D,01,
19389127,00000016,false,Rx,0,1,01,00,00,00,00,00,00,00,
19389366,00000118,false,Rx,0,8,5F,0C,22,18,00,00,00,00,
19389533,0000022A,false,Rx,0,4,00,00,39,17,00,00,00,00,
19389778,000002E5,false,Rx,0,8,00,00,03,0D,00,00,DD,00,
19390450,00000262,false,Rx,0,6,0B,00,BA,E1,00,30,00,00,
19390813,000003F9,false,Rx,0,8,01,00,00,00,00,00,00,00,
19391687,00000343,false,Rx,0,8,00,90,58,2E,9E,49,01,00,
19391918,00000545,false,Rx,0,8,74,00,5D,10,A0,FA,49,0E,
19392321,00000129,false,Rx,0,8,0E,2E,37,5F,00,20,FF,3F,
19392705,00000281,false,Rx,0,6,00,00,FF,1F,00,00,00,00,
19392950,000001D8,false,Rx,0,8,21,00,00,00,00,00,C0,BA,
19393182,00000448,false,Rx,0,6,00,00,10,11,00,00,00,00,
19393731,000002C1,false,Rx,0,8,02,AB,83,51,00,AF,00,00,
19393967,000003C9,false,Rx,0,8,01,94,F5,7F,4D,98,00,05,
19394472,00000282,false,Rx,0,8,89,29,28,28,CC,00,40,0F,
19394711,000001D5,false,Rx,0,8,21,00,00,00,00,00,20,17,
19395725,000002E1,false,Rx,0,8,FD,1F,FC,E9,9D,F8,09,00,
19396434,00000422,false,Rx,0,6,00,00,10,00,00,00,00,00,
19396709,000003C3,false,Rx,0,7,55,55,55,00,00,A9,00,00,
19397764,00000132,false,Rx,0,8,C1,90,CE,FF,AE,26,FF,0F,
19398005,00000339,false,Rx,0,8,5B,E1,02,00,80,03,40,03,
19398392,00000372,false,Rx,0,8,07,00,01,00,BF,9C,05,00,
19399021,00000266,false,Rx,0,8,00,00,01,1F,00,00,3D,01,
19399124,00000016,false,Rx,0,1,01,00,00,00,00,00,00,00,
19399371,00000118,false,Rx,0,8,60,0D,22,18,00,00,00,00,
19399606,00000257,false,Rx,0,8,C9,4F,1F,00,02,00,00,00,
19399845,000002E5,false,Rx,0,8,00,00,03,0D,00,00,DD,00,
19400097,00000340,false,Rx,0,8,06,00,00,00,00,00,00,00,
19401693,00000383,false,Rx,0,8,89,00,36,80,00,00,80,14,
19401921,000002B3,false,Rx,0,8,08,1B,17,0F,0E,07,0B,1B,
19402319,00000129,false,Rx,0,8,0B,2F,36,5F,00,20,FF,3F,
19402548,000002C2,false,Rx,0,8,55,5B,A9,C6,03,00,52,00,
19402792,000003A2,false,Rx,0,8,83,54,00,00,00,00,00,00,
19403037,000001D8,false,Rx,0,8,21,00,00,00,00,00,E0,DA,
19403672,00000393,false,Rx,0,8,11,00,C7,00,00,00,00,00,
19403914,00000201,false,Rx,0,8,FA,12,00,01,16,60,F3,03,
19404720,000001D5,false,Rx,0,8,21,00,00,00,00,00,40,37,
19404839,000001F9,false,Rx,0,1,00,00,00,00,00,00,00,00,
19406029,00000207,false,Rx,0,8,00,2F,2B,1A,15,00,00,00,
19406643,00000423,false,Rx,0,6,80,00,10,00,00,00,00,00,
19406862,00000241,false,Rx,0,7,3D,78,6C,0F,1E,5B,00,00,
19407684,00000132,false,Rx,0,8,C4,90,CC,FF,B7,26,FF,0F,
19409000,00000266,false,Rx,0,8,00,00,01,1F,00,00,3D,01,
19409121,00000016,false,Rx,0,1,01,00,00,00,00,00,00,00,
19409360,000002E5,false,Rx,0,8,00,00,03,0D,00,00,DD,00,
19409599,00000118,false,Rx,0,8,61,0E,22,18,00,00,00,00,
19410495,000003C2,false,Rx,0,8,29,55,00,00,00,00,00,00,
19411550,0000023E,false,Rx,0,8,3F,C6,72,DC,01,02,88,1E,
19411779,000002C3,false,Rx,0,8,55,63,A9,C6,03,00,5A,00,
19412025,00000439,false,Rx,0,8,00,00,20,00,00,00,FF,07,
19412324,00000129,false,Rx,0,8,1A,20,37,5F,00,20,FF,3F,
19412564,000002E2,false,Rx,0,8,00,00,00,F1,C0,02,00,00,
19412798,000002E1,false,Rx,0,8,10,21,0B,70,D3,48,00,00,
19413044,000001D8,false,Rx,0,8,21,00,00,00,00,00,00,FA,
19413155,00000744,false,Rx,0,1,A2,00,00,00,00,00,00,00,
19413720,000002F1,false,Rx,0,8,02,92,F1,80,45,80,77,7F,
19413960,000002C1,false,Rx,0,8,03,00,64,0D,00,BE,04,00,
19414201,00000381,false,Rx,0,8,29,FF,BF,FD,FD,BF,24,00,
19433173,000001D5,false,Rx,0,8,21,00,00,00,00,00,60,57,
19433182,00000132,false,Rx,0,8,C3,90,CB,FF,C4,26,FF,0F,
19433192,0000039A,false,Rx,0,8,98,95,8F,CB,93,89,7B,01,
19433201,00000119,false,Rx,0,2,00,00,00,00,00,00,00,00,
19433210,00000266,false,Rx,0,8,00,00,01,1F,00,00,3D,01,
19433219,00000016,false,Rx,0,1,01,00,00,00,00,00,00,00,
19433228,00000118,false,Rx,0,8,62,0F,22,18,00,00,00,00,
19433238,00000257,false,Rx,0,8,BA,40,1F,00,02,00,00,00,
19433247,00000243,false,Rx,0,8,C9,00,E9,D2,35,32,02,00,
19433257,000002E5,false,Rx,0,8,00,00,03,0D,00,00,DD,00,
19433266,000003C8,false,Rx,0,8,03,00,00,00,00,00,00,00,
19433275,000003F5,false,Rx,0,8,00,C8,18,59,50,00,40,01,
19433285,00000743,false,Rx,0,1,2A,00,00,00,00,00,00,00,
19433294,00000129,false,Rx,0,8,0D,21,37,5F,00,20,FF,3F,
19433303,000001D8,false,Rx,0,8,21,00,00,00,00,00,20,1A,
19433312,00000201,false,Rx,0,8,CB,00,00,19,00,63,30,00,
19433322,000002C4,false,Rx,0,8,12,BC,00,7D,AE,11,23,00,
19433331,00000204,false,Rx,0,8,01,00,00,00,00,00,00,10,
19433341,00000264,false,Rx,0,6,38,00,00,00,A0,00,00,00,
19433350,000001D5,false,Rx,0,8,21,00,00,00,00,00,80,77,
19433359,00000224,false,Rx,0,8,44,08,00,00,13,01,10,08,
19433369,000002B4,false,Rx,0,5,65,89,27,1E,01,00,00,00,
19433378,00000221,false,Rx,0,8,60,55,55,15,54,51,31,18,
19433387,00000788,false,Rx,0,8,01,00,00,00,FF,A1,08,00,
19433396,00000132,false,Rx,0,8,C7,90,D2,FF,BB,26,FF,0F,
19433406,000002D1,false,Rx,0,2,FF,01,00,00,00,00,00,00,
19433415,00000398,false,Rx,0,7,00,00,00,00,00,00,00,00,
19433424,000001FB,false,Rx,0,8,F0,00,00,00,00,00,00,00,
19433434,00000266,false,Rx,0,8,00,00,01,1F,00,00,3D,01,
19433443,00000016,false,Rx,0,1,01,00,00,00,00,00,00,00,
19433452,00000118,false,Rx,0,8,53,00,22,18,00,00,00,00,
19433461,000002E5,false,Rx,0,8,00,00,03,0D,00,00,DD,00,
19433471,000001A5,false,Rx,0,3,E5,02,00,00,00,00,00,00,
19433480,000002E1,false,Rx,0,8,39,6D,00,00,00,E5,67,03,
19433489,00000195,false,Rx,0,5,00,08,08,00,28,00,00,00,
19433498,0000027A,false,Rx,0,2,CA,0F,00,00,00,00,00,00,
19433507,00000396,false,Rx,0,8,01,32,32,38,30,12,19,7D,
19433517,00000186,false,Rx,0,8,95,0D,00,00,00,01,00,00,
19433526,00000287,false,Rx,0,8,5B,57,5A,58,E7,02,0A,08,
19433536,00000263,false,Rx,0,8,02,00,00,04,F8,23,32,00,
19433545,00000129,false,Rx,0,8,B0,22,36,5F,00,20,FF,3F,
19433554,000001D8,false,Rx,0,8,21,00,00,00,00,00,40,3A,
19433564,00000288,false,Rx,0,8,83,18,06,00,80,27,E0,B2,
19433720,000002C1,false,Rx,0,8,84,A6,92,01,64,A1,08,AE,
19434309,000003D8,false,Rx,0,2,33,00,00,00,00,00,00,00,
19434688,000001D5,false,Rx,0,8,21,00,00,00,00,00,A0,97,
19434922,00000379,false,Rx,0,8,6D,07,1E,BC,C1,00,01,0A,
19435153,00000421,false,Rx,0,7,00,00,00,00,04,00,00,00,
19435645,0000077A,false,Rx,0,8,00,C8,1A,00,33,11,00,00,
19436142,000007AA,false,Rx,0,8,C0,E7,CE,F4,00,D6,FF,00,
19436381,0000078A,false,Rx,0,8,01,00,02,00,00,00,08,5E,
19436610,00000272,false,Rx,0,8,0C,00,1C,32,10,90,0C,10,
19436776,000003B3,false,Rx,0,4,D8,00,04,02,00,00,00,00,
19437017,0000000C,false,Rx,0,8,7B,0F,39,80,01,0E,EE,F0,
19437776,00000132,false,Rx,0,8,C6,90,CB,FF,B9,26,FF,0F,
19438805,00000266,false,Rx,0,8,00,00,01,1F,00,00,3D,01,
19438924,00000016,false,Rx,0,1,01,00,00,00,00,00,00,00,
19439166,00000118,false,Rx,0,8,54,01,22,18,00,00,00,00,
19439410,00000257,false,Rx,0,8,BB,41,1F,00,02,00,00,00,
19439654,000002E5,false,Rx,0,8,00,00,03,0D,00,00,DD,00,
19439899,00000757,false,Rx,0,8,32,0E,00,00,00,00,00,00,
19440203,000006C8,false,Rx,0,8,01,00,00,00,00,00,00,00,
19440354,00000113,false,Rx,0,3,01,97,01,00,00,00,00,00,
19440593,000007FF,false,Rx,0,8,03,81,09,69,61,C2,00,12,
19440832,00000318,false,Rx,0,8,14,03,18,0C,09,33,05,97,
19441058,00000458,false,Rx,0,7,02,02,00,80,00,00,00,00,
19441367,00000559,false,Rx,0,6,00,00,00,00,00,00,00,00,
19441533,00000528,false,Rx,0,4,5E,66,3B,CC,00,00,00,00,
19441678,00000225,false,Rx,0,3,55,55,7A,00,00,00,00,00,
19441792,00000139,false,Rx,0,1,00,00,00,00,00,00,00,00,
19442022,000003A1,false,Rx,0,8,84,4E,74,85,01,28,32,CA,
19442144,000003ED,false,Rx,0,1,00,00,00,00,00,00,00,00,
19442372,00000129,false,Rx,0,8,A7,23,36,5F,00,20,FF,3F,
19442518,000001FA,false,Rx,0,3,3A,C0,01,00,00,00,00,00,
19442752,00000405,false,Rx,0,8,12,46,35,32,38,34,34,39,
19442998,000001D8,false,Rx,0,8,21,00,00,00,00,00,60,5A,
19443225,00000545,false,Rx,0,8,03,19,64,32,19,00,50,65,
19443754,00000201,false,Rx,0,8,CC,00,00,19,00,63,30,00,
19444466,00000282,false,Rx,0,8,74,B4,D1,06,10,54,F3,24,
19444711,000001D5,false,Rx,0,8,21,00,00,00,00,00,C0,B7,
19445311,00000211,false,Rx,0,6,B0,1B,71,0F,00,02,00,00,
19446635,00000283,false,Rx,0,6,1A,16,00,00,41,00,00,00,
19446879,000002E1,false,Rx,0,8,02,00,00,00,00,00,01,00,
19447195,000002A8,false,Rx,0,8,02,00,00,00,00,80,40,6C,
19447683,00000132,false,Rx,0,8,C4,90,CB,FF,A5,26,FF,0F,
19447922,0000039A,false,Rx,0,8,CD,FF,FE,FE,FE,08,00,06,
19448355,00000242,false,Rx,0,2,55,D5,00,00,00,00,00,00,
19448796,000003DA,false,Rx,0,8,00,00,00,00,00,00,00,00,
19449042,00000266,false,Rx,0,8,00,00,01,1F,00,00,3D,01,
19449160,00000016,false,Rx,0,1,01,00,00,00,00,00,00,00,
19449399,00000118,false,Rx,0,8,55,02,22,18,00,00,00,00,
19449649,0000021D,false,Rx,0,8,04,00,04,00,00,00,00,00,
19449878,0000025D,false,Rx,0,8,47,28,05,BE,40,A1,02,C0,
19450124,000002E5,false,Rx,0,8,00,00,03,0D,00,00,DD,00,
19450381,0000027D,false,Rx,0,8,00,00,00,00,00,00,00,00,
19450693,0000029D,false,Rx,0,4,00,00,00,00,00,00,00,00,
19450813,0000041D,false,Rx,0,1,00,00,00,00,00,00,00,00,
19451089,000002BD,false,Rx,0,4,00,00,00,00,00,00,00,00,
19451326,0000023E,false,Rx,0,8,3F,C6,72,DC,01,02,98,2E,
19451529,0000043D,false,Rx,0,6,00,00,00,00,FF,00,00,00,
19451779,000003C0,false,Rx,0,8,05,00,00,00,00,00,00,00,
19452075,0000077D,false,Rx,0,3,11,00,00,00,00,00,00,00,
19452207,000007DD,false,Rx,0,2,FF,00,00,00,00,00,00,00,
19452446,00000129,false,Rx,0,8,D5,24,37,5F,00,20,FF,3F,
19452675,000003A2,false,Rx,0,8,00,80,F2,EC,94,8A,C4,67,
19452924,000001D8,false,Rx,0,8,21,00,00,00,00,00,80,7A,
19453678,00000393,false,Rx,0,8,0C,00,1A,52,10,90,0C,10,
19453920,000002C1,false,Rx,0,8,18,66,18,0E,8E,3F,00,00,
19454136,00000428,false,Rx,0,6,00,00,10,11,00,00,00,00,
19473127,00000360,false,Rx,0,8,04,00,00,00,00,00,00,00,
19473137,000001D5,false,Rx,0,8,21,00,00,00,00,00,E0,D7,
19473146,0000037A,false,Rx,0,8,01,C0,19,BB,AC,D7,25,00,
19473155,00000103,false,Rx,0,8,22,33,00,00,36,3D,21,32,
19473198,00000132,false,Rx,0,8,C5,90,CB,FF,B4,26,FF,0F,
19473207,000003E8,false,Rx,0,8,03,00,00,00,00,00,00,00,
19473216,00000266,false,Rx,0,8,00,00,01,1F,00,00,3D,01,
19473226,00000016,false,Rx,0,1,01,00,00,00,00,00,00,00,
19473235,00000118,false,Rx,0,8,56,03,22,18,00,00,00,00,
19473244,00000126,false,Rx,0,3,E3,06,00,00,00,00,00,00,
19473253,00000257,false,Rx,0,8,BC,42,1F,00,02,00,00,00,
19473263,000001D6,false,Rx,0,5,00,08,08,00,28,00,00,00,
19473272,000002E5,false,Rx,0,8,00,00,03,0D,00,00,DD,00,
19473281,00000279,false,Rx,0,2,CA,1F,00,00,00,00,00,00,
19473290,00000395,false,Rx,0,8,01,11,19,3B,18,05,09,7D,
19473300,00000102,false,Rx,0,8,22,33,00,00,3C,F9,A0,09,
19473309,00000108,false,Rx,0,8,17,0D,00,00,00,01,00,00,
19473318,000002B6,false,Rx,0,2,00,03,00,00,00,00,00,00,
19473327,00000128,false,Rx,0,2,80,00,00,00,00,00,00,00,
19473336,00000268,false,Rx,0,5,2C,01,3F,01,9B,00,00,00,
19473346,000003C2,false,Rx,0,8,00,55,55,55,00,00,65,09,
19473355,00000123,false,Rx,0,8,00,00,12,12,D2,00,00,00,
19473364,00000129,false,Rx,0,8,36,25,36,5F,00,20,FF,3F,
19473374,00000359,false,Rx,0,8,16,00,00,00,00,00,00,00,
19473383,000001D8,false,Rx,0,8,21,00,00,00,00,00,A0,9A,
19473392,000002E1,false,Rx,0,8,03,DE,99,02,1B,3F,EF,01,
19473402,00000201,false,Rx,0,8,28,A6,18,00,64,24,03,00,
19473411,00000247,false,Rx,0,8,A8,0E,FF,00,00,00,00,00,
19473421,000001D5,false,Rx,0,8,21,00,00,00,00,00,00,F7,
19473430,00000227,false,Rx,0,8,00,00,00,00,47,00,00,80,
19473473,000007A8,false,Rx,0,8,01,00,00,00,FF,A1,08,00,
19473482,00000122,false,Rx,0,6,00,00,12,12,D2,00,00,00,
19473491,000003A3,false,Rx,0,5,12,D0,00,00,08,00,00,00,
19473500,00000363,false,Rx,0,8,0A,01,01,00,00,00,48,00,
19473510,00000132,false,Rx,0,8,C4,90,C7,FF,AA,26,FF,0F,
19473519,000002D2,false,Rx,0,8,54,5E,5A,9D,14,05,E8,28,
19473529,00000212,false,Rx,0,8,B9,04,8B,8D,00,00,1E,6B,
19473538,00000252,false,Rx,0,8,69,13,AA,7C,00,00,A1,0F,
19473547,00000266,false,Rx,0,8,00,00,01,1F,00,00,3D,01,
19473557,00000292,false,Rx,0,8,6F,46,89,E7,9C,0A,03,00,
19473566,00000016,false,Rx,0,1,01,00,00,00,00,00,00,00,
19473575,00000243,false,Rx,0,8,08,81,42,60,92,2C,0E,09,
19473585,00000118,false,Rx,0,8,57,04,22,18,00,00,00,00,
19473594,000002E5,false,Rx,0,8,00,00,03,0D,00,00,DD,00,
19473603,000002F2,false,Rx,0,2,12,02,00,00,00,00,00,00,
19473612,0000038A,false,Rx,0,8,01,00,00,00,00,00,00,00,
19473622,000007D5,false,Rx,0,8,2B,00,00,00,00,00,00,00,
19473631,000007D5,false,Rx,0,8,32,0E,04,00,00,00,00,00,
19473640,0000020C,false,Rx,0,7,00,98,33,0A,DA,00,30,00,
19473650,00000228,false,Rx,0,8,83,08,06,00,80,27,E0,42,
19473659,00000129,false,Rx,0,8,EC,26,36,5F,00,20,FF,3F,
19473669,000001F8,false,Rx,0,4,3A,00,00,00,00,00,00,00,
19473678,000001D8,false,Rx,0,8,21,00,00,00,00,00,C0,BA,
19473687,00000229,false,Rx,0,3,DD,06,00,00,00,00,00,00,
19473696,00000249,false,Rx,0,3,51,0F,00,00,00,00,00,00,
19473705,0000054F,false,Rx,0,8,00,00,00,00,00,00,00,00,
19473754,000002C1,false,Rx,0,8,01,00,00,14,28,00,64,00,
19474487,00000409,false,Rx,0,1,20,00,00,00,00,00,00,00,
19474732,000001D5,false,Rx,0,8,21,00,00,00,00,00,20,17,
19475730,00000221,false,Rx,0,8,61,05,05,00,00,00,40,CE,
19476579,000003E3,false,Rx,0,2,04,00,00,00,00,00,00,00,
19477687,00000132,false,Rx,0,8,C3,90,C6,FF,95,26,FF,0F,
19477933,00000372,false,Rx,0,8,08,00,00,00,00,00,00,00,
19478181,0000034A,false,Rx,0,8,00,07,00,00,00,00,00,60,
19478409,00000398,false,Rx,0,7,00,00,00,00,00,00,00,00,
19478648,000001FB,false,Rx,0,8,21,0B,08,00,02,00,00,00,
19478883,00000261,false,Rx,0,8,F6,19,C7,05,09,40,F9,FF,
19479136,00000266,false,Rx,0,8,00,00,01,1F,00,00,3D,01,
19479239,00000016,false,Rx,0,1,01,00,00,00,00,00,00,00,
19479484,00000118,false,Rx,0,8,58,05,22,18,00,00,00,00,
19479724,00000257,false,Rx,0,8,BD,43,1F,00,02,00,00,00,
19479964,000002E5,false,Rx,0,8,00,00,03,0D,00,00,DD,00,
19480165,0000038B,false,Rx,0,6,FF,FF,47,19,EC,00,00,00,
19480388,0000039A,false,Rx,0,8,98,93,8F,CB,93,89,79,0D,
19480612,000003E2,false,Rx,0,7,44,15,00,D1,EF,CE,00,00,
19480851,000002E1,false,Rx,0,8,54,0F,00,10,03,03,00,00,
19481102,000006E8,false,Rx,0,8,01,00,00,00,00,00,00,00,
19481701,000004E3,false,Rx,0,8,02,9D,01,00,00,00,08,00,
19482317,00000129,false,Rx,0,8,FB,27,36,5F,00,20,FF,3F,
19482856,000001D8,false,Rx,0,8,21,00,00,00,00,00,E0,DA,
19483725,00000201,false,Rx,0,8,C9,64,28,FF,07,FF,30,00,
19483966,000002F9,false,Rx,0,8,10,DB,EA,4F,1A,05,FF,00,
19484498,000004E2,false,Rx,0,8,02,A8,00,00,00,00,08,00,
19484743,000001D5,false,Rx,0,8,21,00,00,00,00,00,40,37,
19486216,000002E8,false,Rx,0,8,02,00,00,00,00,80,40,AC,
19486486,00000272,false,Rx,0,8,11,00,C7,00,00,00,00,00,
19486685,000002E3,false,Rx,0,6,50,2A,10,23,82,23,00,00,
19486846,00000333,false,Rx,0,4,04,10,E8,07,00,00,00,00,
19487097,00000334,false,Rx,0,8,3F,3F,FF,C8,00,02,90,0E,
19487691,00000132,false,Rx,0,8,C6,90,CB,FF,BC,26,FF,0F,
19488935,00000266,false,Rx,0,8,00,00,01,1F,00,00,3D,01,
19489050,00000016,false,Rx,0,1,01,00,00,00,00,00,00,00,
19489293,000002E5,false,Rx,0,8,00,00,03,0D,00,00,DD,00,
19489538,00000118,false,Rx,0,8,59,06,22,18,00,00,00,00,
19489704,0000022A,false,Rx,0,4,00,00,39,17,00,00,00,00,
19490454,00000262,false,Rx,0,6,0B,00,BA,E1,00,30,00,00,
19490838,000003F9,false,Rx,0,8,02,00,00,00,00,00,00,00,
19491257,0000023E,false,Rx,0,8,3F,C6,72,DC,05,02,A8,42,
19491687,00000343,false,Rx,0,8,00,90,64,FE,9D,4C,01,00,
19491921,000002B3,false,Rx,0,8,A9,0F,20,00,C8,60,50,67,
19492153,00000545,false,Rx,0,8,7E,00,E5,40,9F,F4,69,E9,
19492397,00000129,false,Rx,0,8,2C,28,36,5F,00,20,FF,3F,
19492708,00000281,false,Rx,0,6,00,00,FF,1F,00,00,00,00,
19492954,000001D8,false,Rx,0,8,21,00,00,00,00,00,00,FA,
19493191,00000448,false,Rx,0,6,00,00,10,11,00,00,00,00,
19493735,000002C1,false,Rx,0,8,02,AB,83,51,00,AF,00,00,
19494469,00000282,false,Rx,0,8,89,29,28,28,80,08,40,0F,
19513442,000001D5,false,Rx,0,8,21,00,00,00,00,00,60,57,
19513451,000007E8,false,Rx,0,8,11,00,00,00,00,00,00,00,
19513461,00000422,false,Rx,0,6,00,00,10,00,00,00,00,00,
19513470,000003C3,false,Rx,0,7,55,55,55,00,00,A9,00,00,
19513479,000002E1,false,Rx,0,8,FD,1F,F6,E9,9D,EB,09,00,
19513489,00000132,false,Rx,0,8,C4,90,C8,FF,91,26,FF,0F,
19513498,00000320,false,Rx,0,8,02,00,00,00,00,00,00,00,
19513507,00000339,false,Rx,0,8,5B,E1,02,00,80,03,40,03,
19513517,00000263,false,Rx,0,8,00,C7,B4,5F,5F,BC,FA,00,
19513526,00000266,false,Rx,0,8,00,00,01,1F,00,00,3D,01,
19513536,00000016,false,Rx,0,1,01,00,00,00,00,00,00,00,
19513545,000002E5,false,Rx,0,8,00,00,03,0D,00,00,DD,00,
19513554,00000118,false,Rx,0,8,5A,07,22,18,00,00,00,00,
19513563,00000257,false,Rx,0,8,BE,44,1F,00,02,00,00,00,
19513573,00000340,false,Rx,0,8,07,00,00,00,00,00,00,00,
19513582,00000383,false,Rx,0,8,89,00,36,80,00,00,80,14,
19513591,00000129,false,Rx,0,8,8D,29,37,5F,00,20,FF,3F,
19513601,000002C2,false,Rx,0,8,00,00,00,01,01,00,00,5A,
19513610,000003A2,false,Rx,0,8,7F,44,00,00,00,00,00,00,
19513620,000001D8,false,Rx,0,8,21,00,00,00,00,00,20,1A,
19513629,00000393,false,Rx,0,8,11,00,C7,00,00,00,00,00,
19513638,00000201,false,Rx,0,8,FA,12,00,01,16,60,F3,03,
19513648,00000381,false,Rx,0,8,2A,FF,BF,FD,FD,BF,24,00,
19513657,000001D5,false,Rx,0,8,21,00,00,00,00,00,80,77,
19513666,000001F9,false,Rx,0,1,00,00,00,00,00,00,00,00,
19513675,00000423,false,Rx,0,6,80,00,10,00,00,00,00,00,
19513685,00000241,false,Rx,0,7,3C,78,2C,0F,1E,5B,00,00,
19513727,00000207,false,Rx,0,8,00,2F,2B,19,16,00,00,00,
19513737,00000132,false,Rx,0,8,C6,90,CA,FF,AF,26,FF,0F,
19513746,0000039A,false,Rx,0,8,CD,FF,FE,FE,FE,08,00,06,
19513755,00000266,false,Rx,0,8,00,00,01,1F,00,00,3D,01,
19513765,00000016,false,Rx,0,1,01,00,00,00,00,00,00,00,
19513774,00000118,false,Rx,0,8,5B,08,22,18,00,00,00,00,
19513783,000002E5,false,Rx,0,8,00,00,03,0D,00,00,DD,00,
19513792,000003C2,false,Rx,0,8,29,55,00,00,00,00,00,00,
19513802,000002C3,false,Rx,0,8,00,00,00,B0,01,00,00,5A,
19513811,00000439,false,Rx,0,8,00,00,20,00,00,00,FF,07,
19513821,00000129,false,Rx,0,8,A6,2A,36,5F,00,20,FF,3F,
19513830,000001D8,false,Rx,0,8,21,00,00,00,00,00,40,3A,
19513839,000002F1,false,Rx,0,8,03,12,ED,00,45,80,00,00,
19513971,000002C1,false,Rx,0,8,03,00,64,0D,00,BE,04,00,
19514684,000001D5,false,Rx,0,8,21,00,00,00,00,00,A0,97,
19514915,000002E1,false,Rx,0,8,10,21,0B,70,D3,48,00,00,
19517673,00000132,false,Rx,0,8,C4,90,CB,FF,A0,26,FF,0F,
19518692,00000119,false,Rx,0,2,00,00,00,00,00,00,00,00,
19518989,00000266,false,Rx,0,8,00,00,01,1F,00,00,3D,01,
19519104,00000016,false,Rx,0,1,01,00,00,00,00,00,00,00,
19519345,000002E5,false,Rx,0,8,00,00,03,0D,00,00,DD,00,
19519590,00000118,false,Rx,0,8,5C,09,22,18,00,00,00,00,
19519819,00000243,false,Rx,0,8,C9,00,E8,D2,35,32,02,00,
19520070,00000257,false,Rx,0,8,BF,45,1F,00,02,00,00,00,
19520316,000003C8,false,Rx,0,8,04,00,00,00,00,00,00,00,
19520768,000003F5,false,Rx,0,8,00,C8,18,59,50,00,40,01,
19522314,00000129,false,Rx,0,8,57,2B,36,5F,00,20,FF,3F,
19522853,000001D8,false,Rx,0,8,21,00,00,00,00,00,60,5A,
19523728,00000201,false,Rx,0,8,CB,00,00,19,00,63,30,00,
19524151,000002C4,false,Rx,0,8,13,A4,00,76,6E,11,19,00,
19524400,00000204,false,Rx,0,8,01,00,00,00,00,00,00,10,
19524607,00000264,false,Rx,0,6,38,00,00,00,A0,00,00,00,
19524856,000001D5,false,Rx,0,8,21,00,00,00,00,00,C0,B7,
19525091,00000224,false,Rx,0,8,44,08,00,00,13,01,10,08,
19525277,000002B4,false,Rx,0,5,66,85,27,66,01,00,00,00,
19525749,00000221,false,Rx,0,8,60,55,55,15,54,51,51,38,
19526182,00000788,false,Rx,0,8,C2,1E,0D,35,00,00,00,00,
19527696,00000132,false,Rx,0,8,C3,90,C6,FF,8A,26,FF,0F,
19527832,000002D1,false,Rx,0,2,FF,01,00,00,00,00,00,00,
19528062,00000398,false,Rx,0,7,00,00,00,00,00,00,00,00,
19528495,000001FB,false,Rx,0,8,F0,00,00,00,00,00,00,00,
19528995,00000266,false,Rx,0,8,00,00,01,1F,00,00,3D,01,
19529116,00000016,false,Rx,0,1,01,00,00,00,00,00,00,00,
19529350,00000118,false,Rx,0,8,5D,0A,22,18,00,00,00,00,
19529594,000002E5,false,Rx,0,8,00,00,03,0D,00,00,DD,00,
19529740,000001A5,false,Rx,0,3,E4,02,00,00,00,00,00,00,
19529935,00000195,false,Rx,0,5,00,08,08,00,28,00,00,00,
19530070,0000027A,false,Rx,0,2,CA,0F,00,00,00,00,00,00,
19530301,00000396,false,Rx,0,8,01,32,32,38,30,12,19,7D,
19530540,00000186,false,Rx,0,8,93,0E,00,00,00,FF,FF,00,
19531389,0000023E,false,Rx,0,8,3F,C6,72,DC,05,02,B8,52,
19531758,000002E1,false,Rx,0,8,39,6D,00,00,00,E5,67,03,
19531987,00000287,false,Rx,0,8,5B,57,5A,58,E7,02,0A,08,
