Time Stamp,ID,Extended,Dir,Bus,LEN,D1,D2,D3,D4,D5,D6,D7,D8
4334226587,00000152,false,Rx,0,8,00,00,00,00,00,00,00,00,
4334226861,00000152,false,Rx,0,8,00,00,00,00,00,00,00,00,
4334227140,00000152,false,Rx,0,8,00,00,00,00,00,00,00,00,
4334227420,00000152,false,Rx,0,8,00,00,00,00,00,00,00,00,
4334227699,00000152,false,Rx,0,8,00,00,00,00,00,00,00,00,
4334227978,00000152,false,Rx,0,8,00,00,00,00,00,00,00,00,
4334228258,00000152,false,Rx,0,8,00,00,00,00,00,00,00,00,
4334228526,00000152,false,Rx,0,8,00,00,00,00,00,00,00,00,
4334228804,00000152,false,Rx,0,8,00,00,00,00,00,00,00,00,
4334229082,00000152,false,Rx,0,8,00,00,00,00,00,00,00,00,
4334229321,00000172,false,Rx,0,8,00,2A,7E,75,2D,80,2D,80,
4334229570,00000232,false,Rx,0,8,00,00,00,00,00,00,00,00,
4334229797,00000401,false,Rx,0,8,00,2A,B8,88,B8,88,B8,88,
4334230024,00000712,false,Rx,0,8,00,2A,C4,09,C4,09,C4,09,
4334232068,0000070A,false,Rx,0,8,98,B8,01,00,00,00,00,00,
4334232317,00000232,false,Rx,0,8,00,00,00,00,00,00,00,00,
4334232565,00000152,false,Rx,0,8,01,00,00,00,00,00,00,00,
4334232793,00000172,false,Rx,0,8,01,2A,DB,8A,2D,80,DB,8A,
4334233020,00000401,false,Rx,0,8,01,2A,B8,88,B8,88,B8,88,
4334233258,0000070A,false,Rx,0,8,B8,B8,01,00,04,00,06,00,
4334233497,0000012A,false,Rx,0,8,00,00,D0,07,D0,07,D0,07,
4334233734,0000070A,false,Rx,0,8,A4,7E,02,00,00,00,00,00,
4334233972,00000712,false,Rx,0,8,01,2A,C4,09,C4,09,C4,09,
4334234200,0000070A,false,Rx,0,8,D8,56,02,00,10,00,F4,8C,
4334234459,0000070A,false,Rx,0,8,34,57,02,00,0F,00,A3,AD,
4334234718,0000070A,false,Rx,0,8,48,57,02,00,00,00,A9,63,
4334234956,0000070A,false,Rx,0,8,A4,7E,02,00,00,00,00,00,
4334235214,0000070A,false,Rx,0,8,98,BA,01,00,00,00,00,00,
4334235473,0000070A,false,Rx,0,8,EC,99,01,00,00,00,C9,04,
4334236328,0000012A,false,Rx,0,8,01,00,D0,07,D0,07,D0,07,
4334239329,0000012A,false,Rx,0,8,02,00,D0,07,D0,07,D0,07,
4334241332,0000012A,false,Rx,0,8,03,00,D0,07,D0,07,D0,07,
4334242275,0000070A,false,Rx,0,8,F4,D0,02,00,0A,00,00,00,
4334242522,00000152,false,Rx,0,8,02,00,00,00,00,00,00,00,
4334242761,00000172,false,Rx,0,8,02,0A,7E,75,2D,80,00,00,
4334242978,0000020A,false,Rx,0,6,C0,00,00,00,00,00,00,00,
4334243225,0000014A,false,Rx,0,8,00,00,00,00,00,00,00,00,
4334243397,0000022A,false,Rx,0,4,00,00,08,00,00,00,00,00,
4334243644,00000232,false,Rx,0,8,00,00,00,00,00,00,00,00,
4334243871,00000401,false,Rx,0,8,02,2A,B8,88,B8,88,B8,88,
4334244120,0000050A,false,Rx,0,8,26,80,00,00,00,00,00,00,
4334244358,0000070A,false,Rx,0,8,68,4C,02,00,1C,00,01,00,
4334244596,0000012A,false,Rx,0,8,04,00,D0,07,D0,07,D0,07,
4334244833,0000070A,false,Rx,0,8,60,AF,02,00,26,00,00,00,
4334245072,00000712,false,Rx,0,8,02,2A,C4,09,C4,09,C4,09,
4334245310,0000070A,false,Rx,0,8,FC,E8,02,00,00,00,00,00,
4334245571,0000070A,false,Rx,0,8,F4,D0,02,00,0A,00,00,00,
4334245820,0000070A,false,Rx,0,8,F4,D0,02,00,0A,00,00,00,
4334246077,0000070A,false,Rx,0,8,F4,D0,02,00,0A,00,00,00,
4334246336,0000070A,false,Rx,0,8,F4,D0,02,00,0A,00,00,00,
4334247254,0000070A,false,Rx,0,8,F4,D0,02,00,0A,00,00,00,
4334247485,0000012A,false,Rx,0,8,05,00,D0,07,D0,07,D0,07,
4334248248,0000070A,false,Rx,0,8,F4,D0,02,00,0A,00,00,00,
4334249246,0000070A,false,Rx,0,8,F4,D0,02,00,0A,00,00,00,
4334250246,0000070A,false,Rx,0,8,F4,D0,02,00,0A,00,00,00,
4334250483,0000012A,false,Rx,0,8,06,00,D0,07,D0,07,D0,07,
4334251245,0000070A,false,Rx,0,8,F4,D0,02,00,0A,00,00,00,
4334252285,00000232,false,Rx,0,8,00,00,00,00,00,00,00,00,
4334252533,00000152,false,Rx,0,8,00,00,00,00,00,00,00,00,
4334252771,00000172,false,Rx,0,8,00,2A,7E,75,2D,80,2D,80,
4334252988,0000020A,false,Rx,0,6,C0,00,00,00,00,00,00,00,
4334253225,0000012A,false,Rx,0,8,07,00,D0,07,D0,07,D0,07,
4334253393,0000022A,false,Rx,0,4,00,00,08,00,00,00,00,00,
4334253625,00000401,false,Rx,0,8,03,2A,B8,88,B8,88,B8,88,
4334253863,0000070A,false,Rx,0,8,F4,D0,02,00,0A,00,00,00,
4334254091,00000712,false,Rx,0,8,03,2A,C4,09,C4,09,C4,09,
4334254330,0000070A,false,Rx,0,8,F4,D0,02,00,0A,00,00,00,
4334254598,0000070A,false,Rx,0,8,F4,D0,02,00,0A,00,00,00,
4334255247,0000070A,false,Rx,0,8,F4,D0,02,00,0A,00,00,00,
4334255485,0000012A,false,Rx,0,8,08,00,D0,07,D0,07,D0,07,
4334256246,0000070A,false,Rx,0,8,F4,D0,02,00,0A,00,00,00,
4334257245,0000070A,false,Rx,0,8,F4,D0,02,00,0A,00,00,00,
4334258252,0000070A,false,Rx,0,8,F4,D0,02,00,0A,00,00,00,
4334258489,0000012A,false,Rx,0,8,09,00,D0,07,D0,07,D0,07,
4334259252,0000070A,false,Rx,0,8,F4,D0,02,00,0A,00,00,00,
4334260251,0000070A,false,Rx,0,8,F4,D0,02,00,0A,00,00,00,
4334261250,0000070A,false,Rx,0,8,F4,D0,02,00,0A,00,00,00,
4334261487,0000012A,false,Rx,0,8,0A,00,D0,07,D0,07,D0,07,
4334262271,0000070A,false,Rx,0,8,F4,D0,02,00,0A,00,00,00,
4334262529,00000152,false,Rx,0,8,01,00,00,00,00,00,00,00,
4334262747,00000172,false,Rx,0,8,01,2A,DB,8A,2D,80,DB,8A,
4334262964,0000020A,false,Rx,0,6,C0,00,00,00,00,00,00,00,
4334263211,0000014A,false,Rx,0,8,01,00,00,00,00,00,00,00,
4334263390,0000022A,false,Rx,0,4,00,00,08,00,00,00,00,00,
4334263632,00000232,false,Rx,0,8,00,00,00,00,00,00,00,00,
4334263859,00000401,false,Rx,0,8,04,2A,B8,88,B8,88,B8,88,
4334264098,0000070A,false,Rx,0,8,F4,D0,02,00,0A,00,00,00,
4334264336,00000712,false,Rx,0,8,04,2A,C4,09,C4,09,C4,09,
4334264574,0000012A,false,Rx,0,8,0B,00,D0,07,D0,07,D0,07,
4334264811,0000070A,false,Rx,0,8,F4,D0,02,00,0A,00,00,00,
4334265266,0000070A,false,Rx,0,8,F4,D0,02,00,0A,00,00,00,
4334266253,0000070A,false,Rx,0,8,F4,D0,02,00,0A,00,00,00,
4334266491,0000012A,false,Rx,0,8,0C,00,D0,07,D0,07,D0,07,
4334267254,0000070A,false,Rx,0,8,F4,D0,02,00,0A,00,00,00,
4334268252,0000070A,false,Rx,0,8,F4,D0,02,00,0A,00,00,00,
4334269250,0000070A,false,Rx,0,8,F4,D0,02,00,0A,00,00,00,
4334269489,0000012A,false,Rx,0,8,0D,00,D0,07,D0,07,D0,07,
4334270252,0000070A,false,Rx,0,8,F4,D0,02,00,0A,00,00,00,
4334271250,0000070A,false,Rx,0,8,F4,D0,02,00,0A,00,00,00,
4334272288,00000232,false,Rx,0,8,00,00,00,00,00,00,00,00,
4334272536,00000152,false,Rx,0,8,02,00,00,00,00,00,00,00,
4334272774,00000172,false,Rx,0,8,02,0A,7E,75,2D,80,00,00,
4334272980,0000020A,false,Rx,0,6,C0,00,00,00,00,00,00,00,
4334273217,0000012A,false,Rx,0,8,0E,00,D0,07,D0,07,D0,07,
4334273467,0000014A,false,Rx,0,8,02,00,00,00,00,00,FF,7F,
4334273643,0000022A,false,Rx,0,4,00,00,08,00,00,00,00,00,
4334273867,00000401,false,Rx,0,8,05,2A,B8,88,B8,88,B8,88,
4334274106,0000070A,false,Rx,0,8,F4,D0,02,00,0A,00,00,00,
4334274344,00000712,false,Rx,0,8,05,2A,C4,09,00,00,00,00,
4334274582,0000070A,false,Rx,0,8,F4,D0,02,00,0A,00,00,00,
4334274841,0000070A,false,Rx,0,8,F4,D0,02,00,0A,00,00,00,
4334275264,0000070A,false,Rx,0,8,F4,D0,02,00,0A,00,00,00,
4334275501,0000012A,false,Rx,0,8,0F,00,D0,07,D0,07,D0,07,
4334276252,0000070A,false,Rx,0,8,F4,D0,02,00,0A,00,00,00,
4334277252,0000070A,false,Rx,0,8,F4,D0,02,00,0A,00,00,00,
4334277489,0000012A,false,Rx,0,8,10,00,D0,07,D0,07,D0,07,
4334278252,0000070A,false,Rx,0,8,F4,D0,02,00,0A,00,00,00,
4334279250,0000070A,false,Rx,0,8,F4,D0,02,00,0A,00,00,00,
4334280247,0000070A,false,Rx,0,8,F4,D0,02,00,0A,00,00,00,
4334280485,0000012A,false,Rx,0,8,11,00,D0,07,D0,07,D0,07,
4334281247,0000070A,false,Rx,0,8,F4,D0,02,00,0A,00,00,00,
4334282246,0000070A,false,Rx,0,8,90,06,01,00,00,00,01,00,
4334282493,00000152,false,Rx,0,8,00,00,00,00,00,00,00,00,
4334282722,00000172,false,Rx,0,8,00,2A,7E,75,2D,80,2D,80,
4334282928,0000020A,false,Rx,0,6,C9,10,01,00,00,00,00,00,
4334283104,0000022A,false,Rx,0,4,00,00,08,00,00,00,00,00,
4334283354,00000232,false,Rx,0,8,00,00,00,00,00,00,00,00,
4334283591,0000012A,false,Rx,0,8,12,00,D0,07,D0,07,D0,07,
4334283816,00000401,false,Rx,0,8,06,2A,B8,88,B8,88,B8,88,
4334284065,0000070A,false,Rx,0,8,90,06,01,00,01,00,01,00,
4334284293,00000712,false,Rx,0,8,00,2A,C4,09,C4,09,C4,09,
4334284531,0000070A,false,Rx,0,8,90,06,01,00,02,00,01,00,
4334284789,0000070A,false,Rx,0,8,90,06,01,00,03,00,01,00,
4334285037,0000070A,false,Rx,0,8,F4,D0,02,00,0A,00,00,00,
4334285296,0000070A,false,Rx,0,8,28,5D,01,00,00,00,01,00,
4334285554,0000070A,false,Rx,0,8,28,5D,01,00,01,00,01,00,
4334285803,0000070A,false,Rx,0,8,F4,D0,02,00,0A,00,00,00,
4334286064,0000070A,false,Rx,0,8,AC,B9,02,00,01,00,00,00,
4334286323,0000070A,false,Rx,0,8,F4,D0,02,00,0A,00,00,00,
4334286562,0000012A,false,Rx,0,8,13,00,D0,07,D0,07,D0,07,
4334286799,0000070A,false,Rx,0,8,F4,D0,02,00,0A,00,00,00,
4334287057,0000070A,false,Rx,0,8,F4,D0,02,00,0A,00,00,00,
4334287307,0000070A,false,Rx,0,8,F4,D0,02,00,0A,00,00,00,
4334288228,0000070A,false,Rx,0,8,F4,D0,02,00,0A,00,00,00,
4334289227,0000070A,false,Rx,0,8,F4,D0,02,00,0A,00,00,00,
4334289467,0000012A,false,Rx,0,8,14,00,D0,07,D0,07,D0,07,
4334290228,0000070A,false,Rx,0,8,F4,D0,02,00,0A,00,00,00,
4334291226,0000070A,false,Rx,0,8,F4,D0,02,00,0A,00,00,00,
4334291465,0000012A,false,Rx,0,8,15,00,D0,07,D0,07,D0,07,
4334292258,0000070A,false,Rx,0,8,F4,D0,02,00,0A,00,00,00,
4334292507,00000152,false,Rx,0,8,01,00,00,00,00,00,00,00,
4334292734,00000172,false,Rx,0,8,01,2A,DB,8A,2D,80,DB,8A,
4334292941,0000020A,false,Rx,0,6,C9,11,09,00,40,00,00,00,
4334293178,0000014A,false,Rx,0,8,03,00,00,00,00,00,00,00,
4334293356,0000022A,false,Rx,0,4,00,00,08,00,00,00,00,00,
4334293603,00000232,false,Rx,0,8,00,00,00,00,00,00,00,00,
4334293830,00000401,false,Rx,0,8,07,2A,B8,88,B8,88,B8,88,
4334294068,0000070A,false,Rx,0,8,F4,D0,02,00,0A,00,00,00,
4334294307,00000712,false,Rx,0,8,01,2A,C4,09,C4,09,C4,09,
4334294534,0000012A,false,Rx,0,8,16,00,D0,07,D0,07,D0,07,
4334294782,0000070A,false,Rx,0,8,F4,D0,02,00,0A,00,00,00,
4334295225,0000070A,false,Rx,0,8,F4,D0,02,00,0A,00,00,00,
4334296228,0000070A,false,Rx,0,8,F4,D0,02,00,0A,00,00,00,
4334297228,0000070A,false,Rx,0,8,F4,D0,02,00,0A,00,00,00,
4334297466,0000012A,false,Rx,0,8,17,00,D0,07,D0,07,D0,07,
4334298228,0000070A,false,Rx,0,8,F4,D0,02,00,0A,00,00,00,
4334299226,0000070A,false,Rx,0,8,F4,D0,02,00,0A,00,00,00,
4334300224,0000070A,false,Rx,0,8,F4,D0,02,00,0A,00,00,00,
4334300463,0000012A,false,Rx,0,8,18,00,D0,07,D0,07,D0,07,
4334301224,0000070A,false,Rx,0,8,F4,D0,02,00,0A,00,00,00,
4334302255,0000070A,false,Rx,0,8,F4,D0,02,00,0A,00,00,00,
4334302504,00000152,false,Rx,0,8,02,00,00,00,00,00,00,00,
4334302742,00000172,false,Rx,0,8,02,0A,7E,75,2D,80,00,00,
4334302938,0000020A,false,Rx,0,6,C9,11,09,00,40,00,00,00,
4334303175,0000012A,false,Rx,0,8,19,00,D0,07,D0,07,D0,07,
4334303353,0000022A,false,Rx,0,4,00,00,08,00,00,00,00,00,
4334303600,00000232,false,Rx,0,8,00,00,00,00,00,00,00,00,
4334303827,00000401,false,Rx,0,8,08,2A,B8,88,B8,88,B8,88,
4334304066,0000070A,false,Rx,0,8,F4,D0,02,00,0A,00,00,00,
4334304294,00000712,false,Rx,0,8,02,2A,C4,09,C4,09,C4,09,
4334304542,0000070A,false,Rx,0,8,F4,D0,02,00,0A,00,00,00,
4334305231,0000070A,false,Rx,0,8,F4,D0,02,00,0A,00,00,00,
4334305460,0000012A,false,Rx,0,8,1A,00,D0,07,D0,07,D0,07,
4334306226,0000070A,false,Rx,0,8,F4,D0,02,00,0A,00,00,00,
4334307226,0000070A,false,Rx,0,8,F4,D0,02,00,0A,00,00,00,
4334308233,0000070A,false,Rx,0,8,F4,D0,02,00,0A,00,00,00,
4334308471,0000012A,false,Rx,0,8,1B,00,D0,07,D0,07,D0,07,
4334309233,0000070A,false,Rx,0,8,F4,D0,02,00,0A,00,00,00,
4334310232,0000070A,false,Rx,0,8,F4,D0,02,00,0A,00,00,00,
4334311231,0000070A,false,Rx,0,8,F4,D0,02,00,0A,00,00,00,
4334311469,0000012A,false,Rx,0,8,1C,00,D0,07,D0,07,D0,07,
4334312262,0000070A,false,Rx,0,8,F4,D0,02,00,0A,00,00,00,
4334312511,00000152,false,Rx,0,8,00,00,00,00,00,00,00,00,
4334312738,00000172,false,Rx,0,8,00,2A,7E,75,2D,80,2D,80,
4334312945,0000020A,false,Rx,0,6,C9,11,09,00,40,00,00,00,
4334313192,0000014A,false,Rx,0,8,04,00,00,00,00,00,00,00,
4334313360,0000022A,false,Rx,0,4,00,00,08,00,00,00,00,00,
4334313607,00000232,false,Rx,0,8,00,00,00,00,00,00,00,00,
4334313834,00000401,false,Rx,0,8,09,2A,B8,88,B8,88,B8,88,
4334314073,0000070A,false,Rx,0,8,F4,D0,02,00,0A,00,00,00,
4334314303,00000712,false,Rx,0,8,03,2A,C4,09,C4,09,C4,09,
4334314540,0000012A,false,Rx,0,8,1D,00,D0,07,D0,07,D0,07,
4334314779,0000070A,false,Rx,0,8,F4,D0,02,00,0A,00,00,00,
4334315232,0000070A,false,Rx,0,8,F4,D0,02,00,0A,00,00,00,
4334316233,0000070A,false,Rx,0,8,F4,D0,02,00,0A,00,00,00,
4334316462,0000012A,false,Rx,0,8,1E,00,D0,07,D0,07,D0,07,
4334317224,0000070A,false,Rx,0,8,F4,D0,02,00,0A,00,00,00,
4334318232,0000070A,false,Rx,0,8,F4,D0,02,00,0A,00,00,00,
4334319230,0000070A,false,Rx,0,8,F4,D0,02,00,0A,00,00,00,
4334319470,0000012A,false,Rx,0,8,1F,00,D0,07,D0,07,D0,07,
4334320232,0000070A,false,Rx,0,8,F4,D0,02,00,0A,00,00,00,
4334321230,0000070A,false,Rx,0,8,F4,D0,02,00,0A,00,00,00,
4334322258,0000070A,false,Rx,0,8,F4,D0,02,00,0A,00,00,00,
4334322507,00000152,false,Rx,0,8,01,00,00,00,00,00,00,00,
4334322734,00000172,false,Rx,0,8,01,2A,DB,8A,2D,80,DB,8A,
4334322931,0000020A,false,Rx,0,6,C9,11,09,00,40,00,00,00,
4334323178,0000012A,false,Rx,0,8,20,00,00,00,00,00,00,00,
4334323428,0000014A,false,Rx,0,8,05,00,00,00,00,00,00,00,
4334323604,0000022A,false,Rx,0,4,00,00,08,00,00,00,00,00,
4334323850,00000232,false,Rx,0,8,52,00,00,00,00,00,00,00,
4334324079,00000401,false,Rx,0,8,0A,2A,B8,88,B8,88,B8,88,
4334324319,0000070A,false,Rx,0,8,1C,E8,00,00,02,00,00,00,
4334324547,00000712,false,Rx,0,8,04,2A,C4,09,C4,09,C4,09,
4334324795,0000070A,false,Rx,0,8,40,E8,00,00,02,00,00,00,
4334325053,0000070A,false,Rx,0,8,68,EA,00,00,01,00,00,00,
4334325312,0000070A,false,Rx,0,8,D0,ED,00,00,01,00,00,00,
4334325561,0000012A,false,Rx,0,8,21,00,00,00,00,00,00,00,
4334325798,0000070A,false,Rx,0,8,28,F1,00,00,02,00,00,00,
4334326056,0000070A,false,Rx,0,8,A4,F1,00,00,02,00,00,00,
4334326317,0000070A,false,Rx,0,8,F4,D0,02,00,0A,00,00,00,
4334326565,0000070A,false,Rx,0,8,68,EA,00,00,00,00,00,00,
4334326823,0000070A,false,Rx,0,8,D0,ED,00,00,00,00,00,00,
4334327082,0000070A,false,Rx,0,8,F4,D0,02,00,0A,00,00,00,
4334327331,0000070A,false,Rx,0,8,F4,D0,02,00,0A,00,00,00,
4334327578,0000012A,false,Rx,0,8,22,00,00,00,00,00,00,00,
4334327817,0000070A,false,Rx,0,8,F4,D0,02,00,0A,00,00,00,
4334328075,0000070A,false,Rx,0,8,F4,D0,02,00,0A,00,00,00,
4334328335,0000070A,false,Rx,0,8,F4,D0,02,00,0A,00,00,00,
4334329229,0000070A,false,Rx,0,8,F4,D0,02,00,0A,00,00,00,
4334330228,0000070A,false,Rx,0,8,F4,D0,02,00,0A,00,00,00,
4334330477,0000012A,false,Rx,0,8,23,00,00,00,00,00,00,00,
4334331228,0000070A,false,Rx,0,8,F4,D0,02,00,0A,00,00,00,
4334332269,0000070A,false,Rx,0,8,F4,D0,02,00,0A,00,00,00,
4334332507,00000152,false,Rx,0,8,02,00,00,00,00,00,00,00,
4334332745,00000172,false,Rx,0,8,02,0A,7E,75,2D,80,00,00,
4334332951,0000020A,false,Rx,0,6,C9,11,09,02,42,00,00,00,
4334333117,0000022A,false,Rx,0,4,00,00,08,00,00,00,00,00,
4334333366,00000232,false,Rx,0,8,52,00,00,00,00,00,00,00,
4334333603,0000012A,false,Rx,0,8,00,00,D0,07,D0,07,D0,07,
4334333830,00000401,false,Rx,0,8,0B,2A,B8,88,B8,88,B8,88,
4334334069,0000070A,false,Rx,0,8,F4,D0,02,00,0A,00,00,00,
4334334307,00000712,false,Rx,0,8,05,2A,C4,09,00,00,00,00,
4334334547,0000070A,false,Rx,0,8,20,4E,01,00,82,06,BB,04,
4334334796,0000070A,false,Rx,0,8,F4,D0,02,00,0A,00,00,00,
4334335238,0000070A,false,Rx,0,8,F4,D0,02,00,0A,00,00,00,
4334336226,0000070A,false,Rx,0,8,F4,D0,02,00,0A,00,00,00,
4334336468,0000012A,false,Rx,0,8,01,00,D0,07,D0,07,D0,07,
4334337229,0000070A,false,Rx,0,8,F4,D0,02,00,0A,00,00,00,
4334337478,0000070A,false,Rx,0,8,14,4D,01,00,94,11,2F,0D,
4334338229,0000070A,false,Rx,0,8,F4,D0,02,00,0A,00,00,00,
4334338480,0000070A,false,Rx,0,8,78,4B,01,00,D0,07,61,00,
4334339231,0000070A,false,Rx,0,8,F4,D0,02,00,0A,00,00,00,
4334339461,0000012A,false,Rx,0,8,02,00,D0,07,D0,07,D0,07,
4334339698,0000070A,false,Rx,0,8,D0,4B,01,00,D0,07,5E,00,
4334340234,0000070A,false,Rx,0,8,F4,D0,02,00,0A,00,00,00,
4334341226,0000070A,false,Rx,0,8,F4,D0,02,00,0A,00,00,00,
4334341465,0000012A,false,Rx,0,8,03,00,D0,07,D0,07,D0,07,
4334341714,0000070A,false,Rx,0,8,50,4A,01,00,00,00,00,00,
4334341818,0000024A,false,Rx,0,1,07,00,00,00,00,00,00,00,
4334341982,0000026A,false,Rx,0,3,00,00,00,00,00,00,00,00,
4334342188,00000682,false,Rx,0,6,00,40,00,00,04,06,00,00,
4334342453,00000232,false,Rx,0,8,52,00,00,00,00,00,00,00,
4334342690,00000152,false,Rx,0,8,00,00,00,00,00,00,00,00,
4334342917,00000172,false,Rx,0,8,00,2A,7E,75,2D,80,2D,80,
4334343124,0000020A,false,Rx,0,6,C9,11,09,02,42,00,00,00,
4334343363,0000014A,false,Rx,0,8,00,00,00,00,00,00,00,00,
4334343539,0000022A,false,Rx,0,4,00,00,08,00,00,00,00,00,
4334343765,00000401,false,Rx,0,8,0C,2A,B8,88,B8,88,B8,88,
4334344004,0000070A,false,Rx,0,8,24,49,01,00,00,00,00,00,
4334344243,00000712,false,Rx,0,8,00,2A,C4,09,C4,09,C4,09,
4334344492,0000012A,false,Rx,0,8,04,00,D0,07,D0,07,D0,07,
4334344721,0000070A,false,Rx,0,8,F4,D0,02,00,0A,00,00,00,
4334344968,0000074A,false,Rx,0,8,00,00,00,00,00,00,00,00,
4334345206,0000070A,false,Rx,0,8,F4,D0,02,00,0A,00,00,00,
4334345455,0000076A,false,Rx,0,8,00,00,00,00,00,00,00,00,
4334345694,0000070A,false,Rx,0,8,F4,D0,02,00,0A,00,00,00,
4334345941,000007AA,false,Rx,0,8,00,F8,CF,F0,00,00,00,0F,
4334346179,0000070A,false,Rx,0,8,F4,D0,02,00,0A,00,00,00,
4334346418,0000078A,false,Rx,0,8,12,01,2F,0D,00,00,1E,13,
4334346658,0000070A,false,Rx,0,8,F4,D0,02,00,0A,00,00,00,
4334347225,0000070A,false,Rx,0,8,F4,D0,02,00,0A,00,00,00,
4334347464,0000012A,false,Rx,0,8,05,00,D0,07,D0,07,D0,07,
4334348235,0000070A,false,Rx,0,8,F4,D0,02,00,0A,00,00,00,
4334349225,0000070A,false,Rx,0,8,F4,D0,02,00,0A,00,00,00,
4334350225,0000070A,false,Rx,0,8,F4,D0,02,00,0A,00,00,00,
4334350464,0000012A,false,Rx,0,8,06,00,D0,07,D0,07,D0,07,
4334351225,0000070A,false,Rx,0,8,F4,D0,02,00,0A,00,00,00,
4334352255,0000070A,false,Rx,0,8,F4,D0,02,00,0A,00,00,00,
4334352504,00000152,false,Rx,0,8,01,00,00,00,00,00,00,00,
4334352731,00000172,false,Rx,0,8,01,2A,DB,8A,2D,80,DB,8A,
4334352928,0000020A,false,Rx,0,6,C9,11,09,02,42,00,00,00,
4334353166,0000012A,false,Rx,0,8,07,00,D0,07,D0,07,D0,07,
4334353343,0000022A,false,Rx,0,4,00,00,08,00,00,00,00,00,
4334353590,00000232,false,Rx,0,8,52,00,00,00,00,00,00,00,
4334353817,00000401,false,Rx,0,8,0D,2A,B8,88,B8,88,B8,88,
4334354055,0000070A,false,Rx,0,8,F4,D0,02,00,0A,00,00,00,
4334354284,00000712,false,Rx,0,8,01,2A,C4,09,C4,09,C4,09,
4334354521,0000070A,false,Rx,0,8,F4,D0,02,00,0A,00,00,00,
4334355223,0000070A,false,Rx,0,8,F4,D0,02,00,0A,00,00,00,
4334355463,0000012A,false,Rx,0,8,08,00,D0,07,D0,07,D0,07,
4334356223,0000070A,false,Rx,0,8,F4,D0,02,00,0A,00,00,00,
4334357222,0000070A,false,Rx,0,8,F4,D0,02,00,0A,00,00,00,
4334358231,0000070A,false,Rx,0,8,F4,D0,02,00,0A,00,00,00,
4334358459,0000012A,false,Rx,0,8,09,00,D0,07,D0,07,D0,07,
4334359231,0000070A,false,Rx,0,8,F4,D0,02,00,0A,00,00,00,
4334360231,0000070A,false,Rx,0,8,F4,D0,02,00,0A,00,00,00,
4334361227,0000070A,false,Rx,0,8,F4,D0,02,00,0A,00,00,00,
4334361465,0000012A,false,Rx,0,8,0A,00,D0,07,D0,07,D0,07,
4334362258,0000070A,false,Rx,0,8,F4,D0,02,00,0A,00,00,00,
4334362497,00000152,false,Rx,0,8,02,00,00,00,00,00,00,00,
4334362736,00000172,false,Rx,0,8,02,0A,7E,75,2D,80,00,00,
4334362933,0000020A,false,Rx,0,6,C9,11,09,02,42,00,00,00,
4334363192,0000014A,false,Rx,0,8,01,00,00,00,00,00,00,00,
4334363440,00000112,false,Rx,0,8,00,00,00,00,00,00,00,00,
4334363606,0000022A,false,Rx,0,4,00,00,08,00,00,00,00,00,
4334363853,00000232,false,Rx,0,8,52,00,00,00,00,00,00,00,
4334364081,00000272,false,Rx,0,7,00,00,00,00,00,00,00,00,
4334364236,000002B2,false,Rx,0,3,00,00,00,00,00,00,00,00,
4334364474,0000012A,false,Rx,0,8,0B,00,D0,07,D0,07,D0,07,
4334364724,00000392,false,Rx,0,8,00,00,00,0C,F0,3F,00,00,
4334364962,000003B2,false,Rx,0,8,1D,00,10,27,00,00,00,00,
4334365189,00000401,false,Rx,0,8,0E,2A,B8,88,B8,88,B8,88,
4334365325,00000432,false,Rx,0,2,02,00,00,00,00,00,00,00,
4334365572,0000070A,false,Rx,0,8,F4,D0,02,00,0A,00,00,00,
4334365799,00000712,false,Rx,0,8,02,2A,C4,09,C4,09,C4,09,
4334366037,0000070A,false,Rx,0,8,F4,D0,02,00,0A,00,00,00,
4334366192,00000792,false,Rx,0,3,00,00,00,00,00,00,00,00,
4334366431,0000012A,false,Rx,0,8,0C,00,D0,07,D0,07,D0,07,
4334366668,0000070A,false,Rx,0,8,F4,D0,02,00,0A,00,00,00,
4334366920,0000070A,false,Rx,0,8,F4,D0,02,00,0A,00,00,00,
4334367242,0000070A,false,Rx,0,8,F4,D0,02,00,0A,00,00,00,
4334368228,0000070A,false,Rx,0,8,F4,D0,02,00,0A,00,00,00,
4334369227,0000070A,false,Rx,0,8,F4,D0,02,00,0A,00,00,00,
4334369467,0000012A,false,Rx,0,8,0D,00,D0,07,D0,07,D0,07,
4334370228,0000070A,false,Rx,0,8,F4,D0,02,00,0A,00,00,00,
4334371226,0000070A,false,Rx,0,8,F4,D0,02,00,0A,00,00,00,
4334372257,0000070A,false,Rx,0,8,F4,D0,02,00,0A,00,00,00,
4334372454,0000020A,false,Rx,0,6,C9,11,09,02,42,00,00,00,
4334372691,0000012A,false,Rx,0,8,0E,00,D0,07,D0,07,D0,07,
4334372941,0000014A,false,Rx,0,8,02,00,00,00,00,00,FF,7F,
4334373190,00000152,false,Rx,0,8,00,00,00,00,00,00,00,00,
4334373418,00000172,false,Rx,0,8,00,29,B3,81,2D,80,2D,80,
4334373594,0000022A,false,Rx,0,4,00,00,08,00,00,00,00,00,
4334373841,00000232,false,Rx,0,8,52,00,00,00,00,00,00,00,
4334374069,00000401,false,Rx,0,8,0F,2A,B8,88,B8,88,B8,88,
4334374308,0000070A,false,Rx,0,8,F4,D0,02,00,0A,00,00,00,
4334374535,00000712,false,Rx,0,8,03,2A,C4,09,C4,09,C4,09,
4334374773,0000070A,false,Rx,0,8,F4,D0,02,00,0A,00,00,00,
4334375228,0000070A,false,Rx,0,8,F4,D0,02,00,0A,00,00,00,
4334375458,0000012A,false,Rx,0,8,0F,00,D0,07,D0,07,D0,07,
4334376229,0000070A,false,Rx,0,8,F4,D0,02,00,0A,00,00,00,
4334377228,0000070A,false,Rx,0,8,F4,D0,02,00,0A,00,00,00,
4334377466,0000012A,false,Rx,0,8,10,00,D0,07,D0,07,D0,07,
4334378227,0000070A,false,Rx,0,8,F4,D0,02,00,0A,00,00,00,
4334379226,0000070A,false,Rx,0,8,F4,D0,02,00,0A,00,00,00,
4334380225,0000070A,false,Rx,0,8,F4,D0,02,00,0A,00,00,00,
4334380464,0000012A,false,Rx,0,8,11,00,D0,07,D0,07,D0,07,
4334381225,0000070A,false,Rx,0,8,F4,D0,02,00,0A,00,00,00,
4334382255,0000070A,false,Rx,0,8,F4,D0,02,00,0A,00,00,00,
4334382504,00000152,false,Rx,0,8,01,00,00,00,00,00,00,00,
4334382731,00000172,false,Rx,0,8,01,2A,DB,8A,2D,80,DB,8A,
4334382930,0000020A,false,Rx,0,6,C9,11,09,02,42,00,00,00,
4334383105,0000022A,false,Rx,0,4,00,00,08,00,00,00,00,00,
4334383344,00000232,false,Rx,0,8,52,00,00,00,00,00,00,00,
4334383592,0000012A,false,Rx,0,8,12,00,D0,07,D0,07,D0,07,
4334383819,00000401,false,Rx,0,8,10,2A,B8,88,B8,88,B8,88,
4334384057,0000070A,false,Rx,0,8,F4,D0,02,00,0A,00,00,00,
4334384296,00000712,false,Rx,0,8,04,2A,C4,09,C4,09,C4,09,
4334384534,0000070A,false,Rx,0,8,F4,D0,02,00,0A,00,00,00,
4334385223,0000070A,false,Rx,0,8,F4,D0,02,00,0A,00,00,00,
4334386223,0000070A,false,Rx,0,8,F4,D0,02,00,0A,00,00,00,
4334386461,0000012A,false,Rx,0,8,13,00,D0,07,D0,07,D0,07,
4334387223,0000070A,false,Rx,0,8,F4,D0,02,00,0A,00,00,00,
4334388221,0000070A,false,Rx,0,8,F4,D0,02,00,0A,00,00,00,
4334389227,0000070A,false,Rx,0,8,F4,D0,02,00,0A,00,00,00,
4334389467,0000012A,false,Rx,0,8,14,00,D0,07,D0,07,D0,07,
4334390229,0000070A,false,Rx,0,8,F4,D0,02,00,0A,00,00,00,
4334391227,0000070A,false,Rx,0,8,F4,D0,02,00,0A,00,00,00,
4334391455,0000012A,false,Rx,0,8,15,00,D0,07,D0,07,D0,07,
4334392259,0000070A,false,Rx,0,8,F4,D0,02,00,0A,00,00,00,
4334392497,00000152,false,Rx,0,8,02,00,00,00,00,00,00,00,
4334392735,00000172,false,Rx,0,8,02,0A,7E,75,2D,80,00,00,
4334392941,0000020A,false,Rx,0,6,C9,11,09,02,42,00,00,00,
4334393186,0000014A,false,Rx,0,8,03,00,00,00,00,00,00,00,
4334393353,0000022A,false,Rx,0,4,00,00,08,00,00,00,00,00,
4334393599,00000232,false,Rx,0,8,52,00,00,00,00,00,00,00,
4334393826,00000401,false,Rx,0,8,11,2A,B8,88,B8,88,B8,88,
4334394065,0000070A,false,Rx,0,8,F4,D0,02,00,0A,00,00,00,
4334394303,00000712,false,Rx,0,8,05,2A,C4,09,00,00,00,00,
4334394541,0000012A,false,Rx,0,8,16,00,D0,07,D0,07,D0,07,
4334394779,0000070A,false,Rx,0,8,F4,D0,02,00,0A,00,00,00,
4334395222,0000070A,false,Rx,0,8,F4,D0,02,00,0A,00,00,00,
4334396221,0000070A,false,Rx,0,8,F4,D0,02,00,0A,00,00,00,
4334397228,0000070A,false,Rx,0,8,F4,D0,02,00,0A,00,00,00,
4334397457,0000012A,false,Rx,0,8,17,00,D0,07,D0,07,D0,07,
4334398228,0000070A,false,Rx,0,8,F4,D0,02,00,0A,00,00,00,
4334399227,0000070A,false,Rx,0,8,F4,D0,02,00,0A,00,00,00,
4334400226,0000070A,false,Rx,0,8,F4,D0,02,00,0A,00,00,00,
4334400464,0000012A,false,Rx,0,8,18,00,D0,07,D0,07,D0,07,
4334401226,0000070A,false,Rx,0,8,F4,D0,02,00,0A,00,00,00,
4334402256,0000070A,false,Rx,0,8,F4,D0,02,00,0A,00,00,00,
4334402504,00000152,false,Rx,0,8,00,00,00,00,00,00,00,00,
4334402732,00000172,false,Rx,0,8,00,29,B3,81,2D,80,2D,80,
4334402938,0000020A,false,Rx,0,6,C9,11,09,02,42,00,00,00,
4334403170,0000012A,false,Rx,0,8,19,00,D0,07,D0,07,D0,07,
4334403337,0000022A,false,Rx,0,4,00,00,08,00,00,00,00,00,
4334403584,00000232,false,Rx,0,8,52,00,00,00,00,00,00,00,
4334403811,00000401,false,Rx,0,8,12,2A,B8,88,B8,88,B8,88,
4334404050,0000070A,false,Rx,0,8,F4,D0,02,00,0A,00,00,00,
4334404288,00000712,false,Rx,0,8,00,2A,C4,09,C4,09,C4,09,
4334404526,0000070A,false,Rx,0,8,F4,D0,02,00,0A,00,00,00,
4334405224,0000070A,false,Rx,0,8,F4,D0,02,00,0A,00,00,00,
4334405463,0000012A,false,Rx,0,8,1A,00,D0,07,D0,07,D0,07,
4334406225,0000070A,false,Rx,0,8,F4,D0,02,00,0A,00,00,00,
4334407223,0000070A,false,Rx,0,8,F4,D0,02,00,0A,00,00,00,
4334408222,0000070A,false,Rx,0,8,F4,D0,02,00,0A,00,00,00,
4334408461,0000012A,false,Rx,0,8,1B,00,D0,07,D0,07,D0,07,
4334409223,0000070A,false,Rx,0,8,F4,D0,02,00,0A,00,00,00,
4334410221,0000070A,false,Rx,0,8,F4,D0,02,00,0A,00,00,00,
4334411227,0000070A,false,Rx,0,8,F4,D0,02,00,0A,00,00,00,
4334411466,0000012A,false,Rx,0,8,1C,00,D0,07,D0,07,D0,07,
4334412259,0000070A,false,Rx,0,8,F4,D0,02,00,0A,00,00,00,
4334412498,00000152,false,Rx,0,8,01,00,00,00,00,00,00,00,
4334412725,00000172,false,Rx,0,8,01,2A,DB,8A,2D,80,DB,8A,
4334412931,0000020A,false,Rx,0,6,C9,11,09,02,42,00,00,00,
4334413180,0000014A,false,Rx,0,8,04,00,00,00,00,00,00,00,
4334413345,0000022A,false,Rx,0,4,00,00,08,00,00,00,00,00,
4334413591,00000232,false,Rx,0,8,52,00,00,00,00,00,00,00,
4334413819,00000401,false,Rx,0,8,13,2A,B8,88,B8,88,B8,88,
4334414057,0000070A,false,Rx,0,8,F4,D0,02,00,0A,00,00,00,
4334414297,00000712,false,Rx,0,8,01,2A,C4,09,C4,09,C4,09,
4334414524,0000012A,false,Rx,0,8,1D,00,D0,07,D0,07,D0,07,
4334414773,0000070A,false,Rx,0,8,F4,D0,02,00,0A,00,00,00,
4334415225,0000070A,false,Rx,0,8,F4,D0,02,00,0A,00,00,00,
4334416225,0000070A,false,Rx,0,8,F4,D0,02,00,0A,00,00,00,
4334416463,0000012A,false,Rx,0,8,1E,00,D0,07,D0,07,D0,07,
4334417225,0000070A,false,Rx,0,8,F4,D0,02,00,0A,00,00,00,
4334418223,0000070A,false,Rx,0,8,F4,D0,02,00,0A,00,00,00,
4334419223,0000070A,false,Rx,0,8,F4,D0,02,00,0A,00,00,00,
4334419469,0000012A,false,Rx,0,8,1F,00,D0,07,D0,07,D0,07,
4334420221,0000070A,false,Rx,0,8,F4,D0,02,00,0A,00,00,00,
4334421219,0000070A,false,Rx,0,8,F4,D0,02,00,0A,00,00,00,
4334422249,0000070A,false,Rx,0,8,F4,D0,02,00,0A,00,00,00,
4334422498,00000152,false,Rx,0,8,02,00,00,00,00,00,00,00,
4334422735,00000172,false,Rx,0,8,02,0A,7E,75,2D,80,00,00,
4334422931,0000020A,false,Rx,0,6,C9,11,09,02,42,00,00,00,
4334423180,0000012A,false,Rx,0,8,20,00,00,00,00,00,00,00,
4334423434,0000014A,false,Rx,0,8,05,00,00,00,00,00,00,00,
4334423600,0000022A,false,Rx,0,4,00,00,08,00,00,00,00,00,
4334423848,00000232,false,Rx,0,8,52,00,00,00,00,00,00,00,
4334424075,00000401,false,Rx,0,8,14,2A,B8,88,B8,88,B8,88,
4334424313,0000070A,false,Rx,0,8,F4,D0,02,00,0A,00,00,00,
4334424551,00000712,false,Rx,0,8,02,2A,C4,09,C4,09,C4,09,
4334424789,0000070A,false,Rx,0,8,F4,D0,02,00,0A,00,00,00,
4334425232,0000070A,false,Rx,0,8,F4,D0,02,00,0A,00,00,00,
4334425482,0000012A,false,Rx,0,8,21,00,00,00,00,00,00,00,
4334426223,0000070A,false,Rx,0,8,F4,D0,02,00,0A,00,00,00,
4334427221,0000070A,false,Rx,0,8,F4,D0,02,00,0A,00,00,00,
4334427471,0000012A,false,Rx,0,8,22,00,00,00,00,00,00,00,
4334428222,0000070A,false,Rx,0,8,F4,D0,02,00,0A,00,00,00,
4334429221,0000070A,false,Rx,0,8,F4,D0,02,00,0A,00,00,00,
4334430220,0000070A,false,Rx,0,8,F4,D0,02,00,0A,00,00,00,
4334430469,0000012A,false,Rx,0,8,23,00,00,00,00,00,00,00,
4334431220,0000070A,false,Rx,0,8,F4,D0,02,00,0A,00,00,00,
4334432262,0000070A,false,Rx,0,8,F4,D0,02,00,0A,00,00,00,
4334432509,00000152,false,Rx,0,8,00,00,00,00,00,00,00,00,
4334432736,00000172,false,Rx,0,8,00,29,B3,81,2D,80,2D,80,
4334432933,0000020A,false,Rx,0,6,C9,11,09,02,42,00,00,00,
4334433110,0000022A,false,Rx,0,4,00,00,08,00,00,00,00,00,
4334433358,00000232,false,Rx,0,8,52,00,00,00,00,00,00,00,
4334433591,0000012A,false,Rx,0,8,00,00,D0,07,D0,07,D0,07,
4334433819,00000401,false,Rx,0,8,15,2A,B8,88,B8,88,B8,88,
4334434057,0000070A,false,Rx,0,8,F4,D0,02,00,0A,00,00,00,
4334434285,00000712,false,Rx,0,8,03,2A,C4,09,C4,09,C4,09,
4334434533,0000070A,false,Rx,0,8,F4,D0,02,00,0A,00,00,00,
4334435222,0000070A,false,Rx,0,8,F4,D0,02,00,0A,00,00,00,
4334436218,0000070A,false,Rx,0,8,F4,D0,02,00,0A,00,00,00,
4334436456,0000012A,false,Rx,0,8,01,00,D0,07,D0,07,D0,07,
4334437228,0000070A,false,Rx,0,8,F4,D0,02,00,0A,00,00,00,
4334437477,0000070A,false,Rx,0,8,50,4A,01,00,00,00,00,00,
4334437594,0000024A,false,Rx,0,1,07,00,00,00,00,00,00,00,
4334437749,0000026A,false,Rx,0,3,00,00,00,00,00,00,00,00,
4334437964,00000682,false,Rx,0,6,00,40,00,00,04,06,00,00,
4334438201,0000070A,false,Rx,0,8,24,49,01,00,00,00,00,00,
4334438451,0000074A,false,Rx,0,8,01,00,00,00,00,00,00,00,
4334438689,0000070A,false,Rx,0,8,F4,D0,02,00,0A,00,00,00,
4334438936,0000076A,false,Rx,0,8,01,D0,07,00,D0,07,00,00,
4334439175,000007AA,false,Rx,0,8,01,02,00,01,00,01,00,00,
4334439414,0000012A,false,Rx,0,8,02,00,D0,07,D0,07,D0,07,
4334439653,0000070A,false,Rx,0,8,F4,D0,02,00,0A,00,00,00,
4334439890,0000078A,false,Rx,0,8,12,01,2F,0D,10,00,00,0D,
4334440231,0000070A,false,Rx,0,8,F4,D0,02,00,0A,00,00,00,
4334441219,0000070A,false,Rx,0,8,F4,D0,02,00,0A,00,00,00,
4334441458,0000012A,false,Rx,0,8,03,00,D0,07,D0,07,D0,07,
4334442257,0000070A,false,Rx,0,8,F4,D0,02,00,0A,00,00,00,
4334442504,00000152,false,Rx,0,8,01,00,00,00,00,00,00,00,
4334442731,00000172,false,Rx,0,8,01,2A,DB,8A,2D,80,DB,8A,
4334442928,0000020A,false,Rx,0,6,C9,11,09,02,42,00,00,00,
4334443176,0000014A,false,Rx,0,8,00,00,FF,7F,FF,7F,FF,7F,
4334443343,0000022A,false,Rx,0,4,00,00,08,00,00,00,00,00,
4334443596,00000232,false,Rx,0,8,52,00,00,00,00,00,00,00,
4334443814,00000401,false,Rx,0,8,16,2A,B8,88,B8,88,B8,88,
4334444061,0000070A,false,Rx,0,8,F4,D0,02,00,0A,00,00,00,
4334444290,00000712,false,Rx,0,8,04,2A,C4,09,C4,09,C4,09,
4334444527,0000012A,false,Rx,0,8,04,00,D0,07,D0,07,D0,07,
4334444766,0000070A,false,Rx,0,8,F4,D0,02,00,0A,00,00,00,
4334445218,0000070A,false,Rx,0,8,F4,D0,02,00,0A,00,00,00,
4334446216,0000070A,false,Rx,0,8,F4,D0,02,00,0A,00,00,00,
4334447225,0000070A,false,Rx,0,8,F4,D0,02,00,0A,00,00,00,
4334447463,0000012A,false,Rx,0,8,05,00,D0,07,D0,07,D0,07,
4334448225,0000070A,false,Rx,0,8,F4,D0,02,00,0A,00,00,00,
4334449224,0000070A,false,Rx,0,8,F4,D0,02,00,0A,00,00,00,
4334450220,0000070A,false,Rx,0,8,F4,D0,02,00,0A,00,00,00,
4334450459,0000012A,false,Rx,0,8,06,00,D0,07,D0,07,D0,07,
4334451220,0000070A,false,Rx,0,8,F4,D0,02,00,0A,00,00,00,
4334452252,0000070A,false,Rx,0,8,F4,D0,02,00,0A,00,00,00,
4334452499,00000152,false,Rx,0,8,02,00,00,00,00,00,00,00,
4334452737,00000172,false,Rx,0,8,02,0A,7E,75,2D,80,00,00,
4334452933,0000020A,false,Rx,0,6,C9,11,09,02,42,00,00,00,
4334453171,0000012A,false,Rx,0,8,07,00,D0,07,D0,07,D0,07,
4334453338,0000022A,false,Rx,0,4,00,00,08,00,00,00,00,00,
4334453585,00000232,false,Rx,0,8,52,00,00,00,00,00,00,00,
4334453811,00000401,false,Rx,0,8,17,2A,B8,88,B8,88,B8,88,
4334454048,0000070A,false,Rx,0,8,F4,D0,02,00,0A,00,00,00,
4334454287,00000712,false,Rx,0,8,05,2A,C4,09,00,00,00,00,
4334454536,0000070A,false,Rx,0,8,F4,D0,02,00,0A,00,00,00,
4334455224,0000070A,false,Rx,0,8,F4,D0,02,00,0A,00,00,00,
4334455464,0000012A,false,Rx,0,8,08,00,D0,07,D0,07,D0,07,
4334456222,0000070A,false,Rx,0,8,F4,D0,02,00,0A,00,00,00,
4334457220,0000070A,false,Rx,0,8,F4,D0,02,00,0A,00,00,00,
4334458226,0000070A,false,Rx,0,8,F4,D0,02,00,0A,00,00,00,
4334458456,0000012A,false,Rx,0,8,09,00,D0,07,D0,07,D0,07,
4334459228,0000070A,false,Rx,0,8,F4,D0,02,00,0A,00,00,00,
4334460216,0000070A,false,Rx,0,8,F4,D0,02,00,0A,00,00,00,
4334461215,0000070A,false,Rx,0,8,F4,D0,02,00,0A,00,00,00,
4334461465,0000012A,false,Rx,0,8,0A,00,D0,07,D0,07,D0,07,
4334462248,0000070A,false,Rx,0,8,F4,D0,02,00,0A,00,00,00,
4334462496,00000152,false,Rx,0,8,00,00,00,00,00,00,00,00,
4334462733,00000172,false,Rx,0,8,00,29,B3,81,2D,80,2D,80,
4334462929,0000020A,false,Rx,0,6,C9,11,09,02,42,00,00,00,
4334463178,0000014A,false,Rx,0,8,01,00,FF,7F,FF,7F,FF,7F,
4334463345,0000022A,false,Rx,0,4,00,00,08,00,00,00,00,00,
4334463591,00000232,false,Rx,0,8,52,00,00,00,00,00,00,00,
4334463817,00000401,false,Rx,0,8,18,2A,B8,88,B8,88,B8,88,
4334464055,0000070A,false,Rx,0,8,F4,D0,02,00,0A,00,00,00,
4334464293,00000712,false,Rx,0,8,00,2A,C4,09,C4,09,C4,09,
4334464532,0000012A,false,Rx,0,8,0B,00,D0,07,D0,07,D0,07,
4334464769,0000070A,false,Rx,0,8,F4,D0,02,00,0A,00,00,00,
4334465222,0000070A,false,Rx,0,8,F4,D0,02,00,0A,00,00,00,
4334466218,0000070A,false,Rx,0,8,F4,D0,02,00,0A,00,00,00,
4334466456,0000012A,false,Rx,0,8,0C,00,D0,07,D0,07,D0,07,
4334467217,0000070A,false,Rx,0,8,F4,D0,02,00,0A,00,00,00,
4334468226,0000070A,false,Rx,0,8,F4,D0,02,00,0A,00,00,00,
4334469216,0000070A,false,Rx,0,8,F4,D0,02,00,0A,00,00,00,
4334469455,0000012A,false,Rx,0,8,0D,00,D0,07,D0,07,D0,07,
4334470216,0000070A,false,Rx,0,8,F4,D0,02,00,0A,00,00,00,
4334471225,0000070A,false,Rx,0,8,F4,D0,02,00,0A,00,00,00,
4334472254,0000070A,false,Rx,0,8,F4,D0,02,00,0A,00,00,00,
4334472502,00000152,false,Rx,0,8,01,00,00,00,00,00,00,00,
4334472729,00000172,false,Rx,0,8,01,2A,DB,8A,2D,80,DB,8A,
4334472925,0000020A,false,Rx,0,6,C9,11,09,02,42,00,00,00,
4334473163,0000012A,false,Rx,0,8,0E,00,D0,07,D0,07,D0,07,
4334473402,0000014A,false,Rx,0,8,02,00,FF,7F,FF,7F,FF,7F,
4334473578,0000022A,false,Rx,0,4,00,00,08,00,00,00,00,00,
4334473826,00000232,false,Rx,0,8,52,00,00,00,00,00,00,00,
4334474053,00000401,false,Rx,0,8,19,2A,B8,88,B8,88,B8,88,
4334474292,0000070A,false,Rx,0,8,F4,D0,02,00,0A,00,00,00,
4334474520,00000712,false,Rx,0,8,01,2A,C4,09,C4,09,C4,09,
4334474768,0000070A,false,Rx,0,8,F4,D0,02,00,0A,00,00,00,
4334475220,0000070A,false,Rx,0,8,F4,D0,02,00,0A,00,00,00,
4334475460,0000012A,false,Rx,0,8,0F,00,D0,07,D0,07,D0,07,
4334476218,0000070A,false,Rx,0,8,F4,D0,02,00,0A,00,00,00,
4334477216,0000070A,false,Rx,0,8,F4,D0,02,00,0A,00,00,00,
4334477465,0000012A,false,Rx,0,8,10,00,D0,07,D0,07,D0,07,
4334478217,0000070A,false,Rx,0,8,F4,D0,02,00,0A,00,00,00,
4334479216,0000070A,false,Rx,0,8,F4,D0,02,00,0A,00,00,00,
4334480223,0000070A,false,Rx,0,8,F4,D0,02,00,0A,00,00,00,
4334480451,0000012A,false,Rx,0,8,11,00,D0,07,D0,07,D0,07,
4334481223,0000070A,false,Rx,0,8,F4,D0,02,00,0A,00,00,00,
4334482254,0000070A,false,Rx,0,8,F4,D0,02,00,0A,00,00,00,
4334482492,00000152,false,Rx,0,8,02,00,00,00,00,00,00,00,
4334482729,00000172,false,Rx,0,8,02,0A,7E,75,2D,80,00,00,
4334482936,0000020A,false,Rx,0,6,C9,11,09,02,42,00,00,00,
4334483102,0000022A,false,Rx,0,4,00,00,08,00,00,00,00,00,
4334483350,00000232,false,Rx,0,8,52,00,00,00,00,00,00,00,
4334483587,0000012A,false,Rx,0,8,12,00,D0,07,D0,07,D0,07,
4334483816,00000401,false,Rx,0,8,1A,2A,B8,88,B8,88,B8,88,
4334484063,0000070A,false,Rx,0,8,F4,D0,02,00,0A,00,00,00,
4334484291,00000712,false,Rx,0,8,02,2A,C4,09,C4,09,C4,09,
4334484530,0000070A,false,Rx,0,8,F4,D0,02,00,0A,00,00,00,
4334485218,0000070A,false,Rx,0,8,F4,D0,02,00,0A,00,00,00,
4334486220,0000070A,false,Rx,0,8,F4,D0,02,00,0A,00,00,00,
4334486458,0000012A,false,Rx,0,8,13,00,D0,07,D0,07,D0,07,
4334487220,0000070A,false,Rx,0,8,F4,D0,02,00,0A,00,00,00,
4334488218,0000070A,false,Rx,0,8,F4,D0,02,00,0A,00,00,00,
4334489218,0000070A,false,Rx,0,8,F4,D0,02,00,0A,00,00,00,
4334489478,00000112,false,Rx,0,8,00,00,00,00,00,00,59,07,
4334489705,0000012A,false,Rx,0,8,14,00,D0,07,D0,07,D0,07,
4334489933,00000272,false,Rx,0,7,00,00,00,00,00,00,00,00,
4334490092,000002B2,false,Rx,0,3,00,00,00,00,00,00,00,00,
4334490330,00000392,false,Rx,0,8,00,00,00,0C,F0,3F,00,04,
4334490578,000003B2,false,Rx,0,8,13,00,10,27,00,00,00,00,
4334490713,00000432,false,Rx,0,2,04,00,00,00,00,00,00,00,
4334490949,0000070A,false,Rx,0,8,F4,D0,02,00,0A,00,00,00,
4334491105,00000792,false,Rx,0,3,00,00,00,00,00,00,00,00,
4334491342,0000070A,false,Rx,0,8,F4,D0,02,00,0A,00,00,00,
4334491581,0000012A,false,Rx,0,8,15,00,D0,07,D0,07,D0,07,
4334492250,0000070A,false,Rx,0,8,F4,D0,02,00,0A,00,00,00,
4334492446,0000020A,false,Rx,0,6,C9,11,09,02,42,00,00,00,
4334492693,0000014A,false,Rx,0,8,03,00,00,00,00,00,00,00,
4334492942,00000152,false,Rx,0,8,00,00,00,00,00,00,00,00,
4334493180,00000172,false,Rx,0,8,00,01,D0,6A,D0,6A,D0,6A,
4334493347,0000022A,false,Rx,0,4,00,00,08,00,00,00,00,00,
4334493593,00000232,false,Rx,0,8,52,00,00,00,00,00,00,00,
4334493832,00000401,false,Rx,0,8,1B,00,13,00,13,00,13,00,
4334494069,0000070A,false,Rx,0,8,F4,D0,02,00,0A,00,00,00,
4334494310,00000712,false,Rx,0,8,03,00,C4,09,C4,09,C4,09,
4334494538,0000012A,false,Rx,0,8,16,00,D0,07,D0,07,D0,07,
4334494786,0000070A,false,Rx,0,8,F4,D0,02,00,0A,00,00,00,
4334495218,0000070A,false,Rx,0,8,F4,D0,02,00,0A,00,00,00,
4334496220,0000070A,false,Rx,0,8,F4,D0,02,00,0A,00,00,00,
4334497218,0000070A,false,Rx,0,8,F4,D0,02,00,0A,00,00,00,
4334497457,0000012A,false,Rx,0,8,17,00,D0,07,D0,07,D0,07,
4334498218,0000070A,false,Rx,0,8,F4,D0,02,00,0A,00,00,00,
4334499218,0000070A,false,Rx,0,8,F4,D0,02,00,0A,00,00,00,
4334500214,0000070A,false,Rx,0,8,F4,D0,02,00,0A,00,00,00,
4334500452,0000012A,false,Rx,0,8,18,00,D0,07,D0,07,D0,07,
4334501214,0000070A,false,Rx,0,8,F4,D0,02,00,0A,00,00,00,
4334502245,0000070A,false,Rx,0,8,F4,D0,02,00,0A,00,00,00,
4334502493,00000152,false,Rx,0,8,01,00,00,00,00,00,00,00,
4334502730,00000172,false,Rx,0,8,01,00,D0,6A,D0,6A,D0,6A,
4334502928,0000020A,false,Rx,0,6,C9,11,09,02,42,00,00,00,
4334503165,0000012A,false,Rx,0,8,19,00,D0,07,D0,07,D0,07,
4334503332,0000022A,false,Rx,0,4,00,00,08,00,00,00,00,00,
4334503579,00000232,false,Rx,0,8,52,00,00,00,00,00,00,00,
4334503828,00000401,false,Rx,0,8,1C,00,13,00,13,00,13,00,
4334504065,0000070A,false,Rx,0,8,F4,D0,02,00,0A,00,00,00,
4334504297,00000712,false,Rx,0,8,04,00,C4,09,C4,09,C4,09,
4334504535,0000070A,false,Rx,0,8,F4,D0,02,00,0A,00,00,00,
4334505213,0000070A,false,Rx,0,8,F4,D0,02,00,0A,00,00,00,
4334505453,0000012A,false,Rx,0,8,1A,00,D0,07,D0,07,D0,07,
4334506214,0000070A,false,Rx,0,8,F4,D0,02,00,0A,00,00,00,
4334507217,0000070A,false,Rx,0,8,F4,D0,02,00,0A,00,00,00,
4334508215,0000070A,false,Rx,0,8,F4,D0,02,00,0A,00,00,00,
4334508453,0000012A,false,Rx,0,8,1B,00,D0,07,D0,07,D0,07,
4334509214,0000070A,false,Rx,0,8,F4,D0,02,00,0A,00,00,00,
4334510213,0000070A,false,Rx,0,8,F4,D0,02,00,0A,00,00,00,
4334511221,0000070A,false,Rx,0,8,F4,D0,02,00,0A,00,00,00,
4334511452,0000012A,false,Rx,0,8,1C,00,D0,07,D0,07,D0,07,
4334512245,0000070A,false,Rx,0,8,F4,D0,02,00,0A,00,00,00,
4334512492,00000152,false,Rx,0,8,02,00,00,00,00,00,00,00,
4334512730,00000172,false,Rx,0,8,02,00,D0,6A,D0,6A,00,00,
4334512928,0000020A,false,Rx,0,6,C9,11,09,02,42,00,00,00,
4334513175,0000014A,false,Rx,0,8,04,00,00,00,00,00,00,00,
4334513342,0000022A,false,Rx,0,4,00,00,08,00,00,00,00,00,
4334513589,00000232,false,Rx,0,8,52,00,00,00,00,00,00,00,
4334513838,00000401,false,Rx,0,8,1D,00,13,00,13,00,13,00,
4334514075,0000070A,false,Rx,0,8,F4,D0,02,00,0A,00,00,00,
4334514314,00000712,false,Rx,0,8,05,28,C4,09,00,00,00,00,
4334514544,0000012A,false,Rx,0,8,1D,00,D0,07,D0,07,D0,07,
4334514792,0000070A,false,Rx,0,8,F4,D0,02,00,0A,00,00,00,
4334515225,0000070A,false,Rx,0,8,F4,D0,02,00,0A,00,00,00,
4334516213,0000070A,false,Rx,0,8,F4,D0,02,00,0A,00,00,00,
4334516454,0000012A,false,Rx,0,8,1E,00,D0,07,D0,07,D0,07,
4334517215,0000070A,false,Rx,0,8,F4,D0,02,00,0A,00,00,00,
4334518214,0000070A,false,Rx,0,8,F4,D0,02,00,0A,00,00,00,
4334519213,0000070A,false,Rx,0,8,F4,D0,02,00,0A,00,00,00,
4334519462,0000012A,false,Rx,0,8,1F,00,D0,07,D0,07,D0,07,
4334520213,0000070A,false,Rx,0,8,F4,D0,02,00,0A,00,00,00,
4334521211,0000070A,false,Rx,0,8,F4,D0,02,00,0A,00,00,00,
4334522243,0000070A,false,Rx,0,8,F4,D0,02,00,0A,00,00,00,
4334522498,00000152,false,Rx,0,8,00,00,00,00,00,00,00,00,
4334522726,00000172,false,Rx,0,8,00,01,D0,6A,D0,6A,D0,6A,
4334522923,0000020A,false,Rx,0,6,C9,11,09,02,42,00,00,00,
4334523181,0000012A,false,Rx,0,8,20,00,00,00,00,00,00,00,
4334523419,0000014A,false,Rx,0,8,05,00,00,00,00,00,00,00,
4334523595,0000022A,false,Rx,0,4,00,00,08,00,00,00,00,00,
4334523843,00000232,false,Rx,0,8,52,00,00,00,00,00,00,00,
4334524081,00000401,false,Rx,0,8,1E,00,13,00,13,00,13,00,
4334524319,0000070A,false,Rx,0,8,F4,D0,02,00,0A,00,00,00,
4334524560,00000712,false,Rx,0,8,00,00,C4,09,C4,09,C4,09,
4334524797,0000070A,false,Rx,0,8,F4,D0,02,00,0A,00,00,00,
4334525242,0000070A,false,Rx,0,8,F4,D0,02,00,0A,00,00,00,
4334525480,0000012A,false,Rx,0,8,21,00,00,00,00,00,00,00,
4334526220,0000070A,false,Rx,0,8,F4,D0,02,00,0A,00,00,00,
4334527213,0000070A,false,Rx,0,8,F4,D0,02,00,0A,00,00,00,
4334527461,0000012A,false,Rx,0,8,22,00,00,00,00,00,00,00,
4334528213,0000070A,false,Rx,0,8,F4,D0,02,00,0A,00,00,00,
4334529212,0000070A,false,Rx,0,8,F4,D0,02,00,0A,00,00,00,
4334530221,0000070A,false,Rx,0,8,F4,D0,02,00,0A,00,00,00,
4334530459,0000012A,false,Rx,0,8,23,00,00,00,00,00,00,00,
4334531221,0000070A,false,Rx,0,8,F4,D0,02,00,0A,00,00,00,
4334532252,0000070A,false,Rx,0,8,F4,D0,02,00,0A,00,00,00,
4334532500,00000152,false,Rx,0,8,01,00,00,00,00,00,00,00,
4334532737,00000172,false,Rx,0,8,01,00,D0,6A,D0,6A,D0,6A,
4334532935,0000020A,false,Rx,0,6,C9,11,09,02,42,00,00,00,
4334533111,0000022A,false,Rx,0,4,00,00,08,00,00,00,00,00,
4334533348,00000232,false,Rx,0,8,52,00,00,00,00,00,00,00,
4334533586,0000012A,false,Rx,0,8,00,00,D0,07,D0,07,D0,07,
4334533835,00000401,false,Rx,0,8,1F,00,13,00,13,00,13,00,
4334534072,0000070A,false,Rx,0,8,F4,D0,02,00,0A,00,00,00,
4334534310,00000712,false,Rx,0,8,01,00,C4,09,C4,09,C4,09,
4334534570,0000070A,false,Rx,0,8,F4,D0,02,00,0A,00,00,00,
4334535218,0000070A,false,Rx,0,8,F4,D0,02,00,0A,00,00,00,
4334536217,0000070A,false,Rx,0,8,F4,D0,02,00,0A,00,00,00,
4334536455,0000012A,false,Rx,0,8,01,00,D0,07,D0,07,D0,07,
4334537219,0000070A,false,Rx,0,8,F4,D0,02,00,0A,00,00,00,
4334537479,0000070A,false,Rx,0,8,50,4A,01,00,00,00,00,00,
4334537593,0000024A,false,Rx,0,1,07,00,00,00,00,00,00,00,
4334537747,0000026A,false,Rx,0,3,00,00,00,00,00,00,00,00,
4334537953,00000682,false,Rx,0,6,00,40,00,00,04,06,00,00,
4334538200,0000070A,false,Rx,0,8,24,49,01,00,00,00,00,00,
4334538440,0000074A,false,Rx,0,8,02,00,00,00,00,00,00,00,
4334538684,0000070A,false,Rx,0,8,F4,D0,02,00,0A,00,00,00,
4334538932,0000076A,false,Rx,0,8,02,D0,07,00,00,00,00,00,
4334539160,0000078A,false,Rx,0,8,12,01,2F,0D,20,00,80,04,
4334539399,0000012A,false,Rx,0,8,02,00,D0,07,D0,07,D0,07,
4334539636,0000070A,false,Rx,0,8,F4,D0,02,00,0A,00,00,00,
4334540213,0000070A,false,Rx,0,8,F4,D0,02,00,0A,00,00,00,
4334541218,0000070A,false,Rx,0,8,F4,D0,02,00,0A,00,00,00,
4334541457,0000012A,false,Rx,0,8,03,00,D0,07,D0,07,D0,07,
4334542250,0000070A,false,Rx,0,8,F4,D0,02,00,0A,00,00,00,
4334542498,00000152,false,Rx,0,8,02,00,00,00,00,00,00,00,
4334542727,00000172,false,Rx,0,8,02,00,D0,6A,D0,6A,00,00,
4334542925,0000020A,false,Rx,0,6,C9,11,09,02,42,00,00,00,
4334543172,0000014A,false,Rx,0,8,00,00,FF,7F,FF,7F,FF,7F,
4334543349,0000022A,false,Rx,0,4,00,00,08,00,00,00,00,00,
4334543596,00000232,false,Rx,0,8,52,00,00,00,00,00,00,00,
4334543834,00000401,false,Rx,0,8,20,2A,00,00,00,00,00,00,
4334544082,0000070A,false,Rx,0,8,F4,D0,02,00,0A,00,00,00,
4334544310,00000712,false,Rx,0,8,02,00,C4,09,C4,09,C4,09,
4334544549,0000012A,false,Rx,0,8,04,00,D0,07,D0,07,D0,07,
4334544788,0000070A,false,Rx,0,8,F4,D0,02,00,0A,00,00,00,
4334545232,0000070A,false,Rx,0,8,F4,D0,02,00,0A,00,00,00,
4334546220,0000070A,false,Rx,0,8,F4,D0,02,00,0A,00,00,00,
4334547218,0000070A,false,Rx,0,8,F4,D0,02,00,0A,00,00,00,
4334547457,0000012A,false,Rx,0,8,05,00,D0,07,D0,07,D0,07,
4334548219,0000070A,false,Rx,0,8,F4,D0,02,00,0A,00,00,00,
4334549218,0000070A,false,Rx,0,8,F4,D0,02,00,0A,00,00,00,
4334550217,0000070A,false,Rx,0,8,F4,D0,02,00,0A,00,00,00,
4334550455,0000012A,false,Rx,0,8,06,00,D0,07,D0,07,D0,07,
4334551217,0000070A,false,Rx,0,8,F4,D0,02,00,0A,00,00,00,
4334552247,0000070A,false,Rx,0,8,F4,D0,02,00,0A,00,00,00,
4334552495,00000152,false,Rx,0,8,00,00,00,00,00,00,00,00,
4334552722,00000172,false,Rx,0,8,00,01,D0,6A,D0,6A,D0,6A,
4334552922,0000020A,false,Rx,0,6,C9,11,09,02,42,00,00,00,
4334553159,0000012A,false,Rx,0,8,07,00,D0,07,D0,07,D0,07,
4334553408,00000112,false,Rx,0,8,00,00,00,00,00,00,59,07,
4334553574,0000022A,false,Rx,0,4,00,00,08,00,00,00,00,00,
4334553822,00000232,false,Rx,0,8,52,00,00,00,00,00,00,00,
4334554059,00000272,false,Rx,0,7,00,00,00,00,00,00,00,00,
4334554214,000002B2,false,Rx,0,3,00,00,00,00,00,00,00,00,
4334554453,00000392,false,Rx,0,8,00,00,00,0C,F0,3F,00,04,
4334554701,000003B2,false,Rx,0,8,13,00,10,27,00,00,00,00,
4334554940,00000401,false,Rx,0,8,21,2A,00,00,00,00,00,00,
4334555074,00000432,false,Rx,0,2,06,00,00,00,00,00,00,00,
4334555323,0000070A,false,Rx,0,8,F4,D0,02,00,0A,00,00,00,
4334555560,0000012A,false,Rx,0,8,08,00,D0,07,D0,07,D0,07,
4334555798,0000070A,false,Rx,0,8,F4,D0,02,00,0A,00,00,00,
4334556026,00000712,false,Rx,0,8,03,00,C4,09,C4,09,C4,09,
4334556265,0000070A,false,Rx,0,8,F4,D0,02,00,0A,00,00,00,
4334556420,00000792,false,Rx,0,3,00,00,00,00,00,00,00,00,
4334556656,0000070A,false,Rx,0,8,F4,D0,02,00,0A,00,00,00,
4334557214,0000070A,false,Rx,0,8,F4,D0,02,00,0A,00,00,00,
4334558214,0000070A,false,Rx,0,8,F4,D0,02,00,0A,00,00,00,
4334558452,0000012A,false,Rx,0,8,09,00,D0,07,D0,07,D0,07,
4334559214,0000070A,false,Rx,0,8,F4,D0,02,00,0A,00,00,00,
4334560212,0000070A,false,Rx,0,8,F4,D0,02,00,0A,00,00,00,
4334561219,0000070A,false,Rx,0,8,F4,D0,02,00,0A,00,00,00,
4334561459,0000012A,false,Rx,0,8,0A,00,D0,07,D0,07,D0,07,
4334562241,0000070A,false,Rx,0,8,F4,D0,02,00,0A,00,00,00,
4334562438,0000020A,false,Rx,0,6,C9,11,09,02,42,00,00,00,
4334562685,0000014A,false,Rx,0,8,01,00,FF,7F,FF,7F,FF,7F,
4334562938,00000152,false,Rx,0,8,01,00,00,00,00,00,00,00,
4334563165,00000172,false,Rx,0,8,01,00,D0,6A,D0,6A,D0,6A,
4334563342,0000022A,false,Rx,0,4,00,00,08,00,00,00,00,00,
4334563590,00000232,false,Rx,0,8,52,00,00,00,00,00,00,00,
4334563838,00000401,false,Rx,0,8,22,2A,00,00,00,00,00,00,
4334564075,0000070A,false,Rx,0,8,F4,D0,02,00,0A,00,00,00,
4334564303,00000712,false,Rx,0,8,04,00,C4,09,C4,09,C4,09,
4334564542,0000012A,false,Rx,0,8,0B,00,D0,07,D0,07,D0,07,
4334564779,0000070A,false,Rx,0,8,F4,D0,02,00,0A,00,00,00,
4334565225,0000070A,false,Rx,0,8,F4,D0,02,00,0A,00,00,00,
4334566214,0000070A,false,Rx,0,8,F4,D0,02,00,0A,00,00,00,
4334566452,0000012A,false,Rx,0,8,0C,00,D0,07,D0,07,D0,07,
4334567213,0000070A,false,Rx,0,8,F4,D0,02,00,0A,00,00,00,
4334568223,0000070A,false,Rx,0,8,F4,D0,02,00,0A,00,00,00,
4334569209,0000070A,false,Rx,0,8,F4,D0,02,00,0A,00,00,00,
4334569448,0000012A,false,Rx,0,8,0D,00,D0,07,D0,07,D0,07,
4334570209,0000070A,false,Rx,0,8,F4,D0,02,00,0A,00,00,00,
4334571218,0000070A,false,Rx,0,8,F4,D0,02,00,0A,00,00,00,
4334572249,0000070A,false,Rx,0,8,F4,D0,02,00,0A,00,00,00,
4334572486,00000152,false,Rx,0,8,02,00,00,00,00,00,00,00,
4334572723,00000172,false,Rx,0,8,02,00,D0,6A,D0,6A,00,00,
4334572921,0000020A,false,Rx,0,6,C9,11,09,02,42,00,00,00,
4334573162,0000012A,false,Rx,0,8,0E,00,D0,07,D0,07,D0,07,
4334573411,0000014A,false,Rx,0,8,02,00,FF,7F,FF,7F,FF,7F,
4334573578,0000022A,false,Rx,0,4,00,00,08,00,00,00,00,00,
4334573824,00000232,false,Rx,0,8,52,00,00,00,00,00,00,00,
4334574072,00000401,false,Rx,0,8,23,2A,00,00,00,00,00,00,
4334574311,0000070A,false,Rx,0,8,F4,D0,02,00,0A,00,00,00,
4334574549,00000712,false,Rx,0,8,05,28,C4,09,00,00,00,00,
4334574786,0000070A,false,Rx,0,8,F4,D0,02,00,0A,00,00,00,
4334575230,0000070A,false,Rx,0,8,F4,D0,02,00,0A,00,00,00,
4334575469,0000012A,false,Rx,0,8,0F,00,D0,07,D0,07,D0,07,
4334576220,0000070A,false,Rx,0,8,F4,D0,02,00,0A,00,00,00,
4334577208,0000070A,false,Rx,0,8,F4,D0,02,00,0A,00,00,00,
4334577458,0000012A,false,Rx,0,8,10,00,D0,07,D0,07,D0,07,
4334578210,0000070A,false,Rx,0,8,F4,D0,02,00,0A,00,00,00,
4334579208,0000070A,false,Rx,0,8,F4,D0,02,00,0A,00,00,00,
4334580217,0000070A,false,Rx,0,8,F4,D0,02,00,0A,00,00,00,
4334580445,0000012A,false,Rx,0,8,11,00,D0,07,D0,07,D0,07,
4334581216,0000070A,false,Rx,0,8,F4,D0,02,00,0A,00,00,00,
4334582247,0000070A,false,Rx,0,8,F4,D0,02,00,0A,00,00,00,
4334582495,00000152,false,Rx,0,8,00,00,00,00,00,00,00,00,
4334582722,00000172,false,Rx,0,8,00,01,D0,6A,D0,6A,D0,6A,
4334582930,0000020A,false,Rx,0,6,C9,11,09,02,42,00,00,00,
4334583100,0000022A,false,Rx,0,4,00,00,08,00,00,00,00,00,
4334583348,00000232,false,Rx,0,8,52,00,00,00,00,00,00,00,
4334583586,0000012A,false,Rx,0,8,12,00,D0,07,D0,07,D0,07,
4334583823,00000401,false,Rx,0,8,00,15,13,00,13,00,13,00,
4334584061,0000070A,false,Rx,0,8,F4,D0,02,00,0A,00,00,00,
4334584300,00000712,false,Rx,0,8,00,00,C4,09,C4,09,C4,09,
4334584538,0000070A,false,Rx,0,8,F4,D0,02,00,0A,00,00,00,
4334585216,0000070A,false,Rx,0,8,F4,D0,02,00,0A,00,00,00,
4334586215,0000070A,false,Rx,0,8,F4,D0,02,00,0A,00,00,00,
4334586453,0000012A,false,Rx,0,8,13,00,D0,07,D0,07,D0,07,
4334587215,0000070A,false,Rx,0,8,F4,D0,02,00,0A,00,00,00,
4334588214,0000070A,false,Rx,0,8,F4,D0,02,00,0A,00,00,00,
4334589211,0000070A,false,Rx,0,8,F4,D0,02,00,0A,00,00,00,
4334589449,0000012A,false,Rx,0,8,14,00,D0,07,D0,07,D0,07,
4334590211,0000070A,false,Rx,0,8,F4,D0,02,00,0A,00,00,00,
4334591209,0000070A,false,Rx,0,8,F4,D0,02,00,0A,00,00,00,
4334591449,0000012A,false,Rx,0,8,15,00,D0,07,D0,07,D0,07,
4334592242,0000070A,false,Rx,0,8,F4,D0,02,00,0A,00,00,00,
4334592489,00000152,false,Rx,0,8,01,00,00,00,00,00,00,00,
4334592727,00000172,false,Rx,0,8,01,00,D0,6A,D0,6A,D0,6A,
4334592924,0000020A,false,Rx,0,6,C9,11,09,02,42,00,00,00,
4334593178,0000014A,false,Rx,0,8,03,00,00,00,00,00,00,00,
4334593345,0000022A,false,Rx,0,4,00,00,08,00,00,00,00,00,
4334593582,00000232,false,Rx,0,8,52,00,00,00,00,00,00,00,
4334593830,00000401,false,Rx,0,8,01,15,13,00,13,00,13,00,
4334594067,0000070A,false,Rx,0,8,F4,D0,02,00,0A,00,00,00,
4334594306,00000712,false,Rx,0,8,01,00,C4,09,C4,09,C4,09,
4334594535,0000012A,false,Rx,0,8,16,00,D0,07,D0,07,D0,07,
4334594783,0000070A,false,Rx,0,8,F4,D0,02,00,0A,00,00,00,
4334595216,0000070A,false,Rx,0,8,F4,D0,02,00,0A,00,00,00,
4334596215,0000070A,false,Rx,0,8,F4,D0,02,00,0A,00,00,00,
4334597213,0000070A,false,Rx,0,8,F4,D0,02,00,0A,00,00,00,
4334597453,0000012A,false,Rx,0,8,17,00,D0,07,D0,07,D0,07,
4334598214,0000070A,false,Rx,0,8,F4,D0,02,00,0A,00,00,00,
4334599212,0000070A,false,Rx,0,8,F4,D0,02,00,0A,00,00,00,
4334600211,0000070A,false,Rx,0,8,F4,D0,02,00,0A,00,00,00,
4334600450,0000012A,false,Rx,0,8,18,00,D0,07,D0,07,D0,07,
4334601212,0000070A,false,Rx,0,8,F4,D0,02,00,0A,00,00,00,
4334602243,0000070A,false,Rx,0,8,F4,D0,02,00,0A,00,00,00,
4334602490,00000152,false,Rx,0,8,02,00,00,00,00,00,00,00,
4334602718,00000172,false,Rx,0,8,02,00,D0,6A,D0,6A,00,00,
4334602925,0000020A,false,Rx,0,6,C9,11,09,02,42,00,00,00,
4334603162,0000012A,false,Rx,0,8,19,00,D0,07,D0,07,D0,07,
4334603334,0000022A,false,Rx,0,4,00,00,08,00,00,00,00,00,
4334603571,00000232,false,Rx,0,8,52,00,00,00,00,00,00,00,
4334603809,00000401,false,Rx,0,8,02,15,13,00,13,00,13,00,
4334604056,0000070A,false,Rx,0,8,F4,D0,02,00,0A,00,00,00,
4334604284,00000712,false,Rx,0,8,02,00,C4,09,C4,09,C4,09,
4334604523,0000070A,false,Rx,0,8,F4,D0,02,00,0A,00,00,00,
4334605213,0000070A,false,Rx,0,8,F4,D0,02,00,0A,00,00,00,
4334605449,0000012A,false,Rx,0,8,1A,00,D0,07,D0,07,D0,07,
4334606210,0000070A,false,Rx,0,8,F4,D0,02,00,0A,00,00,00,
4334607209,0000070A,false,Rx,0,8,F4,D0,02,00,0A,00,00,00,
4334608208,0000070A,false,Rx,0,8,F4,D0,02,00,0A,00,00,00,
4334608447,0000012A,false,Rx,0,8,1B,00,D0,07,D0,07,D0,07,
4334609208,0000070A,false,Rx,0,8,F4,D0,02,00,0A,00,00,00,
4334610206,0000070A,false,Rx,0,8,F4,D0,02,00,0A,00,00,00,
4334611216,0000070A,false,Rx,0,8,F4,D0,02,00,0A,00,00,00,
4334611453,0000012A,false,Rx,0,8,1C,00,D0,07,D0,07,D0,07,
4334612246,0000070A,false,Rx,0,8,F4,D0,02,00,0A,00,00,00,
4334612493,00000152,false,Rx,0,8,00,00,00,00,00,00,00,00,
4334612720,00000172,false,Rx,0,8,00,01,D0,6A,D0,6A,D0,6A,
4334612928,0000020A,false,Rx,0,6,C9,11,09,02,42,00,00,00,
4334613176,0000014A,false,Rx,0,8,04,00,00,00,00,00,00,00,
4334613342,0000022A,false,Rx,0,4,00,00,08,00,00,00,00,00,
4334613588,00000232,false,Rx,0,8,52,00,00,00,00,00,00,00,
4334613826,00000401,false,Rx,0,8,03,05,13,00,13,00,13,00,
4334614063,0000070A,false,Rx,0,8,F4,D0,02,00,0A,00,00,00,
4334614303,00000712,false,Rx,0,8,03,00,C4,09,C4,09,C4,09,
4334614530,0000012A,false,Rx,0,8,1D,00,D0,07,D0,07,D0,07,
4334614777,0000070A,false,Rx,0,8,F4,D0,02,00,0A,00,00,00,
4334615211,0000070A,false,Rx,0,8,F4,D0,02,00,0A,00,00,00,
4334616208,0000070A,false,Rx,0,8,F4,D0,02,00,0A,00,00,00,
4334616447,0000012A,false,Rx,0,8,1E,00,D0,07,D0,07,D0,07,
4334617208,0000070A,false,Rx,0,8,F4,D0,02,00,0A,00,00,00,
4334618208,0000070A,false,Rx,0,8,F4,D0,02,00,0A,00,00,00,
4334619206,0000070A,false,Rx,0,8,F4,D0,02,00,0A,00,00,00,
4334619463,0000012A,false,Rx,0,8,1F,00,D0,07,D0,07,D0,07,
4334620214,0000070A,false,Rx,0,8,F4,D0,02,00,0A,00,00,00,
4334621214,0000070A,false,Rx,0,8,F4,D0,02,00,0A,00,00,00,
4334622244,0000070A,false,Rx,0,8,F4,D0,02,00,0A,00,00,00,
4334622481,00000152,false,Rx,0,8,01,00,00,00,00,00,00,00,
4334622719,00000172,false,Rx,0,8,01,00,D0,6A,D0,6A,D0,6A,
4334622917,0000020A,false,Rx,0,6,C9,11,09,02,42,00,00,00,
4334623174,0000012A,false,Rx,0,8,20,00,00,00,00,00,00,00,
4334623412,0000014A,false,Rx,0,8,05,00,00,00,00,00,00,00,
4334623585,0000022A,false,Rx,0,4,00,00,08,00,00,00,00,00,
4334623832,00000232,false,Rx,0,8,52,00,00,00,00,00,00,00,
4334624070,00000401,false,Rx,0,8,04,00,13,00,13,00,13,00,
4334624309,0000070A,false,Rx,0,8,F4,D0,02,00,0A,00,00,00,
4334624547,00000712,false,Rx,0,8,04,00,C4,09,C4,09,C4,09,
4334624784,0000070A,false,Rx,0,8,F4,D0,02,00,0A,00,00,00,
4334625228,0000070A,false,Rx,0,8,F4,D0,02,00,0A,00,00,00,
4334625477,0000012A,false,Rx,0,8,21,00,00,00,00,00,00,00,
4334626207,0000070A,false,Rx,0,8,F4,D0,02,00,0A,00,00,00,
4334627206,0000070A,false,Rx,0,8,F4,D0,02,00,0A,00,00,00,
4334627456,0000012A,false,Rx,0,8,22,00,00,00,00,00,00,00,
4334628207,0000070A,false,Rx,0,8,F4,D0,02,00,0A,00,00,00,
4334629206,0000070A,false,Rx,0,8,F4,D0,02,00,0A,00,00,00,
4334630212,0000070A,false,Rx,0,8,F4,D0,02,00,0A,00,00,00,
4334630452,0000012A,false,Rx,0,8,23,00,00,00,00,00,00,00,
4334631214,0000070A,false,Rx,0,8,F4,D0,02,00,0A,00,00,00,
4334632244,0000070A,false,Rx,0,8,F4,D0,02,00,0A,00,00,00,
4334632491,00000152,false,Rx,0,8,02,00,00,00,00,00,00,00,
4334632730,00000172,false,Rx,0,8,02,00,D0,6A,D0,6A,00,00,
4334632926,0000020A,false,Rx,0,6,C9,11,09,02,42,00,00,00,
4334633102,0000022A,false,Rx,0,4,00,00,08,00,00,00,00,00,
4334633340,00000232,false,Rx,0,8,52,00,00,00,00,00,00,00,
4334633578,0000012A,false,Rx,0,8,00,00,D0,07,D0,07,D0,07,
4334633824,00000401,false,Rx,0,8,05,00,13,00,13,00,13,00,
4334634061,0000050A,false,Rx,0,8,19,80,0C,00,0B,00,00,00,
4334634301,0000070A,false,Rx,0,8,68,4C,02,00,19,00,01,00,
4334634538,00000712,false,Rx,0,8,05,28,C4,09,00,00,00,00,
4334634776,0000070A,false,Rx,0,8,60,AF,02,00,19,00,00,00,
4334635034,0000070A,false,Rx,0,8,D0,ED,00,00,01,00,00,00,
4334635293,0000070A,false,Rx,0,8,F4,D0,02,00,0A,00,00,00,
4334635541,0000070A,false,Rx,0,8,F4,D0,02,00,0A,00,00,00,
4334635801,0000070A,false,Rx,0,8,F4,D0,02,00,0A,00,00,00,
4334636233,0000070A,false,Rx,0,8,F4,D0,02,00,0A,00,00,00,
4334636471,0000012A,false,Rx,0,8,01,00,D0,07,D0,07,D0,07,
4334637212,0000070A,false,Rx,0,8,F4,D0,02,00,0A,00,00,00,
4334637472,0000070A,false,Rx,0,8,50,4A,01,00,00,00,00,00,
4334637587,0000024A,false,Rx,0,1,07,00,00,00,00,00,00,00,
4334637736,0000026A,false,Rx,0,3,00,00,00,00,00,00,00,00,
4334637952,00000682,false,Rx,0,6,00,40,40,00,04,06,00,00,
4334638190,0000070A,false,Rx,0,8,24,49,01,00,00,00,00,00,
4334638439,0000076A,false,Rx,0,8,00,00,00,00,00,00,00,00,
4334638676,0000070A,false,Rx,0,8,F4,D0,02,00,0A,00,00,00,
4334638925,000007AA,false,Rx,0,8,22,00,00,00,00,00,21,00,
4334639162,0000078A,false,Rx,0,8,12,01,2F,0D,30,00,80,04,
4334639391,0000012A,false,Rx,0,8,02,00,D0,07,D0,07,D0,07,
4334639639,0000070A,false,Rx,0,8,F4,D0,02,00,0A,00,00,00,
4334640207,0000070A,false,Rx,0,8,F4,D0,02,00,0A,00,00,00,
4334641216,0000070A,false,Rx,0,8,F4,D0,02,00,0A,00,00,00,
4334641445,0000012A,false,Rx,0,8,03,00,D0,07,D0,07,D0,07,
4334642237,0000070A,false,Rx,0,8,F4,D0,02,00,0A,00,00,00,
4334642496,00000152,false,Rx,0,8,00,00,00,00,00,00,00,00,
4334642724,00000172,false,Rx,0,8,00,01,D0,6A,D0,6A,D0,6A,
4334642921,0000020A,false,Rx,0,6,C9,11,09,12,42,00,00,00,
4334643168,0000014A,false,Rx,0,8,00,00,FF,7F,FF,7F,FF,7F,
4334643335,0000022A,false,Rx,0,4,00,00,08,00,00,00,00,00,
4334643583,00000232,false,Rx,0,8,52,00,00,00,00,00,00,00,
4334643828,00000401,false,Rx,0,8,06,00,13,00,13,00,13,00,
4334644066,0000070A,false,Rx,0,8,F4,D0,02,00,0A,00,00,00,
4334644305,00000712,false,Rx,0,8,00,00,C4,09,C4,09,C4,09,
4334644543,0000012A,false,Rx,0,8,04,00,D0,07,D0,07,D0,07,
4334644780,0000070A,false,Rx,0,8,F4,D0,02,00,0A,00,00,00,
4334645224,0000070A,false,Rx,0,8,F4,D0,02,00,0A,00,00,00,
4334646208,0000070A,false,Rx,0,8,F4,D0,02,00,0A,00,00,00,
4334647206,0000070A,false,Rx,0,8,F4,D0,02,00,0A,00,00,00,
4334647446,0000012A,false,Rx,0,8,05,00,D0,07,D0,07,D0,07,
4334648207,0000070A,false,Rx,0,8,F4,D0,02,00,0A,00,00,00,
4334649216,0000070A,false,Rx,0,8,F4,D0,02,00,0A,00,00,00,
4334650213,0000070A,false,Rx,0,8,F4,D0,02,00,0A,00,00,00,
4334650442,0000012A,false,Rx,0,8,06,00,D0,07,D0,07,D0,07,
4334651214,0000070A,false,Rx,0,8,F4,D0,02,00,0A,00,00,00,
4334652233,0000070A,false,Rx,0,8,F4,D0,02,00,0A,00,00,00,
4334652482,00000152,false,Rx,0,8,01,00,00,00,00,00,00,00,
4334652720,00000172,false,Rx,0,8,01,00,D0,6A,D0,6A,D0,6A,
4334652917,0000020A,false,Rx,0,6,C9,11,09,12,42,00,00,00,
4334653154,0000012A,false,Rx,0,8,07,00,D0,07,D0,07,D0,07,
4334653392,00000112,false,Rx,0,8,00,00,00,00,00,00,59,07,
4334653569,0000022A,false,Rx,0,4,00,00,08,00,00,00,00,00,
4334653816,00000232,false,Rx,0,8,52,00,00,00,00,00,00,00,
4334654043,00000272,false,Rx,0,7,00,00,00,00,00,00,00,00,
4334654198,000002B2,false,Rx,0,3,00,00,00,00,00,00,00,00,
4334654447,00000392,false,Rx,0,8,00,00,00,0C,F0,3F,00,04,
4334654685,000003B2,false,Rx,0,8,13,00,10,27,00,00,00,00,
4334654932,00000401,false,Rx,0,8,07,00,13,00,13,00,13,00,
4334655068,00000432,false,Rx,0,2,08,00,00,00,00,00,00,00,
4334655306,0000070A,false,Rx,0,8,F4,D0,02,00,0A,00,00,00,
4334655543,0000012A,false,Rx,0,8,08,00,D0,07,D0,07,D0,07,
4334655782,0000070A,false,Rx,0,8,F4,D0,02,00,0A,00,00,00,
4334656020,00000712,false,Rx,0,8,01,00,C4,09,C4,09,C4,09,
4334656259,0000070A,false,Rx,0,8,F4,D0,02,00,0A,00,00,00,
4334656414,00000792,false,Rx,0,3,00,00,00,00,00,00,00,00,
4334656652,0000070A,false,Rx,0,8,F4,D0,02,00,0A,00,00,00,
4334657207,0000070A,false,Rx,0,8,F4,D0,02,00,0A,00,00,00,
4334658210,0000070A,false,Rx,0,8,F4,D0,02,00,0A,00,00,00,
4334658449,0000012A,false,Rx,0,8,09,00,D0,07,D0,07,D0,07,
4334659210,0000070A,false,Rx,0,8,F4,D0,02,00,0A,00,00,00,
4334660209,0000070A,false,Rx,0,8,F4,D0,02,00,0A,00,00,00,
4334661208,0000070A,false,Rx,0,8,F4,D0,02,00,0A,00,00,00,
4334661447,0000012A,false,Rx,0,8,0A,00,D0,07,D0,07,D0,07,
4334662240,0000070A,false,Rx,0,8,F4,D0,02,00,0A,00,00,00,
4334662436,0000020A,false,Rx,0,6,C9,11,09,12,42,00,00,00,
4334662675,0000014A,false,Rx,0,8,01,00,FF,7F,FF,7F,FF,7F,
4334662922,00000152,false,Rx,0,8,02,00,00,00,00,00,00,00,
4334663160,00000172,false,Rx,0,8,02,00,D0,6A,D0,6A,00,00,
4334663327,0000022A,false,Rx,0,4,00,00,08,00,00,00,00,00,
4334663575,00000232,false,Rx,0,8,52,00,00,00,00,00,00,00,
4334663823,00000401,false,Rx,0,8,08,00,13,00,13,00,13,00,
4334664060,0000070A,false,Rx,0,8,F4,D0,02,00,0A,00,00,00,
4334664290,00000712,false,Rx,0,8,02,00,C4,09,C4,09,C4,09,
4334664527,0000012A,false,Rx,0,8,0B,00,D0,07,D0,07,D0,07,
4334664765,0000070A,false,Rx,0,8,F4,D0,02,00,0A,00,00,00,
4334665208,0000070A,false,Rx,0,8,F4,D0,02,00,0A,00,00,00,
4334666211,0000070A,false,Rx,0,8,F4,D0,02,00,0A,00,00,00,
4334666450,0000012A,false,Rx,0,8,0C,00,D0,07,D0,07,D0,07,
4334667212,0000070A,false,Rx,0,8,F4,D0,02,00,0A,00,00,00,
4334668211,0000070A,false,Rx,0,8,F4,D0,02,00,0A,00,00,00,
4334669210,0000070A,false,Rx,0,8,F4,D0,02,00,0A,00,00,00,
4334669448,0000012A,false,Rx,0,8,0D,00,D0,07,D0,07,D0,07,
4334670210,0000070A,false,Rx,0,8,F4,D0,02,00,0A,00,00,00,
4334671209,0000070A,false,Rx,0,8,F4,D0,02,00,0A,00,00,00,
4334672236,0000070A,false,Rx,0,8,F4,D0,02,00,0A,00,00,00,
4334672485,00000152,false,Rx,0,8,00,00,00,00,00,00,00,00,
4334672724,00000172,false,Rx,0,8,00,01,D0,6A,D0,6A,D0,6A,
4334672920,0000020A,false,Rx,0,6,C9,11,09,12,42,00,00,00,
4334673157,0000012A,false,Rx,0,8,0E,00,D0,07,D0,07,D0,07,
4334673406,0000014A,false,Rx,0,8,02,00,FF,7F,FF,7F,FF,7F,
4334673573,0000022A,false,Rx,0,4,00,00,08,00,00,00,00,00,
4334673819,00000232,false,Rx,0,8,52,00,00,00,00,00,00,00,
4334674087,00000401,false,Rx,0,8,09,00,13,00,13,00,13,00,
4334674306,0000070A,false,Rx,0,8,F4,D0,02,00,0A,00,00,00,
4334674534,00000712,false,Rx,0,8,03,00,C4,09,C4,09,C4,09,
4334674771,0000070A,false,Rx,0,8,F4,D0,02,00,0A,00,00,00,
4334675215,0000070A,false,Rx,0,8,F4,D0,02,00,0A,00,00,00,
4334675453,0000012A,false,Rx,0,8,0F,00,D0,07,D0,07,D0,07,
4334676211,0000070A,false,Rx,0,8,F4,D0,02,00,0A,00,00,00,
4334677210,0000070A,false,Rx,0,8,F4,D0,02,00,0A,00,00,00,
4334677449,0000012A,false,Rx,0,8,10,00,D0,07,D0,07,D0,07,
4334678211,0000070A,false,Rx,0,8,F4,D0,02,00,0A,00,00,00,
4334679209,0000070A,false,Rx,0,8,F4,D0,02,00,0A,00,00,00,
4334680205,0000070A,false,Rx,0,8,F4,D0,02,00,0A,00,00,00,
4334680445,0000012A,false,Rx,0,8,11,00,D0,07,D0,07,D0,07,
4334681206,0000070A,false,Rx,0,8,F4,D0,02,00,0A,00,00,00,
4334682235,0000070A,false,Rx,0,8,F4,D0,02,00,0A,00,00,00,
4334682484,00000152,false,Rx,0,8,01,00,00,00,00,00,00,00,
4334682723,00000172,false,Rx,0,8,01,00,D0,6A,D0,6A,D0,6A,
4334682919,0000020A,false,Rx,0,6,C9,11,09,12,42,00,00,00,
4334683084,0000022A,false,Rx,0,4,00,00,08,00,00,00,00,00,
4334683332,00000232,false,Rx,0,8,52,00,00,00,00,00,00,00,
4334683571,0000012A,false,Rx,0,8,12,00,D0,07,D0,07,D0,07,
4334683818,00000401,false,Rx,0,8,0A,00,13,00,13,00,13,00,
4334684056,0000070A,false,Rx,0,8,F4,D0,02,00,0A,00,00,00,
4334684287,00000712,false,Rx,0,8,04,00,C4,09,C4,09,C4,09,
4334684525,0000070A,false,Rx,0,8,F4,D0,02,00,0A,00,00,00,
4334685204,0000070A,false,Rx,0,8,F4,D0,02,00,0A,00,00,00,
4334686203,0000070A,false,Rx,0,8,F4,D0,02,00,0A,00,00,00,
4334686443,0000012A,false,Rx,0,8,13,00,D0,07,D0,07,D0,07,
4334687205,0000070A,false,Rx,0,8,F4,D0,02,00,0A,00,00,00,
4334688204,0000070A,false,Rx,0,8,F4,D0,02,00,0A,00,00,00,
4334689203,0000070A,false,Rx,0,8,F4,D0,02,00,0A,00,00,00,
4334689451,0000012A,false,Rx,0,8,14,00,D0,07,D0,07,D0,07,
4334690202,0000070A,false,Rx,0,8,F4,D0,02,00,0A,00,00,00,
4334691202,0000070A,false,Rx,0,8,F4,D0,02,00,0A,00,00,00,
4334691441,0000012A,false,Rx,0,8,15,00,D0,07,D0,07,D0,07,
4334692233,0000070A,false,Rx,0,8,F4,D0,02,00,0A,00,00,00,
4334692482,00000152,false,Rx,0,8,02,00,00,00,00,00,00,00,
4334692720,00000172,false,Rx,0,8,02,00,D0,6A,D0,6A,00,00,
4334692917,0000020A,false,Rx,0,6,C9,11,09,12,42,00,00,00,
4334693164,0000014A,false,Rx,0,8,03,00,00,00,00,00,00,00,
4334693331,0000022A,false,Rx,0,4,00,00,08,00,00,00,00,00,
4334693579,00000232,false,Rx,0,8,52,00,00,00,00,00,00,00,
4334693816,00000401,false,Rx,0,8,0B,00,13,00,13,00,13,00,
4334694053,0000070A,false,Rx,0,8,F4,D0,02,00,0A,00,00,00,
4334694293,00000712,false,Rx,0,8,05,28,C4,09,00,00,00,00,
4334694533,0000012A,false,Rx,0,8,16,00,D0,07,D0,07,D0,07,
4334694770,0000070A,false,Rx,0,8,F4,D0,02,00,0A,00,00,00,
4334695214,0000070A,false,Rx,0,8,F4,D0,02,00,0A,00,00,00,
4334696202,0000070A,false,Rx,0,8,F4,D0,02,00,0A,00,00,00,
4334697203,0000070A,false,Rx,0,8,F4,D0,02,00,0A,00,00,00,
4334697442,0000012A,false,Rx,0,8,17,00,D0,07,D0,07,D0,07,
4334698204,0000070A,false,Rx,0,8,F4,D0,02,00,0A,00,00,00,
4334699202,0000070A,false,Rx,0,8,F4,D0,02,00,0A,00,00,00,
4334700211,0000070A,false,Rx,0,8,F4,D0,02,00,0A,00,00,00,
4334700439,0000012A,false,Rx,0,8,18,00,D0,07,D0,07,D0,07,
4334701201,0000070A,false,Rx,0,8,F4,D0,02,00,0A,00,00,00,
4334702231,0000070A,false,Rx,0,8,F4,D0,02,00,0A,00,00,00,
4334702480,00000152,false,Rx,0,8,00,00,00,00,00,00,00,00,
4334702718,00000172,false,Rx,0,8,00,01,D0,6A,D0,6A,D0,6A,
4334702915,0000020A,false,Rx,0,6,C9,11,09,12,42,00,00,00,
4334703152,0000012A,false,Rx,0,8,19,00,D0,07,D0,07,D0,07,
4334703329,0000022A,false,Rx,0,4,00,00,08,00,00,00,00,00,
4334703566,00000232,false,Rx,0,8,52,00,00,00,00,00,00,00,
4334703814,00000401,false,Rx,0,8,0C,00,13,00,13,00,13,00,
4334704051,0000070A,false,Rx,0,8,F4,D0,02,00,0A,00,00,00,
4334704291,00000712,false,Rx,0,8,00,00,C4,09,C4,09,C4,09,
4334704530,0000070A,false,Rx,0,8,F4,D0,02,00,0A,00,00,00,
4334705210,0000070A,false,Rx,0,8,F4,D0,02,00,0A,00,00,00,
4334705438,0000012A,false,Rx,0,8,1A,00,D0,07,D0,07,D0,07,
4334706210,0000070A,false,Rx,0,8,F4,D0,02,00,0A,00,00,00,
4334707211,0000070A,false,Rx,0,8,F4,D0,02,00,0A,00,00,00,
4334708210,0000070A,false,Rx,0,8,F4,D0,02,00,0A,00,00,00,
4334708448,0000012A,false,Rx,0,8,1B,00,D0,07,D0,07,D0,07,
4334709210,0000070A,false,Rx,0,8,F4,D0,02,00,0A,00,00,00,
4334710208,0000070A,false,Rx,0,8,F4,D0,02,00,0A,00,00,00,
4334711205,0000070A,false,Rx,0,8,F4,D0,02,00,0A,00,00,00,
4334711444,0000012A,false,Rx,0,8,1C,00,D0,07,D0,07,D0,07,
4334712236,0000070A,false,Rx,0,8,F4,D0,02,00,0A,00,00,00,
4334712485,00000152,false,Rx,0,8,01,00,00,00,00,00,00,00,
4334712715,00000172,false,Rx,0,8,01,00,D0,6A,D0,6A,D0,6A,
4334712912,0000020A,false,Rx,0,6,C9,11,09,12,42,00,00,00,
4334713159,0000014A,false,Rx,0,8,04,00,00,00,00,00,00,00,
4334713336,0000022A,false,Rx,0,4,00,00,08,00,00,00,00,00,
4334713584,00000232,false,Rx,0,8,52,00,00,00,00,00,00,00,
4334713821,00000401,false,Rx,0,8,0D,00,13,00,13,00,13,00,
4334714058,0000070A,false,Rx,0,8,F4,D0,02,00,0A,00,00,00,
4334714298,00000712,false,Rx,0,8,01,00,C4,09,C4,09,C4,09,
4334714556,0000012A,false,Rx,0,8,1D,00,D0,07,D0,07,D0,07,
4334714773,0000070A,false,Rx,0,8,F4,D0,02,00,0A,00,00,00,
4334715216,0000070A,false,Rx,0,8,F4,D0,02,00,0A,00,00,00,
4334716204,0000070A,false,Rx,0,8,F4,D0,02,00,0A,00,00,00,
4334716444,0000012A,false,Rx,0,8,1E,00,D0,07,D0,07,D0,07,
4334717210,0000070A,false,Rx,0,8,F4,D0,02,00,0A,00,00,00,
4334718208,0000070A,false,Rx,0,8,F4,D0,02,00,0A,00,00,00,
4334719204,0000070A,false,Rx,0,8,F4,D0,02,00,0A,00,00,00,
4334719443,0000012A,false,Rx,0,8,1F,00,D0,07,D0,07,D0,07,
4334720204,0000070A,false,Rx,0,8,F4,D0,02,00,0A,00,00,00,
4334721204,0000070A,false,Rx,0,8,F4,D0,02,00,0A,00,00,00,
4334722233,0000070A,false,Rx,0,8,F4,D0,02,00,0A,00,00,00,
4334722482,00000152,false,Rx,0,8,02,00,00,00,00,00,00,00,
4334722710,00000172,false,Rx,0,8,02,00,D0,6A,D0,6A,00,00,
4334722917,0000020A,false,Rx,0,6,C9,11,09,12,42,00,00,00,
4334723164,0000012A,false,Rx,0,8,20,00,00,00,00,00,00,00,
4334723404,0000014A,false,Rx,0,8,05,00,00,00,00,00,00,00,
4334723580,0000022A,false,Rx,0,4,00,00,08,00,00,00,00,00,
4334723827,00000232,false,Rx,0,8,52,00,00,00,00,00,00,00,
4334724064,00000401,false,Rx,0,8,0E,00,13,00,13,00,13,00,
4334724304,0000070A,false,Rx,0,8,F4,D0,02,00,0A,00,00,00,
4334724541,00000712,false,Rx,0,8,02,00,C4,09,C4,09,C4,09,
4334724781,0000070A,false,Rx,0,8,F4,D0,02,00,0A,00,00,00,
4334725224,0000070A,false,Rx,0,8,F4,D0,02,00,0A,00,00,00,
4334725473,0000012A,false,Rx,0,8,21,00,00,00,00,00,00,00,
4334726204,0000070A,false,Rx,0,8,F4,D0,02,00,0A,00,00,00,
4334727205,0000070A,false,Rx,0,8,F4,D0,02,00,0A,00,00,00,
4334727455,0000012A,false,Rx,0,8,22,00,00,00,00,00,00,00,
4334728206,0000070A,false,Rx,0,8,F4,D0,02,00,0A,00,00,00,
4334729205,0000070A,false,Rx,0,8,F4,D0,02,00,0A,00,00,00,
4334730203,0000070A,false,Rx,0,8,F4,D0,02,00,0A,00,00,00,
4334730453,0000012A,false,Rx,0,8,23,00,00,00,00,00,00,00,
4334731204,0000070A,false,Rx,0,8,F4,D0,02,00,0A,00,00,00,
4334732233,0000070A,false,Rx,0,8,F4,D0,02,00,0A,00,00,00,
4334732492,00000152,false,Rx,0,8,00,00,00,00,00,00,00,00,
4334732720,00000172,false,Rx,0,8,00,01,D0,6A,D0,6A,D0,6A,
4334732919,0000020A,false,Rx,0,6,C9,11,09,12,42,00,00,00,
4334733094,0000022A,false,Rx,0,4,00,00,08,00,00,00,00,00,
4334733344,00000232,false,Rx,0,8,52,00,00,00,00,00,00,00,
4334733581,0000012A,false,Rx,0,8,00,00,D0,07,D0,07,D0,07,
4334733818,00000401,false,Rx,0,8,0F,00,13,00,13,00,13,00,
4334734056,0000070A,false,Rx,0,8,F4,D0,02,00,0A,00,00,00,
4334734285,00000712,false,Rx,0,8,03,00,C4,09,C4,09,C4,09,
4334734533,0000070A,false,Rx,0,8,F4,D0,02,00,0A,00,00,00,
4334735202,0000070A,false,Rx,0,8,F4,D0,02,00,0A,00,00,00,
4334736200,0000070A,false,Rx,0,8,F4,D0,02,00,0A,00,00,00,
4334736440,0000012A,false,Rx,0,8,01,00,D0,07,D0,07,D0,07,
4334737201,0000070A,false,Rx,0,8,F4,D0,02,00,0A,00,00,00,
4334737460,0000070A,false,Rx,0,8,50,4A,01,00,00,00,00,00,
4334737575,0000024A,false,Rx,0,1,07,00,00,00,00,00,00,00,
4334737729,0000026A,false,Rx,0,3,00,00,00,00,00,00,00,00,
4334737946,00000682,false,Rx,0,6,00,40,40,00,04,06,00,00,
4334738183,0000070A,false,Rx,0,8,24,49,01,00,00,00,00,00,
4334738431,0000074A,false,Rx,0,8,03,00,00,00,00,00,00,00,
4334738669,0000070A,false,Rx,0,8,F4,D0,02,00,0A,00,00,00,
4334738907,0000076A,false,Rx,0,8,01,D0,07,00,D0,07,00,00,
4334739154,000007AA,false,Rx,0,8,03,03,00,03,00,03,00,00,
4334739384,0000012A,false,Rx,0,8,02,00,D0,07,D0,07,D0,07,
4334739622,0000070A,false,Rx,0,8,F4,D0,02,00,0A,00,00,00,
4334739859,0000078A,false,Rx,0,8,12,01,2F,0D,40,00,D8,04,
4334740210,0000070A,false,Rx,0,8,F4,D0,02,00,0A,00,00,00,
4334741206,0000070A,false,Rx,0,8,F4,D0,02,00,0A,00,00,00,
4334741445,0000012A,false,Rx,0,8,03,00,D0,07,D0,07,D0,07,
4334742237,0000070A,false,Rx,0,8,F4,D0,02,00,0A,00,00,00,
4334742486,00000152,false,Rx,0,8,01,00,00,00,00,00,00,00,
4334742714,00000172,false,Rx,0,8,01,00,D0,6A,D0,6A,D0,6A,
4334742915,0000020A,false,Rx,0,6,C9,11,09,12,42,00,00,00,
4334743162,0000014A,false,Rx,0,8,00,00,FF,7F,FF,7F,FF,7F,
4334743330,0000022A,false,Rx,0,4,00,00,08,00,00,00,00,00,
4334743577,00000232,false,Rx,0,8,52,00,00,00,00,00,00,00,
4334743814,00000401,false,Rx,0,8,10,00,13,00,13,00,13,00,
4334744062,0000070A,false,Rx,0,8,F4,D0,02,00,0A,00,00,00,
4334744291,00000712,false,Rx,0,8,04,00,C4,09,C4,09,C4,09,
4334744529,0000012A,false,Rx,0,8,04,00,D0,07,D0,07,D0,07,
4334744766,0000070A,false,Rx,0,8,F4,D0,02,00,0A,00,00,00,
4334745212,0000070A,false,Rx,0,8,F4,D0,02,00,0A,00,00,00,
4334746200,0000070A,false,Rx,0,8,F4,D0,02,00,0A,00,00,00,
4334747208,0000070A,false,Rx,0,8,F4,D0,02,00,0A,00,00,00,
4334747446,0000012A,false,Rx,0,8,05,00,D0,07,D0,07,D0,07,
4334748207,0000070A,false,Rx,0,8,F4,D0,02,00,0A,00,00,00,
4334749206,0000070A,false,Rx,0,8,F4,D0,02,00,0A,00,00,00,
4334750204,0000070A,false,Rx,0,8,F4,D0,02,00,0A,00,00,00,
4334750445,0000012A,false,Rx,0,8,06,00,D0,07,D0,07,D0,07,
4334751206,0000070A,false,Rx,0,8,F4,D0,02,00,0A,00,00,00,
4334752235,0000070A,false,Rx,0,8,F4,D0,02,00,0A,00,00,00,
4334752474,00000152,false,Rx,0,8,02,00,00,00,00,00,00,00,
4334752713,00000172,false,Rx,0,8,02,00,D0,6A,D0,6A,00,00,
4334752909,0000020A,false,Rx,0,6,C9,11,09,12,42,00,00,00,
4334753151,0000012A,false,Rx,0,8,07,00,D0,07,D0,07,D0,07,
4334753390,00000112,false,Rx,0,8,00,00,00,00,00,00,59,07,
4334753566,0000022A,false,Rx,0,4,00,00,08,00,00,00,00,00,
4334753813,00000232,false,Rx,0,8,52,00,00,00,00,00,00,00,
4334754040,00000272,false,Rx,0,7,00,00,00,00,00,00,00,00,
4334754196,000002B2,false,Rx,0,3,00,00,00,00,00,00,00,00,
4334754434,00000392,false,Rx,0,8,00,00,00,0C,F0,3F,00,04,
4334754695,000003B2,false,Rx,0,8,13,00,10,27,00,00,00,00,
4334754922,00000401,false,Rx,0,8,11,00,13,00,13,00,13,00,
4334755058,00000432,false,Rx,0,2,0A,00,00,00,00,00,00,00,
4334755297,0000070A,false,Rx,0,8,F4,D0,02,00,0A,00,00,00,
4334755534,0000012A,false,Rx,0,8,08,00,D0,07,D0,07,D0,07,
4334755772,0000070A,false,Rx,0,8,F4,D0,02,00,0A,00,00,00,
4334756010,00000712,false,Rx,0,8,05,28,C4,09,00,00,00,00,
4334756258,0000070A,false,Rx,0,8,F4,D0,02,00,0A,00,00,00,
4334756405,00000792,false,Rx,0,3,00,00,00,00,00,00,00,00,
4334756651,0000070A,false,Rx,0,8,F4,D0,02,00,0A,00,00,00,
4334757207,0000070A,false,Rx,0,8,F4,D0,02,00,0A,00,00,00,
4334758205,0000070A,false,Rx,0,8,F4,D0,02,00,0A,00,00,00,
4334758445,0000012A,false,Rx,0,8,09,00,D0,07,D0,07,D0,07,
4334759206,0000070A,false,Rx,0,8,F4,D0,02,00,0A,00,00,00,
4334760206,0000070A,false,Rx,0,8,F4,D0,02,00,0A,00,00,00,
4334761202,0000070A,false,Rx,0,8,F4,D0,02,00,0A,00,00,00,
4334761441,0000012A,false,Rx,0,8,0A,00,D0,07,D0,07,D0,07,
4334762233,0000070A,false,Rx,0,8,F4,D0,02,00,0A,00,00,00,
4334762431,0000020A,false,Rx,0,6,C9,11,09,12,42,00,00,00,
4334762669,0000014A,false,Rx,0,8,01,00,FF,7F,FF,7F,FF,7F,
4334762927,00000152,false,Rx,0,8,00,00,00,00,00,00,00,00,
4334763160,00000172,false,Rx,0,8,00,01,D0,6A,D0,6A,D0,6A,
4334763328,0000022A,false,Rx,0,4,00,00,08,00,00,00,00,00,
4334763575,00000232,false,Rx,0,8,52,00,00,00,00,00,00,00,
4334763812,00000401,false,Rx,0,8,12,00,13,00,13,00,13,00,
4334764051,0000070A,false,Rx,0,8,F4,D0,02,00,0A,00,00,00,
4334764289,00000712,false,Rx,0,8,00,00,C4,09,C4,09,C4,09,
4334764527,0000012A,false,Rx,0,8,0B,00,D0,07,D0,07,D0,07,
4334764764,0000070A,false,Rx,0,8,F4,D0,02,00,0A,00,00,00,
4334765208,0000070A,false,Rx,0,8,F4,D0,02,00,0A,00,00,00,
4334766206,0000070A,false,Rx,0,8,F4,D0,02,00,0A,00,00,00,
4334766436,0000012A,false,Rx,0,8,0C,00,D0,07,D0,07,D0,07,
4334767207,0000070A,false,Rx,0,8,F4,D0,02,00,0A,00,00,00,
4334768205,0000070A,false,Rx,0,8,F4,D0,02,00,0A,00,00,00,
4334769203,0000070A,false,Rx,0,8,F4,D0,02,00,0A,00,00,00,
4334769442,0000012A,false,Rx,0,8,0D,00,D0,07,D0,07,D0,07,
4334770204,0000070A,false,Rx,0,8,F4,D0,02,00,0A,00,00,00,
4334771202,0000070A,false,Rx,0,8,F4,D0,02,00,0A,00,00,00,
4334772231,0000070A,false,Rx,0,8,F4,D0,02,00,0A,00,00,00,
4334772481,00000152,false,Rx,0,8,01,00,00,00,00,00,00,00,
4334772720,00000172,false,Rx,0,8,01,00,D0,6A,D0,6A,D0,6A,
4334772916,0000020A,false,Rx,0,6,C9,11,09,12,42,00,00,00,
4334773153,0000012A,false,Rx,0,8,0E,00,D0,07,D0,07,D0,07,
4334773399,0000014A,false,Rx,0,8,02,00,FF,7F,FF,7F,FF,7F,
4334773565,0000022A,false,Rx,0,4,00,00,08,00,00,00,00,00,
4334773811,00000232,false,Rx,0,8,52,00,00,00,00,00,00,00,
4334774060,00000401,false,Rx,0,8,13,00,13,00,13,00,13,00,
4334774299,0000070A,false,Rx,0,8,F4,D0,02,00,0A,00,00,00,
