Time Stamp,ID,Extended,Dir,Bus,LEN,D1,D2,D3,D4,D5,D6,D7,D8
146890972,0000070A,false,Rx,1,8,F4,D0,02,00,0A,00,00,00,
146891966,0000070A,false,Rx,1,8,F4,D0,02,00,0A,00,00,00,
146892950,00000232,false,Rx,1,8,5B,00,00,00,00,00,00,00,
146893197,0000012A,false,Rx,1,8,1F,00,D0,07,D0,07,D0,07,
146893441,00000152,false,Rx,1,8,02,00,00,00,00,00,00,00,
146893675,00000172,false,Rx,1,8,02,00,D0,6A,D0,6A,00,00,
146893920,00000401,false,Rx,1,8,0E,00,2D,00,2D,00,2D,00,
146894155,0000070A,false,Rx,1,8,F4,D0,02,00,0A,00,00,00,
146894390,00000712,false,Rx,1,8,02,00,C4,09,C4,09,C4,09,
146894634,0000070A,false,Rx,1,8,F4,D0,02,00,0A,00,00,00,
146895010,0000070A,false,Rx,1,8,F4,D0,02,00,0A,00,00,00,
146895993,0000070A,false,Rx,1,8,F4,D0,02,00,0A,00,00,00,
146896198,0000020A,false,Rx,1,6,C9,11,09,12,42,00,00,00,
146896443,0000012A,false,Rx,1,8,20,00,00,00,00,00,00,00,
146896688,0000014A,false,Rx,1,8,05,00,00,00,00,00,00,00,
146896861,0000022A,false,Rx,1,4,00,00,08,00,00,00,00,00,
146897102,0000070A,false,Rx,1,8,F4,D0,02,00,0A,00,00,00,
146897964,0000070A,false,Rx,1,8,F4,D0,02,00,0A,00,00,00,
146898524,0000076C,false,Rx,1,8,78,00,00,5E,A0,0D,00,00,
146898970,0000070A,false,Rx,1,8,F4,D0,02,00,0A,00,00,00,
146899218,0000012A,false,Rx,1,8,21,00,00,00,00,00,00,00,
146899968,0000070A,false,Rx,1,8,F4,D0,02,00,0A,00,00,00,
146900963,0000070A,false,Rx,1,8,F4,D0,02,00,0A,00,00,00,
146901209,0000012A,false,Rx,1,8,22,00,00,00,00,00,00,00,
146901969,0000070A,false,Rx,1,8,F4,D0,02,00,0A,00,00,00,
146902963,00000232,false,Rx,1,8,5B,00,00,00,00,00,00,00,
146903210,00000152,false,Rx,1,8,00,00,00,00,00,00,00,00,
146903444,00000172,false,Rx,1,8,00,01,D0,6A,D0,6A,D0,6A,
146903688,00000401,false,Rx,1,8,0F,00,2D,00,2D,00,2D,00,
146903934,0000070A,false,Rx,1,8,F4,D0,02,00,0A,00,00,00,
146904179,0000012A,false,Rx,1,8,23,00,00,00,00,00,00,00,
146904403,000003D2,false,Rx,1,8,65,B3,02,00,AD,2F,03,00,
146904648,000003F2,false,Rx,1,8,02,18,77,00,00,00,00,00,
146904893,0000070A,false,Rx,1,8,F4,D0,02,00,0A,00,00,00,
146905118,00000712,false,Rx,1,8,03,00,C4,09,C4,09,C4,09,
146905365,0000070A,false,Rx,1,8,F4,D0,02,00,0A,00,00,00,
146906004,0000070A,false,Rx,1,8,F4,D0,02,00,0A,00,00,00,
146906198,0000020A,false,Rx,1,6,C9,11,09,12,42,00,00,00,
146906373,0000022A,false,Rx,1,4,00,00,08,00,00,00,00,00,
146906971,0000070A,false,Rx,1,8,F4,D0,02,00,0A,00,00,00,
146907203,0000012A,false,Rx,1,8,00,00,D0,07,D0,07,D0,07,
146907963,0000070A,false,Rx,1,8,F4,D0,02,00,0A,00,00,00,
146908523,0000076C,false,Rx,1,8,79,00,00,00,00,00,00,00,
146908969,0000070A,false,Rx,1,8,F4,D0,02,00,0A,00,00,00,
146909965,0000070A,false,Rx,1,8,F4,D0,02,00,0A,00,00,00,
146910201,0000012A,false,Rx,1,8,01,00,D0,07,D0,07,D0,07,
146910972,0000070A,false,Rx,1,8,F4,D0,02,00,0A,00,00,00,
146911370,0000074A,false,Rx,1,8,07,00,00,00,00,00,00,00,
146911483,0000024A,false,Rx,1,1,07,00,00,00,00,00,00,00,
146911636,0000026A,false,Rx,1,3,00,00,00,00,00,00,00,00,
146911849,00000682,false,Rx,1,6,00,44,45,01,04,06,00,00,
146912082,0000070A,false,Rx,1,8,F4,D0,02,00,0A,00,00,00,
146912338,0000076A,false,Rx,1,8,00,00,00,00,00,00,00,00,
146912573,000007AA,false,Rx,1,8,06,BF,20,01,80,33,F3,00,
146912807,0000078A,false,Rx,1,8,D2,01,A7,12,60,00,00,00,
146913051,00000232,false,Rx,1,8,5B,00,00,00,00,00,00,00,
146913289,0000012A,false,Rx,1,8,02,00,D0,07,D0,07,D0,07,
146913534,00000152,false,Rx,1,8,01,00,00,00,00,00,00,00,
146913768,00000172,false,Rx,1,8,01,00,D0,6A,D0,6A,D0,6A,
146914013,00000401,false,Rx,1,8,10,00,2D,00,2D,00,2D,00,
146914259,0000070A,false,Rx,1,8,F4,D0,02,00,0A,00,00,00,
146914493,000003AA,false,Rx,1,8,00,40,18,09,20,00,00,00,
146914738,0000070A,false,Rx,1,8,F4,D0,02,00,0A,00,00,00,
146914973,00000712,false,Rx,1,8,04,00,C4,09,C4,09,C4,09,
146915229,0000012A,false,Rx,1,8,03,00,D0,07,D0,07,D0,07,
146915444,0000070A,false,Rx,1,8,F4,D0,02,00,0A,00,00,00,
146916001,0000070A,false,Rx,1,8,F4,D0,02,00,0A,00,00,00,
146916197,0000020A,false,Rx,1,6,C9,11,09,12,42,00,00,00,
146916441,0000014A,false,Rx,1,8,00,00,FF,7F,FF,7F,FF,7F,
146916615,0000022A,false,Rx,1,4,00,00,08,00,00,00,00,00,
146916970,0000070A,false,Rx,1,8,F4,D0,02,00,0A,00,00,00,
146917972,0000070A,false,Rx,1,8,F4,D0,02,00,0A,00,00,00,
146918208,0000012A,false,Rx,1,8,04,00,D0,07,D0,07,D0,07,
146918514,0000076C,false,Rx,1,8,7A,01,09,00,00,00,00,00,
146918970,0000070A,false,Rx,1,8,F4,D0,02,00,0A,00,00,00,
146919966,0000070A,false,Rx,1,8,F4,D0,02,00,0A,00,00,00,
146920961,0000070A,false,Rx,1,8,F4,D0,02,00,0A,00,00,00,
146921207,0000012A,false,Rx,1,8,05,00,D0,07,D0,07,D0,07,
146921967,0000070A,false,Rx,1,8,F4,D0,02,00,0A,00,00,00,
146922961,00000232,false,Rx,1,8,5B,00,00,00,00,00,00,00,
146923208,00000152,false,Rx,1,8,02,00,00,00,00,00,00,00,
146923442,00000172,false,Rx,1,8,02,00,D0,6A,D0,6A,00,00,
146923687,00000401,false,Rx,1,8,11,00,2D,00,2D,00,2D,00,
146923922,0000070A,false,Rx,1,8,F4,D0,02,00,0A,00,00,00,
146924166,0000012A,false,Rx,1,8,06,00,D0,07,D0,07,D0,07,
146924402,0000070A,false,Rx,1,8,F4,D0,02,00,0A,00,00,00,
146924647,00000712,false,Rx,1,8,05,28,C4,09,00,00,00,00,
146924972,0000070A,false,Rx,1,8,F4,D0,02,00,0A,00,00,00,
146925996,0000070A,false,Rx,1,8,F4,D0,02,00,0A,00,00,00,
146926192,0000020A,false,Rx,1,6,C9,11,09,12,42,00,00,00,
146926425,0000012A,false,Rx,1,8,07,00,D0,07,D0,07,D0,07,
146926599,0000022A,false,Rx,1,4,00,00,08,00,00,00,00,00,
146926975,0000070A,false,Rx,1,8,F4,D0,02,00,0A,00,00,00,
146927973,0000070A,false,Rx,1,8,F4,D0,02,00,0A,00,00,00,
146928573,0000076C,false,Rx,1,8,01,10,10,17,20,16,25,00,
146928968,0000070A,false,Rx,1,8,F4,D0,02,00,0A,00,00,00,
146929203,0000012A,false,Rx,1,8,08,00,D0,07,D0,07,D0,07,
146929966,0000070A,false,Rx,1,8,F4,D0,02,00,0A,00,00,00,
146930637,000002C4,false,Rx,1,8,AD,40,81,02,00,00,00,00,
146930902,00000204,false,Rx,1,8,01,00,00,00,00,00,00,01,
146931136,0000070A,false,Rx,1,8,F4,D0,02,00,0A,00,00,00,
146931342,00000264,false,Rx,1,6,46,00,00,00,E0,01,00,00,
146931621,00000224,false,Rx,1,8,00,04,00,00,00,00,10,08,
146931977,0000070A,false,Rx,1,8,F4,D0,02,00,0A,00,00,00,
146932222,0000012A,false,Rx,1,8,09,00,D0,07,D0,07,D0,07,
146932962,00000232,false,Rx,1,8,5B,00,00,00,00,00,00,00,
146933219,00000152,false,Rx,1,8,00,00,00,00,00,00,00,00,
146933448,00000172,false,Rx,1,8,00,01,D0,6A,D0,6A,D0,6A,
146933692,00000401,false,Rx,1,8,12,00,2D,00,2D,00,2D,00,
146933927,0000070A,false,Rx,1,8,F4,D0,02,00,0A,00,00,00,
146934161,00000712,false,Rx,1,8,00,00,C4,09,C4,09,C4,09,
146934407,0000070A,false,Rx,1,8,F4,D0,02,00,0A,00,00,00,
146934965,0000070A,false,Rx,1,8,F4,D0,02,00,0A,00,00,00,
146935211,0000012A,false,Rx,1,8,0A,00,D0,07,D0,07,D0,07,
146935990,0000070A,false,Rx,1,8,F4,D0,02,00,0A,00,00,00,
146936197,0000020A,false,Rx,1,6,C9,11,09,12,42,00,00,00,
146936440,0000014A,false,Rx,1,8,01,00,FF,7F,FF,7F,FF,7F,
146936604,0000022A,false,Rx,1,4,00,00,08,00,00,00,00,00,
146936970,0000070A,false,Rx,1,8,F4,D0,02,00,0A,00,00,00,
146937967,0000070A,false,Rx,1,8,F4,D0,02,00,0A,00,00,00,
146938203,0000012A,false,Rx,1,8,0B,00,D0,07,D0,07,D0,07,
146938529,0000076C,false,Rx,1,8,02,02,03,02,04,00,01,00,
146938965,0000070A,false,Rx,1,8,F4,D0,02,00,0A,00,00,00,
146939961,0000070A,false,Rx,1,8,F4,D0,02,00,0A,00,00,00,
146940208,0000012A,false,Rx,1,8,0C,00,D0,07,D0,07,D0,07,
146940969,0000070A,false,Rx,1,8,F4,D0,02,00,0A,00,00,00,
146941973,0000070A,false,Rx,1,8,F4,D0,02,00,0A,00,00,00,
146942956,00000232,false,Rx,1,8,5B,00,00,00,00,00,00,00,
146943192,0000012A,false,Rx,1,8,0D,00,D0,07,D0,07,D0,07,
146943437,00000152,false,Rx,1,8,01,00,00,00,00,00,00,00,
146943683,00000112,false,Rx,1,8,00,00,00,00,00,00,59,07,
146943909,00000172,false,Rx,1,8,01,00,D0,6A,D0,6A,D0,6A,
146944143,00000272,false,Rx,1,7,00,00,00,00,00,00,00,00,
146944297,000002B2,false,Rx,1,3,00,00,00,00,00,00,00,00,
146944540,00000392,false,Rx,1,8,00,00,72,0D,F4,7F,04,04,
146944786,000003B2,false,Rx,1,8,28,00,10,27,00,00,00,00,
146945020,00000401,false,Rx,1,8,13,00,2D,00,2D,00,2D,00,
146945153,00000432,false,Rx,1,2,1C,00,00,00,00,00,00,00,
146945399,0000070A,false,Rx,1,8,F4,D0,02,00,0A,00,00,00,
146945634,00000712,false,Rx,1,8,01,00,C4,09,C4,09,C4,09,
146945869,0000070A,false,Rx,1,8,F4,D0,02,00,0A,00,00,00,
146946113,0000012A,false,Rx,1,8,0E,00,D0,07,D0,07,D0,07,
146946309,0000020A,false,Rx,1,6,C9,11,09,12,42,00,00,00,
146946553,0000014A,false,Rx,1,8,02,00,FF,7F,FF,7F,FF,7F,
146946726,0000022A,false,Rx,1,4,00,00,08,00,00,00,00,00,
146946961,0000070A,false,Rx,1,8,F4,D0,02,00,0A,00,00,00,
146947114,00000792,false,Rx,1,3,00,00,00,00,00,00,00,00,
146947358,0000070A,false,Rx,1,8,F4,D0,02,00,0A,00,00,00,
146947615,0000070A,false,Rx,1,8,F4,D0,02,00,0A,00,00,00,
146947981,0000070A,false,Rx,1,8,F4,D0,02,00,0A,00,00,00,
146948511,0000076C,false,Rx,1,8,03,60,60,4A,4A,66,68,00,
146948967,0000070A,false,Rx,1,8,F4,D0,02,00,0A,00,00,00,
146949203,0000012A,false,Rx,1,8,0F,00,D0,07,D0,07,D0,07,
146949968,0000070A,false,Rx,1,8,F4,D0,02,00,0A,00,00,00,
146950962,0000070A,false,Rx,1,8,F4,D0,02,00,0A,00,00,00,
146951208,0000012A,false,Rx,1,8,10,00,D0,07,D0,07,D0,07,
146951968,0000070A,false,Rx,1,8,F4,D0,02,00,0A,00,00,00,
146952962,0000070A,false,Rx,1,8,F4,D0,02,00,0A,00,00,00,
146953209,00000152,false,Rx,1,8,02,00,00,00,00,00,00,00,
146953443,00000172,false,Rx,1,8,02,00,D0,6A,D0,6A,00,00,
146953689,00000232,false,Rx,1,8,5B,00,00,00,00,00,00,00,
146953935,00000401,false,Rx,1,8,14,00,2A,00,2A,00,2A,00,
146954171,0000012A,false,Rx,1,8,11,00,D0,07,D0,07,D0,07,
146954415,0000070A,false,Rx,1,8,F4,D0,02,00,0A,00,00,00,
146954641,00000712,false,Rx,1,8,02,00,C4,09,C4,09,C4,09,
146954966,0000070A,false,Rx,1,8,F4,D0,02,00,0A,00,00,00,
146955997,0000070A,false,Rx,1,8,F4,D0,02,00,0A,00,00,00,
146956193,0000020A,false,Rx,1,6,C9,11,09,12,42,00,00,00,
146956366,0000022A,false,Rx,1,4,00,00,08,00,00,00,00,00,
146956964,0000070A,false,Rx,1,8,F4,D0,02,00,0A,00,00,00,
146957209,0000012A,false,Rx,1,8,12,00,D0,07,D0,07,D0,07,
146957963,0000070A,false,Rx,1,8,F4,D0,02,00,0A,00,00,00,
146958513,0000076C,false,Rx,1,8,04,0C,17,00,07,00,03,00,
146958959,0000070A,false,Rx,1,8,F4,D0,02,00,0A,00,00,00,
146959964,0000070A,false,Rx,1,8,F4,D0,02,00,0A,00,00,00,
146960199,0000012A,false,Rx,1,8,13,00,D0,07,D0,07,D0,07,
146960970,0000070A,false,Rx,1,8,F4,D0,02,00,0A,00,00,00,
146961964,0000070A,false,Rx,1,8,F4,D0,02,00,0A,00,00,00,
146962947,00000232,false,Rx,1,8,5B,00,00,00,00,00,00,00,
146963194,0000012A,false,Rx,1,8,14,00,D0,07,D0,07,D0,07,
146963438,00000152,false,Rx,1,8,00,00,00,00,00,00,00,00,
146963685,00000172,false,Rx,1,8,00,01,D0,6A,D0,6A,D0,6A,
146963920,00000401,false,Rx,1,8,15,00,2A,00,2A,00,2A,00,
146964154,0000070A,false,Rx,1,8,F4,D0,02,00,0A,00,00,00,
146964390,00000712,false,Rx,1,8,03,00,C4,09,C4,09,C4,09,
146964625,0000070A,false,Rx,1,8,F4,D0,02,00,0A,00,00,00,
146964981,0000070A,false,Rx,1,8,F4,D0,02,00,0A,00,00,00,
146965216,0000012A,false,Rx,1,8,15,00,D0,07,D0,07,D0,07,
146965995,0000070A,false,Rx,1,8,F4,D0,02,00,0A,00,00,00,
146966191,0000020A,false,Rx,1,6,C9,11,09,12,42,00,00,00,
146966435,0000014A,false,Rx,1,8,03,00,00,00,00,00,00,00,
146966609,0000022A,false,Rx,1,4,00,00,08,00,00,00,00,00,
146966964,0000070A,false,Rx,1,8,F4,D0,02,00,0A,00,00,00,
146967962,0000070A,false,Rx,1,8,F4,D0,02,00,0A,00,00,00,
146968197,0000012A,false,Rx,1,8,16,00,D0,07,D0,07,D0,07,
146968513,0000076C,false,Rx,1,8,05,AD,9C,36,37,DC,2E,00,
146968959,0000070A,false,Rx,1,8,F4,D0,02,00,0A,00,00,00,
146969966,0000070A,false,Rx,1,8,F4,D0,02,00,0A,00,00,00,
146970960,0000070A,false,Rx,1,8,F4,D0,02,00,0A,00,00,00,
146971196,0000012A,false,Rx,1,8,17,00,D0,07,D0,07,D0,07,
146971966,0000070A,false,Rx,1,8,F4,D0,02,00,0A,00,00,00,
146972950,00000232,false,Rx,1,8,5B,00,00,00,00,00,00,00,
146973197,00000152,false,Rx,1,8,01,00,00,00,00,00,00,00,
146973431,00000172,false,Rx,1,8,01,00,D0,6A,D0,6A,D0,6A,
146973675,00000401,false,Rx,1,8,16,00,2A,00,2A,00,2A,00,
146973915,0000070A,false,Rx,1,8,F4,D0,02,00,0A,00,00,00,
146974149,0000012A,false,Rx,1,8,18,00,D0,07,D0,07,D0,07,
146974394,0000070A,false,Rx,1,8,F4,D0,02,00,0A,00,00,00,
146974630,00000712,false,Rx,1,8,04,00,C4,09,C4,09,C4,09,
146974965,0000070A,false,Rx,1,8,F4,D0,02,00,0A,00,00,00,
146975993,0000070A,false,Rx,1,8,F4,D0,02,00,0A,00,00,00,
146976189,0000020A,false,Rx,1,6,C9,11,09,12,42,00,00,00,
146976423,0000012A,false,Rx,1,8,19,00,D0,07,D0,07,D0,07,
146976596,0000022A,false,Rx,1,4,00,00,08,00,00,00,00,00,
146976972,0000070A,false,Rx,1,8,F4,D0,02,00,0A,00,00,00,
146977960,0000070A,false,Rx,1,8,F4,D0,02,00,0A,00,00,00,
146978510,0000076C,false,Rx,1,8,0A,22,40,00,64,00,80,00,
146978966,0000070A,false,Rx,1,8,F4,D0,02,00,0A,00,00,00,
146979203,0000012A,false,Rx,1,8,1A,00,D0,07,D0,07,D0,07,
146979965,0000070A,false,Rx,1,8,F4,D0,02,00,0A,00,00,00,
146980959,0000070A,false,Rx,1,8,F4,D0,02,00,0A,00,00,00,
146981961,0000070A,false,Rx,1,8,F4,D0,02,00,0A,00,00,00,
146982206,0000012A,false,Rx,1,8,1B,00,D0,07,D0,07,D0,07,
146982957,00000232,false,Rx,1,8,5B,00,00,00,00,00,00,00,
146983203,00000152,false,Rx,1,8,02,00,00,00,00,00,00,00,
146983437,00000172,false,Rx,1,8,02,00,D0,6A,D0,6A,00,00,
146983681,00000401,false,Rx,1,8,17,00,2A,00,2A,00,2A,00,
146983923,0000070A,false,Rx,1,8,F4,D0,02,00,0A,00,00,00,
146984158,00000712,false,Rx,1,8,05,28,C4,09,00,00,00,00,
146984403,0000070A,false,Rx,1,8,F4,D0,02,00,0A,00,00,00,
146984962,0000070A,false,Rx,1,8,F4,D0,02,00,0A,00,00,00,
146985207,0000012A,false,Rx,1,8,1C,00,D0,07,D0,07,D0,07,
146985992,0000070A,false,Rx,1,8,F4,D0,02,00,0A,00,00,00,
146986188,0000020A,false,Rx,1,6,C9,11,09,12,42,00,00,00,
146986432,0000014A,false,Rx,1,8,04,00,00,00,00,00,00,00,
146986606,0000022A,false,Rx,1,4,00,00,08,00,00,00,00,00,
146986971,0000070A,false,Rx,1,8,F4,D0,02,00,0A,00,00,00,
146987959,0000070A,false,Rx,1,8,F4,D0,02,00,0A,00,00,00,
146988194,0000012A,false,Rx,1,8,1D,00,D0,07,D0,07,D0,07,
146988510,0000076C,false,Rx,1,8,0B,14,00,D0,20,FF,0F,00,
146988967,0000070A,false,Rx,1,8,F4,D0,02,00,0A,00,00,00,
146989964,0000070A,false,Rx,1,8,F4,D0,02,00,0A,00,00,00,
146990199,0000012A,false,Rx,1,8,1E,00,D0,07,D0,07,D0,07,
146990960,0000070A,false,Rx,1,8,F4,D0,02,00,0A,00,00,00,
146991964,0000070A,false,Rx,1,8,F4,D0,02,00,0A,00,00,00,
146992947,00000232,false,Rx,1,8,5B,00,00,00,00,00,00,00,
146993194,0000012A,false,Rx,1,8,1F,00,D0,07,D0,07,D0,07,
146993438,00000152,false,Rx,1,8,00,00,00,00,00,00,00,00,
146993672,00000172,false,Rx,1,8,00,01,D0,6A,D0,6A,D0,6A,
146993918,00000401,false,Rx,1,8,18,00,2A,00,2A,00,2A,00,
146994158,0000070A,false,Rx,1,8,F4,D0,02,00,0A,00,00,00,
146994395,00000712,false,Rx,1,8,00,00,C4,09,C4,09,C4,09,
146994630,0000070A,false,Rx,1,8,F4,D0,02,00,0A,00,00,00,
146994985,0000070A,false,Rx,1,8,F4,D0,02,00,0A,00,00,00,
146995992,0000070A,false,Rx,1,8,F4,D0,02,00,0A,00,00,00,
146996188,0000020A,false,Rx,1,6,C9,11,09,12,42,00,00,00,
146996442,0000012A,false,Rx,1,8,20,00,00,00,00,00,00,00,
146996686,0000014A,false,Rx,1,8,05,00,00,00,00,00,00,00,
146996861,0000022A,false,Rx,1,4,00,00,08,00,00,00,00,00,
146997094,0000070A,false,Rx,1,8,F4,D0,02,00,0A,00,00,00,
146997966,0000070A,false,Rx,1,8,F4,D0,02,00,0A,00,00,00,
146998504,0000076C,false,Rx,1,8,0C,00,00,00,40,20,40,00,
146998960,0000070A,false,Rx,1,8,F4,D0,02,00,0A,00,00,00,
146999207,0000012A,false,Rx,1,8,21,00,00,00,00,00,00,00,
146999957,0000070A,false,Rx,1,8,F4,D0,02,00,0A,00,00,00,
147000963,0000070A,false,Rx,1,8,F4,D0,02,00,0A,00,00,00,
147001209,0000012A,false,Rx,1,8,22,00,00,00,00,00,00,00,
147001959,0000070A,false,Rx,1,8,F4,D0,02,00,0A,00,00,00,
147002953,00000232,false,Rx,1,8,5B,00,00,00,00,00,00,00,
147003200,00000152,false,Rx,1,8,01,00,00,00,00,00,00,00,
147003434,00000172,false,Rx,1,8,01,00,D0,6A,D0,6A,D0,6A,
147003678,00000401,false,Rx,1,8,19,00,2A,00,2A,00,2A,00,
147003924,0000070A,false,Rx,1,8,F4,D0,02,00,0A,00,00,00,
147004162,0000012A,false,Rx,1,8,23,00,00,00,00,00,00,00,
147004408,0000070A,false,Rx,1,8,F4,D0,02,00,0A,00,00,00,
147004643,00000712,false,Rx,1,8,01,00,C4,09,C4,09,C4,09,
147004958,0000070A,false,Rx,1,8,F4,D0,02,00,0A,00,00,00,
147005992,0000070A,false,Rx,1,8,F4,D0,02,00,0A,00,00,00,
147006193,0000020A,false,Rx,1,6,C9,11,09,12,42,00,00,00,
147006366,0000022A,false,Rx,1,4,00,00,08,00,00,00,00,00,
147006964,0000070A,false,Rx,1,8,F4,D0,02,00,0A,00,00,00,
147007199,0000012A,false,Rx,1,8,00,00,D0,07,D0,07,D0,07,
147007959,0000070A,false,Rx,1,8,F4,D0,02,00,0A,00,00,00,
147008513,0000076C,false,Rx,1,8,0D,04,32,8F,BB,28,00,00,
147008959,0000070A,false,Rx,1,8,F4,D0,02,00,0A,00,00,00,
147009964,0000070A,false,Rx,1,8,F4,D0,02,00,0A,00,00,00,
147010199,0000012A,false,Rx,1,8,01,00,D0,07,D0,07,D0,07,
147010960,0000070A,false,Rx,1,8,F4,D0,02,00,0A,00,00,00,
147011367,0000074A,false,Rx,1,8,00,00,00,00,00,00,00,00,
147011481,0000024A,false,Rx,1,1,07,00,00,00,00,00,00,00,
147011633,0000026A,false,Rx,1,3,00,00,00,00,00,00,00,00,
147011835,00000682,false,Rx,1,6,00,44,45,01,04,06,00,00,
147012079,0000070A,false,Rx,1,8,F4,D0,02,00,0A,00,00,00,
147012313,0000076A,false,Rx,1,8,01,D0,07,00,D0,07,00,00,
147012557,000007AA,false,Rx,1,8,00,FC,CF,F0,00,00,00,0F,
147012791,0000078A,false,Rx,1,8,D2,01,A7,12,70,00,A4,04,
147013037,00000232,false,Rx,1,8,5B,00,00,00,00,00,00,00,
147013272,0000012A,false,Rx,1,8,02,00,D0,07,D0,07,D0,07,
147013516,00000152,false,Rx,1,8,02,00,00,00,00,00,00,00,
147013752,00000172,false,Rx,1,8,02,00,D0,6A,D0,6A,00,00,
147013996,00000401,false,Rx,1,8,1A,00,2A,00,2A,00,2A,00,
147014243,0000070A,false,Rx,1,8,F4,D0,02,00,0A,00,00,00,
147014477,00000712,false,Rx,1,8,02,00,C4,09,C4,09,C4,09,
147014712,0000070A,false,Rx,1,8,F4,D0,02,00,0A,00,00,00,
147014967,0000070A,false,Rx,1,8,F4,D0,02,00,0A,00,00,00,
147015203,0000012A,false,Rx,1,8,03,00,D0,07,D0,07,D0,07,
147015993,0000070A,false,Rx,1,8,F4,D0,02,00,0A,00,00,00,
119196,0000020A,false,Rx,1,6,C9,11,09,12,42,00,00,00,
119440,0000014A,false,Rx,1,8,00,00,FF,7F,FF,7F,FF,7F,
119603,0000022A,false,Rx,1,4,00,00,08,00,00,00,00,00,
119969,0000070A,false,Rx,1,8,F4,D0,02,00,0A,00,00,00,
120962,0000070A,false,Rx,1,8,F4,D0,02,00,0A,00,00,00,
121199,0000012A,false,Rx,1,8,04,00,D0,07,D0,07,D0,07,
121511,0000076C,false,Rx,1,8,0E,E0,DB,39,97,02,00,00,
121957,0000070A,false,Rx,1,8,F4,D0,02,00,0A,00,00,00,
122962,0000070A,false,Rx,1,8,F4,D0,02,00,0A,00,00,00,
123957,0000070A,false,Rx,1,8,F4,D0,02,00,0A,00,00,00,
124203,0000012A,false,Rx,1,8,05,00,D0,07,D0,07,D0,07,
124963,0000070A,false,Rx,1,8,F4,D0,02,00,0A,00,00,00,
125958,00000232,false,Rx,1,8,5B,00,00,00,00,00,00,00,
126204,00000152,false,Rx,1,8,00,00,00,00,00,00,00,00,
126438,00000172,false,Rx,1,8,00,01,D0,6A,D0,6A,D0,6A,
126682,00000401,false,Rx,1,8,1B,00,2A,00,2A,00,2A,00,
126917,0000070A,false,Rx,1,8,F4,D0,02,00,0A,00,00,00,
127162,0000012A,false,Rx,1,8,06,00,D0,07,D0,07,D0,07,
127403,0000070A,false,Rx,1,8,F4,D0,02,00,0A,00,00,00,
127629,00000712,false,Rx,1,8,03,00,C4,09,C4,09,C4,09,
127964,0000070A,false,Rx,1,8,F4,D0,02,00,0A,00,00,00,
128988,0000070A,false,Rx,1,8,F4,D0,02,00,0A,00,00,00,
129184,0000020A,false,Rx,1,6,C9,11,09,12,42,00,00,00,
129422,0000012A,false,Rx,1,8,07,00,D0,07,D0,07,D0,07,
129595,0000022A,false,Rx,1,4,00,00,08,00,00,00,00,00,
129971,0000070A,false,Rx,1,8,F4,D0,02,00,0A,00,00,00,
130965,0000070A,false,Rx,1,8,F4,D0,02,00,0A,00,00,00,
131506,0000076C,false,Rx,1,8,94,23,40,00,64,00,80,00,
131963,0000070A,false,Rx,1,8,F4,D0,02,00,0A,00,00,00,
132199,0000012A,false,Rx,1,8,08,00,D0,07,D0,07,D0,07,
132960,0000070A,false,Rx,1,8,F4,D0,02,00,0A,00,00,00,
133633,000002C4,false,Rx,1,8,12,00,00,5F,C0,0D,00,00,
133887,00000204,false,Rx,1,8,01,00,00,00,00,00,00,01,
134131,0000070A,false,Rx,1,8,F4,D0,02,00,0A,00,00,00,
134336,00000264,false,Rx,1,6,47,00,00,00,E0,01,00,00,
134611,00000224,false,Rx,1,8,00,04,00,00,00,00,10,08,
134977,0000070A,false,Rx,1,8,F4,D0,02,00,0A,00,00,00,
135213,0000012A,false,Rx,1,8,09,00,D0,07,D0,07,D0,07,
135962,00000232,false,Rx,1,8,5B,00,00,00,00,00,00,00,
136208,00000152,false,Rx,1,8,01,00,00,00,00,00,00,00,
136442,00000172,false,Rx,1,8,01,00,D0,6A,D0,6A,D0,6A,
136687,00000401,false,Rx,1,8,1C,00,2A,00,2A,00,2A,00,
136922,0000070A,false,Rx,1,8,F4,D0,02,00,0A,00,00,00,
137156,00000712,false,Rx,1,8,04,00,C4,09,C4,09,C4,09,
137398,0000070A,false,Rx,1,8,F4,D0,02,00,0A,00,00,00,
137957,0000070A,false,Rx,1,8,F4,D0,02,00,0A,00,00,00,
138203,0000012A,false,Rx,1,8,0A,00,D0,07,D0,07,D0,07,
138983,0000070A,false,Rx,1,8,F4,D0,02,00,0A,00,00,00,
139189,0000020A,false,Rx,1,6,C9,11,09,12,42,00,00,00,
139427,0000014A,false,Rx,1,8,01,00,FF,7F,FF,7F,FF,7F,
139601,0000022A,false,Rx,1,4,00,00,08,00,00,00,00,00,
139967,0000070A,false,Rx,1,8,F4,D0,02,00,0A,00,00,00,
140970,0000070A,false,Rx,1,8,F4,D0,02,00,0A,00,00,00,
141206,0000012A,false,Rx,1,8,0B,00,D0,07,D0,07,D0,07,
141506,0000076C,false,Rx,1,8,15,00,00,D0,20,00,00,00,
141962,0000070A,false,Rx,1,8,F4,D0,02,00,0A,00,00,00,
142957,0000070A,false,Rx,1,8,F4,D0,02,00,0A,00,00,00,
143203,0000012A,false,Rx,1,8,0C,00,D0,07,D0,07,D0,07,
143966,0000070A,false,Rx,1,8,F4,D0,02,00,0A,00,00,00,
144959,0000070A,false,Rx,1,8,F4,D0,02,00,0A,00,00,00,
145952,00000232,false,Rx,1,8,5B,00,00,00,00,00,00,00,
146188,0000012A,false,Rx,1,8,0D,00,D0,07,D0,07,D0,07,
146432,00000152,false,Rx,1,8,02,00,00,00,00,00,00,00,
146666,00000172,false,Rx,1,8,02,00,D0,6A,D0,6A,00,00,
146912,00000401,false,Rx,1,8,1D,00,2A,00,2A,00,2A,00,
147156,00000112,false,Rx,1,8,00,00,00,00,00,00,59,07,
147381,00000272,false,Rx,1,7,00,00,00,00,00,00,00,00,
147534,000002B2,false,Rx,1,3,00,00,00,00,00,00,00,00,
147777,00000392,false,Rx,1,8,00,00,72,0D,F4,7F,04,04,
148021,000003B2,false,Rx,1,8,2A,00,10,27,00,00,00,00,
148155,00000432,false,Rx,1,2,1E,00,00,00,00,00,00,00,
148390,0000070A,false,Rx,1,8,F4,D0,02,00,0A,00,00,00,
148634,00000712,false,Rx,1,8,05,28,C4,09,00,00,00,00,
148878,0000070A,false,Rx,1,8,F4,D0,02,00,0A,00,00,00,
149114,0000012A,false,Rx,1,8,0E,00,D0,07,D0,07,D0,07,
149309,0000020A,false,Rx,1,6,C9,11,09,12,42,00,00,00,
149555,0000014A,false,Rx,1,8,02,00,FF,7F,FF,7F,FF,7F,
149728,0000022A,false,Rx,1,4,00,00,08,00,00,00,00,00,
149963,0000070A,false,Rx,1,8,F4,D0,02,00,0A,00,00,00,
150116,00000792,false,Rx,1,3,00,00,00,00,00,00,00,00,
150360,0000070A,false,Rx,1,8,F4,D0,02,00,0A,00,00,00,
150616,0000070A,false,Rx,1,8,F4,D0,02,00,0A,00,00,00,
150981,0000070A,false,Rx,1,8,F4,D0,02,00,0A,00,00,00,
151520,0000076C,false,Rx,1,8,16,00,00,00,40,00,00,00,
151957,0000070A,false,Rx,1,8,F4,D0,02,00,0A,00,00,00,
152193,0000012A,false,Rx,1,8,0F,00,D0,07,D0,07,D0,07,
152964,0000070A,false,Rx,1,8,F4,D0,02,00,0A,00,00,00,
153958,0000070A,false,Rx,1,8,F4,D0,02,00,0A,00,00,00,
154203,0000012A,false,Rx,1,8,10,00,D0,07,D0,07,D0,07,
154963,0000070A,false,Rx,1,8,F4,D0,02,00,0A,00,00,00,
155958,0000070A,false,Rx,1,8,F4,D0,02,00,0A,00,00,00,
156214,00000152,false,Rx,1,8,00,00,00,00,00,00,00,00,
156448,00000172,false,Rx,1,8,00,01,D0,6A,D0,6A,D0,6A,
156693,00000232,false,Rx,1,8,5B,00,00,00,00,00,00,00,
156927,00000401,false,Rx,1,8,1E,00,2C,00,2C,00,2C,00,
157173,0000012A,false,Rx,1,8,11,00,D0,07,D0,07,D0,07,
157407,0000070A,false,Rx,1,8,F4,D0,02,00,0A,00,00,00,
157641,00000712,false,Rx,1,8,00,00,C4,09,C4,09,C4,09,
157956,0000070A,false,Rx,1,8,F4,D0,02,00,0A,00,00,00,
158991,0000070A,false,Rx,1,8,F4,D0,02,00,0A,00,00,00,
159186,0000020A,false,Rx,1,6,C9,11,09,12,42,00,00,00,
159359,0000022A,false,Rx,1,4,00,00,08,00,00,00,00,00,
159961,0000070A,false,Rx,1,8,F4,D0,02,00,0A,00,00,00,
160196,0000012A,false,Rx,1,8,12,00,D0,07,D0,07,D0,07,
160957,0000070A,false,Rx,1,8,F4,D0,02,00,0A,00,00,00,
161497,0000076C,false,Rx,1,8,17,04,32,8F,BB,28,00,00,
161956,0000070A,false,Rx,1,8,F4,D0,02,00,0A,00,00,00,
162961,0000070A,false,Rx,1,8,F4,D0,02,00,0A,00,00,00,
163196,0000012A,false,Rx,1,8,13,00,D0,07,D0,07,D0,07,
163957,0000070A,false,Rx,1,8,F4,D0,02,00,0A,00,00,00,
164961,0000070A,false,Rx,1,8,F4,D0,02,00,0A,00,00,00,
165944,00000232,false,Rx,1,8,5B,00,00,00,00,00,00,00,
166190,0000012A,false,Rx,1,8,14,00,D0,07,D0,07,D0,07,
166434,00000152,false,Rx,1,8,01,00,00,00,00,00,00,00,
166669,00000172,false,Rx,1,8,01,00,D0,6A,D0,6A,D0,6A,
166914,00000401,false,Rx,1,8,1F,00,2C,00,2C,00,2C,00,
167158,0000070A,false,Rx,1,8,F4,D0,02,00,0A,00,00,00,
167393,00000712,false,Rx,1,8,01,00,C4,09,C4,09,C4,09,
167628,0000070A,false,Rx,1,8,F4,D0,02,00,0A,00,00,00,
167975,0000070A,false,Rx,1,8,F4,D0,02,00,0A,00,00,00,
168211,0000012A,false,Rx,1,8,15,00,D0,07,D0,07,D0,07,
168992,0000070A,false,Rx,1,8,F4,D0,02,00,0A,00,00,00,
169186,0000020A,false,Rx,1,6,C9,11,09,12,42,00,00,00,
169430,0000014A,false,Rx,1,8,03,00,00,00,00,00,00,00,
169604,0000022A,false,Rx,1,4,00,00,08,00,00,00,00,00,
169966,0000070A,false,Rx,1,8,F4,D0,02,00,0A,00,00,00,
170959,0000070A,false,Rx,1,8,F4,D0,02,00,0A,00,00,00,
171195,0000012A,false,Rx,1,8,16,00,D0,07,D0,07,D0,07,
171501,0000076C,false,Rx,1,8,18,E0,DB,39,97,02,00,00,
171959,0000070A,false,Rx,1,8,F4,D0,02,00,0A,00,00,00,
172954,0000070A,false,Rx,1,8,F4,D0,02,00,0A,00,00,00,
173956,0000070A,false,Rx,1,8,F4,D0,02,00,0A,00,00,00,
174191,0000012A,false,Rx,1,8,17,00,D0,07,D0,07,D0,07,
174962,0000070A,false,Rx,1,8,F4,D0,02,00,0A,00,00,00,
175947,00000232,false,Rx,1,8,5B,00,00,00,00,00,00,00,
176192,00000152,false,Rx,1,8,02,00,00,00,00,00,00,00,
176426,00000172,false,Rx,1,8,02,00,D0,6A,D0,6A,00,00,
176672,00000401,false,Rx,1,8,20,2A,00,00,00,00,00,00,
176916,0000070A,false,Rx,1,8,F4,D0,02,00,0A,00,00,00,
177150,0000012A,false,Rx,1,8,18,00,D0,07,D0,07,D0,07,
177396,0000070A,false,Rx,1,8,F4,D0,02,00,0A,00,00,00,
177621,00000712,false,Rx,1,8,02,00,C4,09,C4,09,C4,09,
177957,0000070A,false,Rx,1,8,F4,D0,02,00,0A,00,00,00,
178982,0000070A,false,Rx,1,8,F4,D0,02,00,0A,00,00,00,
179187,0000020A,false,Rx,1,6,C9,11,09,12,42,00,00,00,
179421,0000012A,false,Rx,1,8,19,00,D0,07,D0,07,D0,07,
179594,0000022A,false,Rx,1,4,00,00,08,00,00,00,00,00,
179964,0000070A,false,Rx,1,8,F4,D0,02,00,0A,00,00,00,
180958,0000070A,false,Rx,1,8,F4,D0,02,00,0A,00,00,00,
181497,0000076C,false,Rx,1,8,9E,23,40,00,64,00,80,00,
181954,0000070A,false,Rx,1,8,F4,D0,02,00,0A,00,00,00,
182190,0000012A,false,Rx,1,8,1A,00,D0,07,D0,07,D0,07,
182960,0000070A,false,Rx,1,8,F4,D0,02,00,0A,00,00,00,
183954,0000070A,false,Rx,1,8,F4,D0,02,00,0A,00,00,00,
184958,0000070A,false,Rx,1,8,F4,D0,02,00,0A,00,00,00,
185195,0000012A,false,Rx,1,8,1B,00,D0,07,D0,07,D0,07,
185955,00000232,false,Rx,1,8,5B,00,00,00,00,00,00,00,
186201,00000152,false,Rx,1,8,00,00,00,00,00,00,00,00,
186435,00000172,false,Rx,1,8,00,01,D0,6A,D0,6A,D0,6A,
186681,00000401,false,Rx,1,8,21,2A,00,00,00,00,00,00,
186925,0000070A,false,Rx,1,8,F4,D0,02,00,0A,00,00,00,
187159,00000712,false,Rx,1,8,03,00,C4,09,C4,09,C4,09,
187395,0000070A,false,Rx,1,8,F4,D0,02,00,0A,00,00,00,
187961,0000070A,false,Rx,1,8,F4,D0,02,00,0A,00,00,00,
188198,0000012A,false,Rx,1,8,1C,00,D0,07,D0,07,D0,07,
188989,0000070A,false,Rx,1,8,F4,D0,02,00,0A,00,00,00,
189184,0000020A,false,Rx,1,6,C9,11,09,12,42,00,00,00,
189428,0000014A,false,Rx,1,8,04,00,00,00,00,00,00,00,
189602,0000022A,false,Rx,1,4,00,00,08,00,00,00,00,00,
189963,0000070A,false,Rx,1,8,F4,D0,02,00,0A,00,00,00,
190957,0000070A,false,Rx,1,8,F4,D0,02,00,0A,00,00,00,
191192,0000012A,false,Rx,1,8,1D,00,D0,07,D0,07,D0,07,
191508,0000076C,false,Rx,1,8,1F,04,00,D0,20,00,00,00,
191955,0000070A,false,Rx,1,8,F4,D0,02,00,0A,00,00,00,
192954,0000070A,false,Rx,1,8,F4,D0,02,00,0A,00,00,00,
193189,0000012A,false,Rx,1,8,1E,00,D0,07,D0,07,D0,07,
193959,0000070A,false,Rx,1,8,F4,D0,02,00,0A,00,00,00,
194953,0000070A,false,Rx,1,8,F4,D0,02,00,0A,00,00,00,
195948,00000232,false,Rx,1,8,5B,00,00,00,00,00,00,00,
196191,0000012A,false,Rx,1,8,1F,00,D0,07,D0,07,D0,07,
196436,00000152,false,Rx,1,8,01,00,00,00,00,00,00,00,
196671,00000172,false,Rx,1,8,01,00,D0,6A,D0,6A,D0,6A,
196915,00000401,false,Rx,1,8,22,2A,00,00,00,00,00,00,
197159,0000070A,false,Rx,1,8,F4,D0,02,00,0A,00,00,00,
197386,00000712,false,Rx,1,8,04,00,C4,09,C4,09,C4,09,
197630,0000070A,false,Rx,1,8,F4,D0,02,00,0A,00,00,00,
197975,0000070A,false,Rx,1,8,F4,D0,02,00,0A,00,00,00,
198981,0000070A,false,Rx,1,8,F4,D0,02,00,0A,00,00,00,
199186,0000020A,false,Rx,1,6,C9,11,09,12,42,00,00,00,
199430,0000012A,false,Rx,1,8,20,00,00,00,00,00,00,00,
199675,0000014A,false,Rx,1,8,05,00,00,00,00,00,00,00,
199849,0000022A,false,Rx,1,4,00,00,08,00,00,00,00,00,
200086,0000070A,false,Rx,1,8,F4,D0,02,00,0A,00,00,00,
200959,0000070A,false,Rx,1,8,F4,D0,02,00,0A,00,00,00,
201498,0000076C,false,Rx,1,8,20,00,00,00,40,00,40,00,
201954,0000070A,false,Rx,1,8,F4,D0,02,00,0A,00,00,00,
202203,0000012A,false,Rx,1,8,21,00,00,00,00,00,00,00,
202954,0000070A,false,Rx,1,8,F4,D0,02,00,0A,00,00,00,
203957,0000070A,false,Rx,1,8,F4,D0,02,00,0A,00,00,00,
204203,0000012A,false,Rx,1,8,22,00,00,00,00,00,00,00,
204953,0000070A,false,Rx,1,8,F4,D0,02,00,0A,00,00,00,
205958,00000232,false,Rx,1,8,5B,00,00,00,00,00,00,00,
206204,00000152,false,Rx,1,8,02,00,00,00,00,00,00,00,
206438,00000172,false,Rx,1,8,02,00,D0,6A,D0,6A,00,00,
206683,00000401,false,Rx,1,8,23,2A,00,00,00,00,00,00,
206917,0000070A,false,Rx,1,8,F4,D0,02,00,0A,00,00,00,
207173,0000012A,false,Rx,1,8,23,00,00,00,00,00,00,00,
207408,0000070A,false,Rx,1,8,F4,D0,02,00,0A,00,00,00,
207652,00000712,false,Rx,1,8,05,28,C4,09,00,00,00,00,
207957,0000070A,false,Rx,1,8,F4,D0,02,00,0A,00,00,00,
208993,0000070A,false,Rx,1,8,F4,D0,02,00,0A,00,00,00,
209188,0000020A,false,Rx,1,6,C9,11,09,12,42,00,00,00,
209361,0000022A,false,Rx,1,4,00,00,08,00,00,00,00,00,
209959,0000070A,false,Rx,1,8,F4,D0,02,00,0A,00,00,00,
210196,0000012A,false,Rx,1,8,00,00,D0,07,D0,07,D0,07,
210956,0000070A,false,Rx,1,8,F4,D0,02,00,0A,00,00,00,
211496,0000076C,false,Rx,1,8,21,04,32,8F,BB,28,00,00,
211953,0000070A,false,Rx,1,8,F4,D0,02,00,0A,00,00,00,
212959,0000070A,false,Rx,1,8,F4,D0,02,00,0A,00,00,00,
213195,0000012A,false,Rx,1,8,01,00,D0,07,D0,07,D0,07,
213955,0000070A,false,Rx,1,8,F4,D0,02,00,0A,00,00,00,
214354,0000074A,false,Rx,1,8,01,00,00,00,00,00,00,00,
214467,0000024A,false,Rx,1,1,07,00,00,00,00,00,00,00,
214629,0000026A,false,Rx,1,3,00,00,00,00,00,00,00,00,
214831,00000682,false,Rx,1,6,00,44,45,01,04,06,00,00,
215076,0000070A,false,Rx,1,8,F4,D0,02,00,0A,00,00,00,
215312,0000076A,false,Rx,1,8,02,D0,07,00,00,00,00,00,
215556,000007AA,false,Rx,1,8,01,01,00,04,00,02,00,00,
215802,0000078A,false,Rx,1,8,D2,01,A7,12,80,00,50,00,
216046,00000232,false,Rx,1,8,5B,00,00,00,00,00,00,00,
216283,0000012A,false,Rx,1,8,02,00,D0,07,D0,07,D0,07,
216527,00000152,false,Rx,1,8,00,00,00,00,00,00,00,00,
216762,00000172,false,Rx,1,8,00,01,D0,6A,D0,6A,D0,6A,
217006,00000401,false,Rx,1,8,00,15,2C,00,2C,00,2C,00,
217242,0000070A,false,Rx,1,8,F4,D0,02,00,0A,00,00,00,
217477,00000712,false,Rx,1,8,00,00,C4,09,C4,09,C4,09,
217711,0000070A,false,Rx,1,8,F4,D0,02,00,0A,00,00,00,
217966,0000070A,false,Rx,1,8,F4,D0,02,00,0A,00,00,00,
218203,0000012A,false,Rx,1,8,03,00,D0,07,D0,07,D0,07,
218987,0000070A,false,Rx,1,8,F4,D0,02,00,0A,00,00,00,
219191,0000020A,false,Rx,1,6,C9,11,09,12,42,00,00,00,
219425,0000014A,false,Rx,1,8,00,00,FF,7F,FF,7F,FF,7F,
219599,0000022A,false,Rx,1,4,00,00,08,00,00,00,00,00,
219964,0000070A,false,Rx,1,8,F4,D0,02,00,0A,00,00,00,
220962,0000070A,false,Rx,1,8,F4,D0,02,00,0A,00,00,00,
221198,0000012A,false,Rx,1,8,04,00,D0,07,D0,07,D0,07,
221493,0000076C,false,Rx,1,8,22,E0,DB,39,97,02,00,00,
221961,0000070A,false,Rx,1,8,F4,D0,02,00,0A,00,00,00,
222957,0000070A,false,Rx,1,8,F4,D0,02,00,0A,00,00,00,
223951,0000070A,false,Rx,1,8,F4,D0,02,00,0A,00,00,00,
224196,0000012A,false,Rx,1,8,05,00,D0,07,D0,07,D0,07,
224957,0000070A,false,Rx,1,8,F4,D0,02,00,0A,00,00,00,
225942,00000232,false,Rx,1,8,5B,00,00,00,00,00,00,00,
226197,00000152,false,Rx,1,8,01,00,00,00,00,00,00,00,
226421,00000172,false,Rx,1,8,01,00,D0,6A,D0,6A,D0,6A,
226667,00000401,false,Rx,1,8,01,15,2C,00,2C,00,2C,00,
226911,0000070A,false,Rx,1,8,F4,D0,02,00,0A,00,00,00,
227145,0000012A,false,Rx,1,8,06,00,D0,07,D0,07,D0,07,
227381,0000070A,false,Rx,1,8,F4,D0,02,00,0A,00,00,00,
227625,00000712,false,Rx,1,8,01,00,C4,09,C4,09,C4,09,
227961,0000070A,false,Rx,1,8,F4,D0,02,00,0A,00,00,00,
228984,0000070A,false,Rx,1,8,F4,D0,02,00,0A,00,00,00,
229179,0000020A,false,Rx,1,6,C9,11,09,12,42,00,00,00,
229413,0000012A,false,Rx,1,8,07,00,D0,07,D0,07,D0,07,
229587,0000022A,false,Rx,1,4,00,00,08,00,00,00,00,00,
229962,0000070A,false,Rx,1,8,F4,D0,02,00,0A,00,00,00,
230960,0000070A,false,Rx,1,8,F4,D0,02,00,0A,00,00,00,
231499,0000076C,false,Rx,1,8,33,00,00,00,00,00,20,84,
231957,0000070A,false,Rx,1,8,F4,D0,02,00,0A,00,00,00,
232193,0000012A,false,Rx,1,8,08,00,D0,07,D0,07,D0,07,
232956,0000070A,false,Rx,1,8,F4,D0,02,00,0A,00,00,00,
233606,000002C4,false,Rx,1,8,13,00,00,5E,A0,0D,00,00,
233871,00000204,false,Rx,1,8,01,00,00,00,00,00,00,01,
234105,0000070A,false,Rx,1,8,F4,D0,02,00,0A,00,00,00,
234311,00000264,false,Rx,1,6,47,00,00,00,E0,01,00,00,
234579,00000224,false,Rx,1,8,00,04,00,00,00,00,10,08,
234965,0000070A,false,Rx,1,8,F4,D0,02,00,0A,00,00,00,
235201,0000012A,false,Rx,1,8,09,00,D0,07,D0,07,D0,07,
235962,00000232,false,Rx,1,8,5B,00,00,00,00,00,00,00,
236207,00000152,false,Rx,1,8,02,00,00,00,00,00,00,00,
236446,00000172,false,Rx,1,8,02,00,D0,6A,D0,6A,00,00,
236681,00000401,false,Rx,1,8,02,15,2C,00,2C,00,2C,00,
236915,0000070A,false,Rx,1,8,F4,D0,02,00,0A,00,00,00,
237149,00000712,false,Rx,1,8,02,00,C4,09,C4,09,C4,09,
237396,0000070A,false,Rx,1,8,F4,D0,02,00,0A,00,00,00,
237953,0000070A,false,Rx,1,8,F4,D0,02,00,0A,00,00,00,
238200,0000012A,false,Rx,1,8,0A,00,D0,07,D0,07,D0,07,
238979,0000070A,false,Rx,1,8,F4,D0,02,00,0A,00,00,00,
239184,0000020A,false,Rx,1,6,C9,11,09,12,42,00,00,00,
239428,0000014A,false,Rx,1,8,01,00,FF,7F,FF,7F,FF,7F,
239592,0000022A,false,Rx,1,4,00,00,08,00,00,00,00,00,
239957,0000070A,false,Rx,1,8,F4,D0,02,00,0A,00,00,00,
240955,0000070A,false,Rx,1,8,F4,D0,02,00,0A,00,00,00,
241191,0000012A,false,Rx,1,8,0B,00,D0,07,D0,07,D0,07,
241506,0000076C,false,Rx,1,8,34,00,00,00,00,00,00,00,
241954,0000070A,false,Rx,1,8,F4,D0,02,00,0A,00,00,00,
242960,0000070A,false,Rx,1,8,F4,D0,02,00,0A,00,00,00,
243195,0000012A,false,Rx,1,8,0C,00,D0,07,D0,07,D0,07,
243955,0000070A,false,Rx,1,8,F4,D0,02,00,0A,00,00,00,
244959,0000070A,false,Rx,1,8,F4,D0,02,00,0A,00,00,00,
245357,00000792,false,Rx,1,3,00,00,00,00,00,00,00,00,
245600,00000112,false,Rx,1,8,00,00,00,00,00,00,59,07,
245826,00000272,false,Rx,1,7,00,00,00,00,00,00,00,00,
246080,00000232,false,Rx,1,8,5B,00,00,00,00,00,00,00,
246315,0000012A,false,Rx,1,8,0D,00,D0,07,D0,07,D0,07,
246567,00000152,false,Rx,1,8,00,00,00,00,00,00,00,00,
246791,00000172,false,Rx,1,8,00,01,D0,6A,D0,6A,D0,6A,
246954,000002B2,false,Rx,1,3,00,00,00,00,00,00,00,00,
247188,00000392,false,Rx,1,8,00,00,72,0D,F4,7F,04,04,
247434,000003B2,false,Rx,1,8,2D,00,10,27,00,00,00,00,
247678,00000401,false,Rx,1,8,03,05,2C,00,2C,00,2C,00,
247811,00000432,false,Rx,1,2,00,00,00,00,00,00,00,00,
248055,0000070A,false,Rx,1,8,F4,D0,02,00,0A,00,00,00,
248280,00000712,false,Rx,1,8,03,00,C4,09,C4,09,C4,09,
248524,0000070A,false,Rx,1,8,F4,D0,02,00,0A,00,00,00,
248783,0000070A,false,Rx,1,8,F4,D0,02,00,0A,00,00,00,
249038,0000070A,false,Rx,1,8,F4,D0,02,00,0A,00,00,00,
249233,0000020A,false,Rx,1,6,C9,11,09,12,42,00,00,00,
249477,0000012A,false,Rx,1,8,0E,00,D0,07,D0,07,D0,07,
249722,0000014A,false,Rx,1,8,02,00,FF,7F,FF,7F,FF,7F,
249896,0000022A,false,Rx,1,4,00,00,08,00,00,00,00,00,
250129,0000070A,false,Rx,1,8,F4,D0,02,00,0A,00,00,00,
250959,0000070A,false,Rx,1,8,F4,D0,02,00,0A,00,00,00,
251499,0000076C,false,Rx,1,8,35,2A,00,00,00,00,00,00,
251956,0000070A,false,Rx,1,8,F4,D0,02,00,0A,00,00,00,
252192,0000012A,false,Rx,1,8,0F,00,D0,07,D0,07,D0,07,
252954,0000070A,false,Rx,1,8,F4,D0,02,00,0A,00,00,00,
253958,0000070A,false,Rx,1,8,F4,D0,02,00,0A,00,00,00,
254194,0000012A,false,Rx,1,8,10,00,D0,07,D0,07,D0,07,
254954,0000070A,false,Rx,1,8,F4,D0,02,00,0A,00,00,00,
255949,0000070A,false,Rx,1,8,F4,D0,02,00,0A,00,00,00,
256204,00000152,false,Rx,1,8,01,00,00,00,00,00,00,00,
256438,00000172,false,Rx,1,8,01,00,D0,6A,D0,6A,D0,6A,
256686,00000232,false,Rx,1,8,5B,00,00,00,00,00,00,00,
256930,00000401,false,Rx,1,8,04,00,2F,00,2F,00,2F,00,
257165,0000012A,false,Rx,1,8,11,00,D0,07,D0,07,D0,07,
257401,0000070A,false,Rx,1,8,F4,D0,02,00,0A,00,00,00,
257635,00000712,false,Rx,1,8,04,00,C4,09,C4,09,C4,09,
257960,0000070A,false,Rx,1,8,F4,D0,02,00,0A,00,00,00,
258982,0000070A,false,Rx,1,8,F4,D0,02,00,0A,00,00,00,
259187,0000020A,false,Rx,1,6,C9,11,09,12,42,00,00,00,
259350,0000022A,false,Rx,1,4,00,00,08,00,00,00,00,00,
259958,0000070A,false,Rx,1,8,F4,D0,02,00,0A,00,00,00,
260193,0000012A,false,Rx,1,8,12,00,D0,07,D0,07,D0,07,
260957,0000070A,false,Rx,1,8,F4,D0,02,00,0A,00,00,00,
261517,0000076C,false,Rx,1,8,64,00,00,41,00,46,00,00,
261954,0000070A,false,Rx,1,8,F4,D0,02,00,0A,00,00,00,
262958,0000070A,false,Rx,1,8,F4,D0,02,00,0A,00,00,00,
263194,0000012A,false,Rx,1,8,13,00,D0,07,D0,07,D0,07,
263954,0000070A,false,Rx,1,8,F4,D0,02,00,0A,00,00,00,
264949,0000070A,false,Rx,1,8,F4,D0,02,00,0A,00,00,00,
265943,00000232,false,Rx,1,8,5B,00,00,00,00,00,00,00,
266178,0000012A,false,Rx,1,8,14,00,D0,07,D0,07,D0,07,
266422,00000152,false,Rx,1,8,02,00,00,00,00,00,00,00,
266668,00000172,false,Rx,1,8,02,00,D0,6A,D0,6A,00,00,
266907,00000401,false,Rx,1,8,05,00,2F,00,2F,00,2F,00,
267141,0000070A,false,Rx,1,8,F4,D0,02,00,0A,00,00,00,
267387,00000712,false,Rx,1,8,05,28,C4,09,00,00,00,00,
267621,0000070A,false,Rx,1,8,F4,D0,02,00,0A,00,00,00,
267967,0000070A,false,Rx,1,8,F4,D0,02,00,0A,00,00,00,
268203,0000012A,false,Rx,1,8,15,00,D0,07,D0,07,D0,07,
268980,0000070A,false,Rx,1,8,F4,D0,02,00,0A,00,00,00,
269175,0000020A,false,Rx,1,6,C9,11,09,12,42,00,00,00,
269429,0000014A,false,Rx,1,8,03,00,00,00,00,00,00,00,
269594,0000022A,false,Rx,1,4,00,00,08,00,00,00,00,00,
269958,0000070A,false,Rx,1,8,F4,D0,02,00,0A,00,00,00,
270956,0000070A,false,Rx,1,8,F4,D0,02,00,0A,00,00,00,
271192,0000012A,false,Rx,1,8,16,00,D0,07,D0,07,D0,07,
271497,0000076C,false,Rx,1,8,66,00,00,00,00,00,00,00,
271955,0000070A,false,Rx,1,8,F4,D0,02,00,0A,00,00,00,
272951,0000070A,false,Rx,1,8,F4,D0,02,00,0A,00,00,00,
273954,0000070A,false,Rx,1,8,F4,D0,02,00,0A,00,00,00,
274191,0000012A,false,Rx,1,8,17,00,D0,07,D0,07,D0,07,
274951,0000070A,false,Rx,1,8,F4,D0,02,00,0A,00,00,00,
275945,00000232,false,Rx,1,8,5B,00,00,00,00,00,00,00,
276190,00000152,false,Rx,1,8,00,00,00,00,00,00,00,00,
276424,00000172,false,Rx,1,8,00,01,D0,6A,D0,6A,D0,6A,
276670,00000401,false,Rx,1,8,06,00,2F,00,2F,00,2F,00,
276908,0000070A,false,Rx,1,8,F4,D0,02,00,0A,00,00,00,
277142,0000012A,false,Rx,1,8,18,00,D0,07,D0,07,D0,07,
277389,0000070A,false,Rx,1,8,F4,D0,02,00,0A,00,00,00,
277623,00000712,false,Rx,1,8,00,00,C4,09,C4,09,C4,09,
277948,0000070A,false,Rx,1,8,F4,D0,02,00,0A,00,00,00,
278978,0000070A,false,Rx,1,8,F4,D0,02,00,0A,00,00,00,
279183,0000020A,false,Rx,1,6,C9,11,09,12,42,00,00,00,
279417,0000012A,false,Rx,1,8,19,00,D0,07,D0,07,D0,07,
279591,0000022A,false,Rx,1,4,00,00,08,00,00,00,00,00,
279956,0000070A,false,Rx,1,8,F4,D0,02,00,0A,00,00,00,
280954,0000070A,false,Rx,1,8,F4,D0,02,00,0A,00,00,00,
281493,0000076C,false,Rx,1,8,67,00,00,00,00,00,00,00,
281950,0000070A,false,Rx,1,8,F4,D0,02,00,0A,00,00,00,
282185,0000012A,false,Rx,1,8,1A,00,D0,07,D0,07,D0,07,
282948,0000070A,false,Rx,1,8,F4,D0,02,00,0A,00,00,00,
283952,0000070A,false,Rx,1,8,F4,D0,02,00,0A,00,00,00,
284955,0000070A,false,Rx,1,8,F4,D0,02,00,0A,00,00,00,
285190,0000012A,false,Rx,1,8,1B,00,D0,07,D0,07,D0,07,
285951,00000232,false,Rx,1,8,5B,00,00,00,00,00,00,00,
286196,00000152,false,Rx,1,8,01,00,00,00,00,00,00,00,
286430,00000172,false,Rx,1,8,01,00,D0,6A,D0,6A,D0,6A,
286666,00000401,false,Rx,1,8,07,00,2F,00,2F,00,2F,00,
286910,0000070A,false,Rx,1,8,F4,D0,02,00,0A,00,00,00,
287143,00000712,false,Rx,1,8,01,00,C4,09,C4,09,C4,09,
287389,0000070A,false,Rx,1,8,F4,D0,02,00,0A,00,00,00,
287957,0000070A,false,Rx,1,8,F4,D0,02,00,0A,00,00,00,
288193,0000012A,false,Rx,1,8,1C,00,D0,07,D0,07,D0,07,
288976,0000070A,false,Rx,1,8,F4,D0,02,00,0A,00,00,00,
289181,0000020A,false,Rx,1,6,C9,11,09,12,42,00,00,00,
289425,0000014A,false,Rx,1,8,04,00,00,00,00,00,00,00,
289600,0000022A,false,Rx,1,4,00,00,08,00,00,00,00,00,
289954,0000070A,false,Rx,1,8,F4,D0,02,00,0A,00,00,00,
290948,0000070A,false,Rx,1,8,F4,D0,02,00,0A,00,00,00,
291190,0000012A,false,Rx,1,8,1D,00,D0,07,D0,07,D0,07,
291505,0000076C,false,Rx,1,8,68,00,00,00,00,00,00,00,
291952,0000070A,false,Rx,1,8,F4,D0,02,00,0A,00,00,00,
292956,0000070A,false,Rx,1,8,F4,D0,02,00,0A,00,00,00,
293194,0000012A,false,Rx,1,8,1E,00,D0,07,D0,07,D0,07,
293954,0000070A,false,Rx,1,8,F4,D0,02,00,0A,00,00,00,
294949,0000070A,false,Rx,1,8,F4,D0,02,00,0A,00,00,00,
295943,00000232,false,Rx,1,8,5B,00,00,00,00,00,00,00,
296188,0000012A,false,Rx,1,8,1F,00,D0,07,D0,07,D0,07,
296434,00000152,false,Rx,1,8,02,00,00,00,00,00,00,00,
296668,00000172,false,Rx,1,8,02,00,D0,6A,D0,6A,00,00,
296902,00000401,false,Rx,1,8,08,00,2F,00,2F,00,2F,00,
297151,0000070A,false,Rx,1,8,F4,D0,02,00,0A,00,00,00,
297377,00000712,false,Rx,1,8,02,00,C4,09,C4,09,C4,09,
297621,0000070A,false,Rx,1,8,F4,D0,02,00,0A,00,00,00,
297966,0000070A,false,Rx,1,8,F4,D0,02,00,0A,00,00,00,
298981,0000070A,false,Rx,1,8,F4,D0,02,00,0A,00,00,00,
299181,0000020A,false,Rx,1,6,C9,11,09,12,42,00,00,00,
299425,0000012A,false,Rx,1,8,20,00,00,00,00,00,00,00,
299670,0000014A,false,Rx,1,8,05,00,00,00,00,00,00,00,
299844,0000022A,false,Rx,1,4,00,00,08,00,00,00,00,00,
300087,0000070A,false,Rx,1,8,F4,D0,02,00,0A,00,00,00,
300950,0000070A,false,Rx,1,8,F4,D0,02,00,0A,00,00,00,
301475,0000076C,false,Rx,1,8,69,00,00,00,00,00,9D,FF,
301953,0000070A,false,Rx,1,8,F4,D0,02,00,0A,00,00,00,
302198,0000012A,false,Rx,1,8,21,00,00,00,00,00,00,00,
302948,0000070A,false,Rx,1,8,F4,D0,02,00,0A,00,00,00,
303954,0000070A,false,Rx,1,8,F4,D0,02,00,0A,00,00,00,
304201,0000012A,false,Rx,1,8,22,00,00,00,00,00,00,00,
304951,0000070A,false,Rx,1,8,F4,D0,02,00,0A,00,00,00,
305945,00000232,false,Rx,1,8,5B,00,00,00,00,00,00,00,
306201,00000152,false,Rx,1,8,00,00,00,00,00,00,00,00,
306436,00000172,false,Rx,1,8,00,01,D0,6A,D0,6A,D0,6A,
306680,00000401,false,Rx,1,8,09,00,2F,00,2F,00,2F,00,
306914,0000070A,false,Rx,1,8,F4,D0,02,00,0A,00,00,00,
307163,0000012A,false,Rx,1,8,23,00,00,00,00,00,00,00,
307400,0000070A,false,Rx,1,8,F4,D0,02,00,0A,00,00,00,
307634,00000712,false,Rx,1,8,03,00,C4,09,C4,09,C4,09,
307949,0000070A,false,Rx,1,8,F4,D0,02,00,0A,00,00,00,
308984,0000070A,false,Rx,1,8,F4,D0,02,00,0A,00,00,00,
309184,0000020A,false,Rx,1,6,C9,11,09,12,42,00,00,00,
309358,0000022A,false,Rx,1,4,00,00,08,00,00,00,00,00,
309955,0000070A,false,Rx,1,8,F4,D0,02,00,0A,00,00,00,
310191,0000012A,false,Rx,1,8,00,00,D0,07,D0,07,D0,07,
310951,0000070A,false,Rx,1,8,F4,D0,02,00,0A,00,00,00,
311484,0000076C,false,Rx,1,8,6A,00,00,00,00,00,00,00,
311952,0000070A,false,Rx,1,8,F4,D0,02,00,0A,00,00,00,
312945,0000070A,false,Rx,1,8,F4,D0,02,00,0A,00,00,00,
313201,0000012A,false,Rx,1,8,01,00,D0,07,D0,07,D0,07,
313951,0000070A,false,Rx,1,8,F4,D0,02,00,0A,00,00,00,
314349,0000074A,false,Rx,1,8,02,00,00,00,00,00,00,00,
314462,0000024A,false,Rx,1,1,07,00,00,00,00,00,00,00,
314624,0000026A,false,Rx,1,3,00,00,00,00,00,00,00,00,
314827,00000682,false,Rx,1,6,00,44,45,01,04,06,00,00,
315062,0000070A,false,Rx,1,8,F4,D0,02,00,0A,00,00,00,
315315,0000076A,false,Rx,1,8,00,00,00,00,00,00,00,00,
315549,0000078A,false,Rx,1,8,D2,01,A7,12,00,00,1E,13,
315956,0000070A,false,Rx,1,8,F4,D0,02,00,0A,00,00,00,
316191,0000012A,false,Rx,1,8,02,00,D0,07,D0,07,D0,07,
316446,00000152,false,Rx,1,8,01,00,00,00,00,00,00,00,
316681,00000172,false,Rx,1,8,01,00,D0,6A,D0,6A,D0,6A,
316925,00000232,false,Rx,1,8,5B,00,00,00,00,00,00,00,
317159,00000401,false,Rx,1,8,0A,00,2F,00,2F,00,2F,00,
317406,0000070A,false,Rx,1,8,F4,D0,02,00,0A,00,00,00,
317640,00000712,false,Rx,1,8,04,00,C4,09,C4,09,C4,09,
317957,0000070A,false,Rx,1,8,F4,D0,02,00,0A,00,00,00,
318192,0000012A,false,Rx,1,8,03,00,D0,07,D0,07,D0,07,
318982,0000070A,false,Rx,1,8,F4,D0,02,00,0A,00,00,00,
319177,0000020A,false,Rx,1,6,C9,11,09,12,42,00,00,00,
319428,0000014A,false,Rx,1,8,00,00,FF,7F,FF,7F,FF,7F,
319592,0000022A,false,Rx,1,4,00,00,08,00,00,00,00,00,
319957,0000070A,false,Rx,1,8,F4,D0,02,00,0A,00,00,00,
320951,0000070A,false,Rx,1,8,F4,D0,02,00,0A,00,00,00,
321198,0000012A,false,Rx,1,8,04,00,D0,07,D0,07,D0,07,
321487,0000076C,false,Rx,1,8,6B,CD,06,00,00,00,00,00,
321954,0000070A,false,Rx,1,8,F4,D0,02,00,0A,00,00,00,
322948,0000070A,false,Rx,1,8,F4,D0,02,00,0A,00,00,00,
323952,0000070A,false,Rx,1,8,F4,D0,02,00,0A,00,00,00,
324189,0000012A,false,Rx,1,8,05,00,D0,07,D0,07,D0,07,
324949,0000070A,false,Rx,1,8,F4,D0,02,00,0A,00,00,00,
325954,00000232,false,Rx,1,8,5B,00,00,00,00,00,00,00,
326199,00000152,false,Rx,1,8,02,00,00,00,00,00,00,00,
326434,00000172,false,Rx,1,8,02,00,D0,6A,D0,6A,00,00,
326678,00000401,false,Rx,1,8,0B,00,2F,00,2F,00,2F,00,
326913,0000070A,false,Rx,1,8,F4,D0,02,00,0A,00,00,00,
327158,0000012A,false,Rx,1,8,06,00,D0,07,D0,07,D0,07,
327400,0000070A,false,Rx,1,8,F4,D0,02,00,0A,00,00,00,
327634,00000712,false,Rx,1,8,05,28,C4,09,00,00,00,00,
327950,0000070A,false,Rx,1,8,F4,D0,02,00,0A,00,00,00,
328974,0000070A,false,Rx,1,8,F4,D0,02,00,0A,00,00,00,
329178,0000020A,false,Rx,1,6,C9,11,09,12,42,00,00,00,
329406,0000012A,false,Rx,1,8,07,00,D0,07,D0,07,D0,07,
329581,0000022A,false,Rx,1,4,00,00,08,00,00,00,00,00,
329956,0000070A,false,Rx,1,8,F4,D0,02,00,0A,00,00,00,
330950,0000070A,false,Rx,1,8,F4,D0,02,00,0A,00,00,00,
331491,0000076C,false,Rx,1,8,6C,00,00,00,00,00,1C,00,
331948,0000070A,false,Rx,1,8,F4,D0,02,00,0A,00,00,00,
332194,0000012A,false,Rx,1,8,08,00,D0,07,D0,07,D0,07,
332954,0000070A,false,Rx,1,8,F4,D0,02,00,0A,00,00,00,
333607,000002C4,false,Rx,1,8,14,00,00,00,00,00,00,00,
333871,00000204,false,Rx,1,8,01,00,00,00,00,00,00,01,
334107,0000070A,false,Rx,1,8,F4,D0,02,00,0A,00,00,00,
334322,00000264,false,Rx,1,6,47,00,00,00,E0,01,00,00,
334586,00000224,false,Rx,1,8,00,04,00,00,00,00,10,08,
334963,0000070A,false,Rx,1,8,F4,D0,02,00,0A,00,00,00,
335198,0000012A,false,Rx,1,8,09,00,D0,07,D0,07,D0,07,
335957,00000232,false,Rx,1,8,5B,00,00,00,00,00,00,00,
336203,00000152,false,Rx,1,8,00,00,00,00,00,00,00,00,
336438,00000172,false,Rx,1,8,00,01,D0,6A,D0,6A,D0,6A,
336683,00000401,false,Rx,1,8,0C,00,2F,00,2F,00,2F,00,
336917,0000070A,false,Rx,1,8,F4,D0,02,00,0A,00,00,00,
337152,00000712,false,Rx,1,8,00,00,C4,09,C4,09,C4,09,
337397,0000070A,false,Rx,1,8,F4,D0,02,00,0A,00,00,00,
337955,0000070A,false,Rx,1,8,F4,D0,02,00,0A,00,00,00,
338190,0000012A,false,Rx,1,8,0A,00,D0,07,D0,07,D0,07,
338980,0000070A,false,Rx,1,8,F4,D0,02,00,0A,00,00,00,
339175,0000020A,false,Rx,1,6,C9,11,09,12,42,00,00,00,
339419,0000014A,false,Rx,1,8,01,00,FF,7F,FF,7F,FF,7F,
339588,0000022A,false,Rx,1,4,00,00,08,00,00,00,00,00,
339953,0000070A,false,Rx,1,8,F4,D0,02,00,0A,00,00,00,
340956,0000070A,false,Rx,1,8,F4,D0,02,00,0A,00,00,00,
341193,0000012A,false,Rx,1,8,0B,00,D0,07,D0,07,D0,07,
341499,0000076C,false,Rx,1,8,6D,00,00,00,00,00,00,00,
341947,0000070A,false,Rx,1,8,F4,D0,02,00,0A,00,00,00,
342951,0000070A,false,Rx,1,8,F4,D0,02,00,0A,00,00,00,
343186,0000012A,false,Rx,1,8,0C,00,D0,07,D0,07,D0,07,
343949,0000070A,false,Rx,1,8,F4,D0,02,00,0A,00,00,00,
344954,0000070A,false,Rx,1,8,F4,D0,02,00,0A,00,00,00,
345946,00000232,false,Rx,1,8,5B,00,00,00,00,00,00,00,
346181,0000012A,false,Rx,1,8,0D,00,D0,07,D0,07,D0,07,
346427,00000152,false,Rx,1,8,01,00,00,00,00,00,00,00,
346661,00000172,false,Rx,1,8,01,00,D0,6A,D0,6A,D0,6A,
346895,00000401,false,Rx,1,8,0D,00,2F,00,2F,00,2F,00,
347140,00000112,false,Rx,1,8,00,00,00,00,00,00,59,07,
347375,00000272,false,Rx,1,7,00,00,00,00,00,00,00,00,
347528,000002B2,false,Rx,1,3,00,00,00,00,00,00,00,00,
347772,00000392,false,Rx,1,8,00,00,72,0D,F4,7F,04,04,
348017,000003B2,false,Rx,1,8,2D,00,10,27,00,00,00,00,
348150,00000432,false,Rx,1,2,02,00,00,00,00,00,00,00,
348394,0000070A,false,Rx,1,8,F4,D0,02,00,0A,00,00,00,
348629,00000712,false,Rx,1,8,01,00,C4,09,C4,09,C4,09,
348864,0000070A,false,Rx,1,8,F4,D0,02,00,0A,00,00,00,
349108,0000012A,false,Rx,1,8,0E,00,D0,07,D0,07,D0,07,
349304,0000020A,false,Rx,1,6,C9,11,09,12,42,00,00,00,
349549,0000014A,false,Rx,1,8,02,00,FF,7F,FF,7F,FF,7F,
349715,0000022A,false,Rx,1,4,00,00,08,00,00,00,00,00,
349958,0000070A,false,Rx,1,8,F4,D0,02,00,0A,00,00,00,
350111,00000792,false,Rx,1,3,00,00,00,00,00,00,00,00,
350347,0000070A,false,Rx,1,8,F4,D0,02,00,0A,00,00,00,
350601,0000070A,false,Rx,1,8,F4,D0,02,00,0A,00,00,00,
350968,0000070A,false,Rx,1,8,F4,D0,02,00,0A,00,00,00,
351496,0000076C,false,Rx,1,8,6E,00,00,00,00,00,00,00,
351951,0000070A,false,Rx,1,8,F4,D0,02,00,0A,00,00,00,
352186,0000012A,false,Rx,1,8,0F,00,D0,07,D0,07,D0,07,
352947,0000070A,false,Rx,1,8,F4,D0,02,00,0A,00,00,00,
353952,0000070A,false,Rx,1,8,F4,D0,02,00,0A,00,00,00,
354188,0000012A,false,Rx,1,8,10,00,D0,07,D0,07,D0,07,
354948,0000070A,false,Rx,1,8,F4,D0,02,00,0A,00,00,00,
355952,0000070A,false,Rx,1,8,F4,D0,02,00,0A,00,00,00,
356198,00000152,false,Rx,1,8,02,00,00,00,00,00,00,00,
356433,00000172,false,Rx,1,8,02,00,D0,6A,D0,6A,00,00,
356678,00000232,false,Rx,1,8,5B,00,00,00,00,00,00,00,
356922,00000401,false,Rx,1,8,0E,00,2F,00,2F,00,2F,00,
357157,0000012A,false,Rx,1,8,11,00,D0,07,D0,07,D0,07,
357392,0000070A,false,Rx,1,8,F4,D0,02,00,0A,00,00,00,
357627,00000712,false,Rx,1,8,02,00,C4,09,C4,09,C4,09,
357954,0000070A,false,Rx,1,8,F4,D0,02,00,0A,00,00,00,
358978,0000070A,false,Rx,1,8,F4,D0,02,00,0A,00,00,00,
359173,0000020A,false,Rx,1,6,C9,11,09,12,42,00,00,00,
359346,0000022A,false,Rx,1,4,00,00,08,00,00,00,00,00,
359946,0000070A,false,Rx,1,8,F4,D0,02,00,0A,00,00,00,
360192,0000012A,false,Rx,1,8,12,00,D0,07,D0,07,D0,07,
360952,0000070A,false,Rx,1,8,F4,D0,02,00,0A,00,00,00,
361480,0000076C,false,Rx,1,8,6F,00,00,00,00,00,00,00,
361950,0000070A,false,Rx,1,8,F4,D0,02,00,0A,00,00,00,
362944,0000070A,false,Rx,1,8,F4,D0,02,00,0A,00,00,00,
363179,0000012A,false,Rx,1,8,13,00,D0,07,D0,07,D0,07,
363950,0000070A,false,Rx,1,8,F4,D0,02,00,0A,00,00,00,
364945,0000070A,false,Rx,1,8,F4,D0,02,00,0A,00,00,00,
365937,00000232,false,Rx,1,8,5B,00,00,00,00,00,00,00,
366182,0000012A,false,Rx,1,8,14,00,D0,07,D0,07,D0,07,
366428,00000152,false,Rx,1,8,00,00,00,00,00,00,00,00,
366662,00000172,false,Rx,1,8,00,01,D0,6A,D0,6A,D0,6A,
366906,00000401,false,Rx,1,8,0F,00,2F,00,2F,00,2F,00,
367141,0000070A,false,Rx,1,8,F4,D0,02,00,0A,00,00,00,
367377,00000712,false,Rx,1,8,03,00,C4,09,C4,09,C4,09,
367621,0000070A,false,Rx,1,8,F4,D0,02,00,0A,00,00,00,
367968,0000070A,false,Rx,1,8,F4,D0,02,00,0A,00,00,00,
368203,0000012A,false,Rx,1,8,15,00,D0,07,D0,07,D0,07,
368974,0000070A,false,Rx,1,8,F4,D0,02,00,0A,00,00,00,
369179,0000020A,false,Rx,1,6,C9,11,09,12,42,00,00,00,
369424,0000014A,false,Rx,1,8,03,00,00,00,00,00,00,00,
369597,0000022A,false,Rx,1,4,00,00,08,00,00,00,00,00,
369948,0000070A,false,Rx,1,8,F4,D0,02,00,0A,00,00,00,
370953,0000070A,false,Rx,1,8,F4,D0,02,00,0A,00,00,00,
371188,0000012A,false,Rx,1,8,16,00,D0,07,D0,07,D0,07,
371493,0000076C,false,Rx,1,8,70,00,00,00,00,00,00,00,
371953,0000070A,false,Rx,1,8,F4,D0,02,00,0A,00,00,00,
372946,0000070A,false,Rx,1,8,F4,D0,02,00,0A,00,00,00,
373948,0000070A,false,Rx,1,8,F4,D0,02,00,0A,00,00,00,
374184,0000012A,false,Rx,1,8,17,00,D0,07,D0,07,D0,07,
374945,0000070A,false,Rx,1,8,F4,D0,02,00,0A,00,00,00,
375939,00000232,false,Rx,1,8,5B,00,00,00,00,00,00,00,
376184,00000152,false,Rx,1,8,01,00,00,00,00,00,00,00,
376419,00000172,false,Rx,1,8,01,00,D0,6A,D0,6A,D0,6A,
376664,00000401,false,Rx,1,8,10,00,2F,00,2F,00,2F,00,
376898,0000070A,false,Rx,1,8,F4,D0,02,00,0A,00,00,00,
377133,0000012A,false,Rx,1,8,18,00,D0,07,D0,07,D0,07,
377379,0000070A,false,Rx,1,8,F4,D0,02,00,0A,00,00,00,
377613,00000712,false,Rx,1,8,04,00,C4,09,C4,09,C4,09,
377950,0000070A,false,Rx,1,8,F4,D0,02,00,0A,00,00,00,
378974,0000070A,false,Rx,1,8,F4,D0,02,00,0A,00,00,00,
379168,0000020A,false,Rx,1,6,C9,11,09,12,42,00,00,00,
379404,0000012A,false,Rx,1,8,19,00,D0,07,D0,07,D0,07,
379577,0000022A,false,Rx,1,4,00,00,08,00,00,00,00,00,
379956,0000070A,false,Rx,1,8,F4,D0,02,00,0A,00,00,00,
380951,0000070A,false,Rx,1,8,F4,D0,02,00,0A,00,00,00,
381469,0000076C,false,Rx,1,8,71,2C,30,00,2C,38,80,00,
381947,0000070A,false,Rx,1,8,F4,D0,02,00,0A,00,00,00,
382182,0000012A,false,Rx,1,8,1A,00,D0,07,D0,07,D0,07,
382942,0000070A,false,Rx,1,8,F4,D0,02,00,0A,00,00,00,
383946,0000070A,false,Rx,1,8,F4,D0,02,00,0A,00,00,00,
384951,0000070A,false,Rx,1,8,F4,D0,02,00,0A,00,00,00,
385186,0000012A,false,Rx,1,8,1B,00,D0,07,D0,07,D0,07,
385947,00000232,false,Rx,1,8,5B,00,00,00,00,00,00,00,
386192,00000152,false,Rx,1,8,02,00,00,00,00,00,00,00,
386428,00000172,false,Rx,1,8,02,00,D0,6A,D0,6A,00,00,
386673,00000401,false,Rx,1,8,11,00,2F,00,2F,00,2F,00,
386907,0000070A,false,Rx,1,8,F4,D0,02,00,0A,00,00,00,
387153,00000712,false,Rx,1,8,05,28,C4,09,00,00,00,00,
387388,0000070A,false,Rx,1,8,F4,D0,02,00,0A,00,00,00,
387946,0000070A,false,Rx,1,8,F4,D0,02,00,0A,00,00,00,
388182,0000012A,false,Rx,1,8,1C,00,D0,07,D0,07,D0,07,
388973,0000070A,false,Rx,1,8,F4,D0,02,00,0A,00,00,00,
389178,0000020A,false,Rx,1,6,C9,11,09,12,42,00,00,00,
389423,0000014A,false,Rx,1,8,04,00,00,00,00,00,00,00,
389597,0000022A,false,Rx,1,4,00,00,08,00,00,00,00,00,
389951,0000070A,false,Rx,1,8,F4,D0,02,00,0A,00,00,00,
390942,0000070A,false,Rx,1,8,F4,D0,02,00,0A,00,00,00,
391187,0000012A,false,Rx,1,8,1D,00,D0,07,D0,07,D0,07,
391482,0000076C,false,Rx,1,8,77,00,00,5F,A0,0D,00,00,
391949,0000070A,false,Rx,1,8,F4,D0,02,00,0A,00,00,00,
392946,0000070A,false,Rx,1,8,F4,D0,02,00,0A,00,00,00,
393182,0000012A,false,Rx,1,8,1E,00,D0,07,D0,07,D0,07,
393952,0000070A,false,Rx,1,8,F4,D0,02,00,0A,00,00,00,
394947,0000070A,false,Rx,1,8,F4,D0,02,00,0A,00,00,00,
395941,00000232,false,Rx,1,8,5B,00,00,00,00,00,00,00,
396184,0000012A,false,Rx,1,8,1F,00,D0,07,D0,07,D0,07,
396430,00000152,false,Rx,1,8,00,00,00,00,00,00,00,00,
396664,00000172,false,Rx,1,8,00,01,D0,6A,D0,6A,D0,6A,
396908,00000401,false,Rx,1,8,12,00,2F,00,2F,00,2F,00,
397144,0000070A,false,Rx,1,8,F4,D0,02,00,0A,00,00,00,
397379,00000712,false,Rx,1,8,00,00,C4,09,C4,09,C4,09,
397624,0000070A,false,Rx,1,8,F4,D0,02,00,0A,00,00,00,
397960,0000070A,false,Rx,1,8,F4,D0,02,00,0A,00,00,00,
398975,0000070A,false,Rx,1,8,F4,D0,02,00,0A,00,00,00,
399168,0000020A,false,Rx,1,6,C9,11,09,12,42,00,00,00,
399425,0000012A,false,Rx,1,8,20,00,00,00,00,00,00,00,
399669,0000014A,false,Rx,1,8,05,00,00,00,00,00,00,00,
399842,0000022A,false,Rx,1,4,00,00,08,00,00,00,00,00,
400076,0000070A,false,Rx,1,8,F4,D0,02,00,0A,00,00,00,
400946,0000070A,false,Rx,1,8,F4,D0,02,00,0A,00,00,00,
401464,0000076C,false,Rx,1,8,78,00,00,5E,A0,0D,00,00,
401942,0000070A,false,Rx,1,8,F4,D0,02,00,0A,00,00,00,
402198,0000012A,false,Rx,1,8,21,00,00,00,00,00,00,00,
402948,0000070A,false,Rx,1,8,F4,D0,02,00,0A,00,00,00,
403942,0000070A,false,Rx,1,8,F4,D0,02,00,0A,00,00,00,
404189,0000012A,false,Rx,1,8,22,00,00,00,00,00,00,00,
404949,0000070A,false,Rx,1,8,F4,D0,02,00,0A,00,00,00,
405943,00000232,false,Rx,1,8,5B,00,00,00,00,00,00,00,
406198,00000152,false,Rx,1,8,01,00,00,00,00,00,00,00,
406424,00000172,false,Rx,1,8,01,00,D0,6A,D0,6A,D0,6A,
406668,00000401,false,Rx,1,8,13,00,2F,00,2F,00,2F,00,
406912,0000070A,false,Rx,1,8,F4,D0,02,00,0A,00,00,00,
407158,0000012A,false,Rx,1,8,23,00,00,00,00,00,00,00,
407393,0000070A,false,Rx,1,8,F4,D0,02,00,0A,00,00,00,
407627,00000712,false,Rx,1,8,01,00,C4,09,C4,09,C4,09,
407943,0000070A,false,Rx,1,8,F4,D0,02,00,0A,00,00,00,
408978,0000070A,false,Rx,1,8,F4,D0,02,00,0A,00,00,00,
409183,0000020A,false,Rx,1,6,C9,11,09,12,42,00,00,00,
409348,0000022A,false,Rx,1,4,00,00,08,00,00,00,00,00,
409944,0000070A,false,Rx,1,8,F4,D0,02,00,0A,00,00,00,
410191,0000012A,false,Rx,1,8,00,00,D0,07,D0,07,D0,07,
410945,0000070A,false,Rx,1,8,F4,D0,02,00,0A,00,00,00,
411483,0000076C,false,Rx,1,8,79,00,00,00,00,00,00,00,
411941,0000070A,false,Rx,1,8,F4,D0,02,00,0A,00,00,00,
412945,0000070A,false,Rx,1,8,F4,D0,02,00,0A,00,00,00,
413192,0000012A,false,Rx,1,8,01,00,D0,07,D0,07,D0,07,
413952,0000070A,false,Rx,1,8,F4,D0,02,00,0A,00,00,00,
414340,0000076A,false,Rx,1,8,01,D0,07,00,D0,07,00,00,
414453,0000024A,false,Rx,1,1,07,00,00,00,00,00,00,00,
414615,0000026A,false,Rx,1,3,00,00,00,00,00,00,00,00,
414819,00000682,false,Rx,1,6,00,44,45,01,04,06,00,00,
415052,0000070A,false,Rx,1,8,F4,D0,02,00,0A,00,00,00,
415298,000007AA,false,Rx,1,8,92,00,00,00,00,00,21,00,
415523,0000078A,false,Rx,1,8,D2,01,A7,12,10,00,02,0D,
415949,0000070A,false,Rx,1,8,F4,D0,02,00,0A,00,00,00,
416184,0000012A,false,Rx,1,8,02,00,D0,07,D0,07,D0,07,
416431,00000152,false,Rx,1,8,02,00,00,00,00,00,00,00,
416665,00000172,false,Rx,1,8,02,00,D0,6A,D0,6A,00,00,
416920,00000232,false,Rx,1,8,5B,00,00,00,00,00,00,00,
417155,00000401,false,Rx,1,8,14,00,2F,00,2F,00,2F,00,
417400,0000070A,false,Rx,1,8,F4,D0,02,00,0A,00,00,00,
417634,00000712,false,Rx,1,8,02,00,C4,09,C4,09,C4,09,
417950,0000070A,false,Rx,1,8,F4,D0,02,00,0A,00,00,00,
418186,0000012A,false,Rx,1,8,03,00,D0,07,D0,07,D0,07,
418977,0000070A,false,Rx,1,8,F4,D0,02,00,0A,00,00,00,
419172,0000020A,false,Rx,1,6,C9,11,09,12,42,00,00,00,
419417,0000014A,false,Rx,1,8,00,00,FF,7F,FF,7F,FF,7F,
419590,0000022A,false,Rx,1,4,00,00,08,00,00,00,00,00,
419955,0000070A,false,Rx,1,8,F4,D0,02,00,0A,00,00,00,
420954,0000070A,false,Rx,1,8,F4,D0,02,00,0A,00,00,00,
421189,0000012A,false,Rx,1,8,04,00,D0,07,D0,07,D0,07,
421484,0000076C,false,Rx,1,8,7A,01,09,00,00,00,00,00,
421941,0000070A,false,Rx,1,8,F4,D0,02,00,0A,00,00,00,
422947,0000070A,false,Rx,1,8,F4,D0,02,00,0A,00,00,00,
423942,0000070A,false,Rx,1,8,F4,D0,02,00,0A,00,00,00,
424187,0000012A,false,Rx,1,8,05,00,D0,07,D0,07,D0,07,
424948,0000070A,false,Rx,1,8,F4,D0,02,00,0A,00,00,00,
425942,00000232,false,Rx,1,8,5B,00,00,00,00,00,00,00,
426187,00000152,false,Rx,1,8,00,00,00,00,00,00,00,00,
426423,00000172,false,Rx,1,8,00,01,D0,6A,D0,6A,D0,6A,
426667,00000401,false,Rx,1,8,15,00,2F,00,2F,00,2F,00,
426901,0000070A,false,Rx,1,8,F4,D0,02,00,0A,00,00,00,
427146,0000012A,false,Rx,1,8,06,00,D0,07,D0,07,D0,07,
427382,0000070A,false,Rx,1,8,F4,D0,02,00,0A,00,00,00,
427616,00000712,false,Rx,1,8,03,00,C4,09,C4,09,C4,09,
427942,0000070A,false,Rx,1,8,F4,D0,02,00,0A,00,00,00,
428975,0000070A,false,Rx,1,8,F4,D0,02,00,0A,00,00,00,
429169,0000020A,false,Rx,1,6,C9,11,09,12,42,00,00,00,
429405,0000012A,false,Rx,1,8,07,00,D0,07,D0,07,D0,07,
429579,0000022A,false,Rx,1,4,00,00,08,00,00,00,00,00,
429953,0000070A,false,Rx,1,8,F4,D0,02,00,0A,00,00,00,
430952,0000070A,false,Rx,1,8,F4,D0,02,00,0A,00,00,00,
431521,0000076C,false,Rx,1,8,01,10,10,16,20,17,25,00,
431948,0000070A,false,Rx,1,8,F4,D0,02,00,0A,00,00,00,
432183,0000012A,false,Rx,1,8,08,00,D0,07,D0,07,D0,07,
432946,0000070A,false,Rx,1,8,F4,D0,02,00,0A,00,00,00,
433596,000002C4,false,Rx,1,8,55,00,02,08,00,C0,FE,00,
433861,00000204,false,Rx,1,8,01,00,00,00,00,00,00,01,
434096,0000070A,false,Rx,1,8,F4,D0,02,00,0A,00,00,00,
434301,00000264,false,Rx,1,6,47,00,00,00,E0,01,00,00,
434580,00000224,false,Rx,1,8,00,04,00,00,00,00,10,08,
434956,0000070A,false,Rx,1,8,F4,D0,02,00,0A,00,00,00,
435192,0000012A,false,Rx,1,8,09,00,D0,07,D0,07,D0,07,
435478,000002A4,false,Rx,1,8,2D,1F,3A,D1,95,AE,F6,FF,
435631,00000364,false,Rx,1,2,00,78,00,00,00,00,00,00,
435884,000003A4,false,Rx,1,8,00,00,80,0C,04,00,00,00,
436129,00000152,false,Rx,1,8,01,00,00,00,00,00,00,00,
436366,00000172,false,Rx,1,8,01,00,D0,6A,D0,6A,D0,6A,
436610,00000232,false,Rx,1,8,5B,00,00,00,00,00,00,00,
436854,00000401,false,Rx,1,8,16,00,2F,00,2F,00,2F,00,
437089,0000070A,false,Rx,1,8,F4,D0,02,00,0A,00,00,00,
437325,00000712,false,Rx,1,8,04,00,C4,09,C4,09,C4,09,
437569,0000070A,false,Rx,1,8,F4,D0,02,00,0A,00,00,00,
437966,0000070A,false,Rx,1,8,F4,D0,02,00,0A,00,00,00,
438201,0000012A,false,Rx,1,8,0A,00,D0,07,D0,07,D0,07,
438970,0000070A,false,Rx,1,8,F4,D0,02,00,0A,00,00,00,
439175,0000020A,false,Rx,1,6,C9,11,09,12,42,00,00,00,
439410,0000014A,false,Rx,1,8,01,00,FF,7F,FF,7F,FF,7F,
439584,0000022A,false,Rx,1,4,00,00,08,00,00,00,00,00,
439948,0000070A,false,Rx,1,8,F4,D0,02,00,0A,00,00,00,
440947,0000070A,false,Rx,1,8,F4,D0,02,00,0A,00,00,00,
441182,0000012A,false,Rx,1,8,0B,00,D0,07,D0,07,D0,07,
441477,0000076C,false,Rx,1,8,02,02,03,02,04,01,01,00,
441945,0000070A,false,Rx,1,8,F4,D0,02,00,0A,00,00,00,
442941,0000070A,false,Rx,1,8,F4,D0,02,00,0A,00,00,00,
443187,0000012A,false,Rx,1,8,0C,00,D0,07,D0,07,D0,07,
443947,0000070A,false,Rx,1,8,F4,D0,02,00,0A,00,00,00,
444951,0000070A,false,Rx,1,8,F4,D0,02,00,0A,00,00,00,
445389,00000792,false,Rx,1,3,00,00,00,00,00,00,00,00,
445633,00000112,false,Rx,1,8,00,00,00,00,00,00,59,07,
445867,00000272,false,Rx,1,7,00,00,00,00,00,00,00,00,
446101,0000012A,false,Rx,1,8,0D,00,D0,07,D0,07,D0,07,
446348,00000152,false,Rx,1,8,02,00,00,00,00,00,00,00,
446582,00000172,false,Rx,1,8,02,00,D0,6A,D0,6A,00,00,
446834,00000232,false,Rx,1,8,5B,00,00,00,00,00,00,00,
446989,000002B2,false,Rx,1,3,00,00,00,00,00,00,00,00,
447223,00000392,false,Rx,1,8,00,00,72,0D,F4,7F,04,04,
447467,000003B2,false,Rx,1,8,2B,00,10,27,00,00,00,00,
447711,00000401,false,Rx,1,8,17,00,2F,00,2F,00,2F,00,
447835,00000432,false,Rx,1,2,04,00,00,00,00,00,00,00,
448078,0000070A,false,Rx,1,8,F4,D0,02,00,0A,00,00,00,
448324,00000712,false,Rx,1,8,05,28,C4,09,00,00,00,00,
448559,0000070A,false,Rx,1,8,F4,D0,02,00,0A,00,00,00,
448815,0000070A,false,Rx,1,8,F4,D0,02,00,0A,00,00,00,
449070,0000070A,false,Rx,1,8,F4,D0,02,00,0A,00,00,00,
449276,0000020A,false,Rx,1,6,C9,11,09,12,42,00,00,00,
449510,0000012A,false,Rx,1,8,0E,00,D0,07,D0,07,D0,07,
449754,0000014A,false,Rx,1,8,02,00,FF,7F,FF,7F,FF,7F,
449927,0000022A,false,Rx,1,4,00,00,08,00,00,00,00,00,
450162,0000070A,false,Rx,1,8,F4,D0,02,00,0A,00,00,00,
450942,0000070A,false,Rx,1,8,F4,D0,02,00,0A,00,00,00,
451460,0000076C,false,Rx,1,8,03,60,60,4A,4A,66,68,00,
451948,0000070A,false,Rx,1,8,F4,D0,02,00,0A,00,00,00,
452183,0000012A,false,Rx,1,8,0F,00,D0,07,D0,07,D0,07,
452946,0000070A,false,Rx,1,8,F4,D0,02,00,0A,00,00,00,
453941,0000070A,false,Rx,1,8,F4,D0,02,00,0A,00,00,00,
454186,0000012A,false,Rx,1,8,10,00,D0,07,D0,07,D0,07,
454947,0000070A,false,Rx,1,8,F4,D0,02,00,0A,00,00,00,
455941,0000070A,false,Rx,1,8,F4,D0,02,00,0A,00,00,00,
456198,00000152,false,Rx,1,8,00,00,00,00,00,00,00,00,
456432,00000172,false,Rx,1,8,00,01,D0,6A,D0,6A,D0,6A,
456676,00000232,false,Rx,1,8,5B,00,00,00,00,00,00,00,
456915,00000401,false,Rx,1,8,18,00,2C,00,2C,00,2C,00,
457150,0000012A,false,Rx,1,8,11,00,D0,07,D0,07,D0,07,
457396,0000070A,false,Rx,1,8,F4,D0,02,00,0A,00,00,00,
457630,00000712,false,Rx,1,8,00,00,C4,09,C4,09,C4,09,
457946,0000070A,false,Rx,1,8,F4,D0,02,00,0A,00,00,00,
458974,0000070A,false,Rx,1,8,F4,D0,02,00,0A,00,00,00,
459168,0000020A,false,Rx,1,6,C9,11,09,12,42,00,00,00,
459344,0000022A,false,Rx,1,4,00,00,08,00,00,00,00,00,
459940,0000070A,false,Rx,1,8,F4,D0,02,00,0A,00,00,00,
460187,0000012A,false,Rx,1,8,12,00,D0,07,D0,07,D0,07,
460941,0000070A,false,Rx,1,8,F4,D0,02,00,0A,00,00,00,
461469,0000076C,false,Rx,1,8,04,0C,17,00,07,00,03,00,
461947,0000070A,false,Rx,1,8,F4,D0,02,00,0A,00,00,00,
462941,0000070A,false,Rx,1,8,F4,D0,02,00,0A,00,00,00,
463178,0000012A,false,Rx,1,8,13,00,D0,07,D0,07,D0,07,
463948,0000070A,false,Rx,1,8,F4,D0,02,00,0A,00,00,00,
464942,0000070A,false,Rx,1,8,F4,D0,02,00,0A,00,00,00,
465936,00000232,false,Rx,1,8,5B,00,00,00,00,00,00,00,
466173,0000012A,false,Rx,1,8,14,00,D0,07,D0,07,D0,07,
466417,00000152,false,Rx,1,8,01,00,00,00,00,00,00,00,
466651,00000172,false,Rx,1,8,01,00,D0,6A,D0,6A,D0,6A,
466900,00000401,false,Rx,1,8,19,00,2C,00,2C,00,2C,00,
467135,0000070A,false,Rx,1,8,F4,D0,02,00,0A,00,00,00,
467371,00000712,false,Rx,1,8,01,00,C4,09,C4,09,C4,09,
467615,0000070A,false,Rx,1,8,F4,D0,02,00,0A,00,00,00,
467961,0000070A,false,Rx,1,8,F4,D0,02,00,0A,00,00,00,
468197,0000012A,false,Rx,1,8,15,00,D0,07,D0,07,D0,07,
468974,0000070A,false,Rx,1,8,F4,D0,02,00,0A,00,00,00,
469167,0000020A,false,Rx,1,6,C9,11,09,12,42,00,00,00,
469413,0000014A,false,Rx,1,8,03,00,00,00,00,00,00,00,
469587,0000022A,false,Rx,1,4,00,00,08,00,00,00,00,00,
469952,0000070A,false,Rx,1,8,F4,D0,02,00,0A,00,00,00,
470940,0000070A,false,Rx,1,8,F4,D0,02,00,0A,00,00,00,
471176,0000012A,false,Rx,1,8,16,00,D0,07,D0,07,D0,07,
471460,0000076C,false,Rx,1,8,05,AD,9C,36,39,DC,2E,00,
471948,0000070A,false,Rx,1,8,F4,D0,02,00,0A,00,00,00,
472944,0000070A,false,Rx,1,8,F4,D0,02,00,0A,00,00,00,
473939,0000070A,false,Rx,1,8,F4,D0,02,00,0A,00,00,00,
474174,0000012A,false,Rx,1,8,17,00,D0,07,D0,07,D0,07,
474945,0000070A,false,Rx,1,8,F4,D0,02,00,0A,00,00,00,
475929,00000232,false,Rx,1,8,5B,00,00,00,00,00,00,00,
476185,00000152,false,Rx,1,8,02,00,00,00,00,00,00,00,
476419,00000172,false,Rx,1,8,02,00,D0,6A,D0,6A,00,00,
476663,00000401,false,Rx,1,8,1A,00,2C,00,2C,00,2C,00,
476898,0000070A,false,Rx,1,8,F4,D0,02,00,0A,00,00,00,
477140,0000012A,false,Rx,1,8,18,00,D0,07,D0,07,D0,07,
477375,0000070A,false,Rx,1,8,F4,D0,02,00,0A,00,00,00,
477609,00000712,false,Rx,1,8,02,00,C4,09,C4,09,C4,09,
477946,0000070A,false,Rx,1,8,F4,D0,02,00,0A,00,00,00,
478972,0000070A,false,Rx,1,8,F4,D0,02,00,0A,00,00,00,
479166,0000020A,false,Rx,1,6,C9,11,09,12,42,00,00,00,
479402,0000012A,false,Rx,1,8,19,00,D0,07,D0,07,D0,07,
479575,0000022A,false,Rx,1,4,00,00,08,00,00,00,00,00,
479950,0000070A,false,Rx,1,8,F4,D0,02,00,0A,00,00,00,
480945,0000070A,false,Rx,1,8,F4,D0,02,00,0A,00,00,00,
481459,0000076C,false,Rx,1,8,8A,22,40,00,64,00,80,00,
481936,0000070A,false,Rx,1,8,F4,D0,02,00,0A,00,00,00,
482182,0000012A,false,Rx,1,8,1A,00,D0,07,D0,07,D0,07,
482942,0000070A,false,Rx,1,8,F4,D0,02,00,0A,00,00,00,
483939,0000070A,false,Rx,1,8,F4,D0,02,00,0A,00,00,00,
484943,0000070A,false,Rx,1,8,F4,D0,02,00,0A,00,00,00,
485187,0000012A,false,Rx,1,8,1B,00,D0,07,D0,07,D0,07,
485937,00000232,false,Rx,1,8,5B,00,00,00,00,00,00,00,
486193,00000152,false,Rx,1,8,00,00,00,00,00,00,00,00,
486428,00000172,false,Rx,1,8,00,01,D0,6A,D0,6A,D0,6A,
486672,00000401,false,Rx,1,8,1B,00,2C,00,2C,00,2C,00,
486907,0000070A,false,Rx,1,8,F4,D0,02,00,0A,00,00,00,
487138,00000712,false,Rx,1,8,03,00,C4,09,C4,09,C4,09,
487383,0000070A,false,Rx,1,8,F4,D0,02,00,0A,00,00,00,
487941,0000070A,false,Rx,1,8,F4,D0,02,00,0A,00,00,00,
488187,0000012A,false,Rx,1,8,1C,00,D0,07,D0,07,D0,07,
488967,0000070A,false,Rx,1,8,F4,D0,02,00,0A,00,00,00,
489166,0000020A,false,Rx,1,6,C9,11,09,12,42,00,00,00,
489412,0000014A,false,Rx,1,8,04,00,00,00,00,00,00,00,
489585,0000022A,false,Rx,1,4,00,00,08,00,00,00,00,00,
489950,0000070A,false,Rx,1,8,F4,D0,02,00,0A,00,00,00,
490945,0000070A,false,Rx,1,8,F4,D0,02,00,0A,00,00,00,
491174,0000012A,false,Rx,1,8,1D,00,D0,07,D0,07,D0,07,
491469,0000076C,false,Rx,1,8,0B,14,00,D0,20,FF,0F,00,
491946,0000070A,false,Rx,1,8,F4,D0,02,00,0A,00,00,00,
492940,0000070A,false,Rx,1,8,F4,D0,02,00,0A,00,00,00,
493179,0000012A,false,Rx,1,8,1E,00,D0,07,D0,07,D0,07,
493940,0000070A,false,Rx,1,8,F4,D0,02,00,0A,00,00,00,
494943,0000070A,false,Rx,1,8,F4,D0,02,00,0A,00,00,00,
495937,00000232,false,Rx,1,8,5B,00,00,00,00,00,00,00,
496174,0000012A,false,Rx,1,8,1F,00,D0,07,D0,07,D0,07,
496418,00000152,false,Rx,1,8,01,00,00,00,00,00,00,00,
496652,00000172,false,Rx,1,8,01,00,D0,6A,D0,6A,D0,6A,
496898,00000401,false,Rx,1,8,1C,00,2C,00,2C,00,2C,00,
497136,0000070A,false,Rx,1,8,F4,D0,02,00,0A,00,00,00,
497372,00000712,false,Rx,1,8,04,00,C4,09,C4,09,C4,09,
497616,0000070A,false,Rx,1,8,F4,D0,02,00,0A,00,00,00,
497962,0000070A,false,Rx,1,8,F4,D0,02,00,0A,00,00,00,
498966,0000070A,false,Rx,1,8,F4,D0,02,00,0A,00,00,00,
499165,0000020A,false,Rx,1,6,C9,11,09,12,42,00,00,00,
499421,0000012A,false,Rx,1,8,20,00,00,00,00,00,00,00,
499665,0000014A,false,Rx,1,8,05,00,00,00,00,00,00,00,
499839,0000022A,false,Rx,1,4,00,00,08,00,00,00,00,00,
500073,0000070A,false,Rx,1,8,F4,D0,02,00,0A,00,00,00,
500946,0000070A,false,Rx,1,8,F4,D0,02,00,0A,00,00,00,
501470,0000076C,false,Rx,1,8,0C,00,00,00,40,20,40,00,
501938,0000070A,false,Rx,1,8,F4,D0,02,00,0A,00,00,00,
502193,0000012A,false,Rx,1,8,21,00,00,00,00,00,00,00,
502944,0000070A,false,Rx,1,8,F4,D0,02,00,0A,00,00,00,
503941,0000070A,false,Rx,1,8,F4,D0,02,00,0A,00,00,00,
504186,0000012A,false,Rx,1,8,22,00,00,00,00,00,00,00,
504936,0000070A,false,Rx,1,8,F4,D0,02,00,0A,00,00,00,
505941,00000232,false,Rx,1,8,5B,00,00,00,00,00,00,00,
506188,00000152,false,Rx,1,8,02,00,00,00,00,00,00,00,
506422,00000172,false,Rx,1,8,02,00,D0,6A,D0,6A,00,00,
506667,00000401,false,Rx,1,8,1D,00,2C,00,2C,00,2C,00,
506912,0000070A,false,Rx,1,8,F4,D0,02,00,0A,00,00,00,
507156,0000012A,false,Rx,1,8,23,00,00,00,00,00,00,00,
507398,0000070A,false,Rx,1,8,F4,D0,02,00,0A,00,00,00,
507634,00000712,false,Rx,1,8,05,28,C4,09,00,00,00,00,
507938,0000070A,false,Rx,1,8,F4,D0,02,00,0A,00,00,00,
508982,0000070A,false,Rx,1,8,F4,D0,02,00,0A,00,00,00,
509178,0000020A,false,Rx,1,6,C9,11,09,12,42,00,00,00,
509346,0000022A,false,Rx,1,4,00,00,08,00,00,00,00,00,
509944,0000070A,false,Rx,1,8,F4,D0,02,00,0A,00,00,00,
510179,0000012A,false,Rx,1,8,00,00,D0,07,D0,07,D0,07,
510939,0000070A,false,Rx,1,8,F4,D0,02,00,0A,00,00,00,
511459,0000076C,false,Rx,1,8,0D,04,32,8F,BB,28,00,00,
511937,0000070A,false,Rx,1,8,F4,D0,02,00,0A,00,00,00,
512941,0000070A,false,Rx,1,8,F4,D0,02,00,0A,00,00,00,
513178,0000012A,false,Rx,1,8,01,00,D0,07,D0,07,D0,07,
513940,0000070A,false,Rx,1,8,F4,D0,02,00,0A,00,00,00,
514337,0000074A,false,Rx,1,8,03,00,00,00,00,00,00,00,
514450,0000024A,false,Rx,1,1,07,00,00,00,00,00,00,00,
514603,0000026A,false,Rx,1,3,00,00,00,00,00,00,00,00,
514816,00000682,false,Rx,1,6,00,44,45,01,04,06,00,00,
515050,0000070A,false,Rx,1,8,F4,D0,02,00,0A,00,00,00,
515301,0000076A,false,Rx,1,8,02,D0,07,00,00,00,00,00,
515536,000007AA,false,Rx,1,8,03,03,00,FD,FF,03,00,00,
515770,0000078A,false,Rx,1,8,D2,01,A7,12,20,00,80,04,
516024,00000232,false,Rx,1,8,5B,00,00,00,00,00,00,00,
516261,0000012A,false,Rx,1,8,02,00,D0,07,D0,07,D0,07,
516505,00000152,false,Rx,1,8,00,00,00,00,00,00,00,00,
516739,00000172,false,Rx,1,8,00,01,D0,6A,D0,6A,D0,6A,
516985,00000401,false,Rx,1,8,1E,00,2C,00,2C,00,2C,00,
517220,0000070A,false,Rx,1,8,F4,D0,02,00,0A,00,00,00,
517457,00000712,false,Rx,1,8,00,00,C4,09,C4,09,C4,09,
517693,0000070A,false,Rx,1,8,F4,D0,02,00,0A,00,00,00,
517947,0000070A,false,Rx,1,8,F4,D0,02,00,0A,00,00,00,
518182,0000012A,false,Rx,1,8,03,00,D0,07,D0,07,D0,07,
518973,0000070A,false,Rx,1,8,F4,D0,02,00,0A,00,00,00,
519168,0000020A,false,Rx,1,6,C9,11,09,12,42,00,00,00,
519409,0000014A,false,Rx,1,8,00,00,FF,7F,FF,7F,FF,7F,
519583,0000022A,false,Rx,1,4,00,00,08,00,00,00,00,00,
519949,0000070A,false,Rx,1,8,F4,D0,02,00,0A,00,00,00,
520942,0000070A,false,Rx,1,8,F4,D0,02,00,0A,00,00,00,
521188,0000012A,false,Rx,1,8,04,00,D0,07,D0,07,D0,07,
521457,0000076C,false,Rx,1,8,0E,DF,DB,39,97,02,00,00,
521944,0000070A,false,Rx,1,8,F4,D0,02,00,0A,00,00,00,
522938,0000070A,false,Rx,1,8,F4,D0,02,00,0A,00,00,00,
523943,0000070A,false,Rx,1,8,F4,D0,02,00,0A,00,00,00,
524178,0000012A,false,Rx,1,8,05,00,D0,07,D0,07,D0,07,
524938,0000070A,false,Rx,1,8,F4,D0,02,00,0A,00,00,00,
525942,00000232,false,Rx,1,8,5B,00,00,00,00,00,00,00,
526189,00000152,false,Rx,1,8,01,00,00,00,00,00,00,00,
526423,00000172,false,Rx,1,8,01,00,D0,6A,D0,6A,D0,6A,
526667,00000401,false,Rx,1,8,1F,00,2C,00,2C,00,2C,00,
526913,0000070A,false,Rx,1,8,F4,D0,02,00,0A,00,00,00,
527147,0000012A,false,Rx,1,8,06,00,D0,07,D0,07,D0,07,
527393,0000070A,false,Rx,1,8,F4,D0,02,00,0A,00,00,00,
527627,00000712,false,Rx,1,8,01,00,C4,09,C4,09,C4,09,
527942,0000070A,false,Rx,1,8,F4,D0,02,00,0A,00,00,00,
528966,0000070A,false,Rx,1,8,F4,D0,02,00,0A,00,00,00,
529161,0000020A,false,Rx,1,6,C9,11,09,12,42,00,00,00,
529406,0000012A,false,Rx,1,8,07,00,D0,07,D0,07,D0,07,
529574,0000022A,false,Rx,1,4,00,00,08,00,00,00,00,00,
529950,0000070A,false,Rx,1,8,F4,D0,02,00,0A,00,00,00,
530944,0000070A,false,Rx,1,8,F4,D0,02,00,0A,00,00,00,
531453,0000076C,false,Rx,1,8,94,23,40,00,64,00,80,00,
531941,0000070A,false,Rx,1,8,F4,D0,02,00,0A,00,00,00,
532176,0000012A,false,Rx,1,8,08,00,D0,07,D0,07,D0,07,
532937,0000070A,false,Rx,1,8,F4,D0,02,00,0A,00,00,00,
533577,000002C4,false,Rx,1,8,16,81,0B,00,00,00,00,00,
533843,00000204,false,Rx,1,8,01,00,00,00,00,00,00,01,
534077,0000070A,false,Rx,1,8,F4,D0,02,00,0A,00,00,00,
534292,00000264,false,Rx,1,6,47,00,00,00,E0,01,00,00,
534557,00000224,false,Rx,1,8,00,04,00,00,00,00,10,08,
534953,0000070A,false,Rx,1,8,F4,D0,02,00,0A,00,00,00,
535188,0000012A,false,Rx,1,8,09,00,D0,07,D0,07,D0,07,
535947,00000232,false,Rx,1,8,5B,00,00,00,00,00,00,00,
536194,00000152,false,Rx,1,8,02,00,00,00,00,00,00,00,
536428,00000172,false,Rx,1,8,02,00,D0,6A,D0,6A,00,00,
536672,00000401,false,Rx,1,8,20,2A,00,00,00,00,00,00,
536918,0000070A,false,Rx,1,8,F4,D0,02,00,0A,00,00,00,
537152,00000712,false,Rx,1,8,02,00,C4,09,C4,09,C4,09,
537387,0000070A,false,Rx,1,8,F4,D0,02,00,0A,00,00,00,
537944,0000070A,false,Rx,1,8,F4,D0,02,00,0A,00,00,00,
538179,0000012A,false,Rx,1,8,0A,00,D0,07,D0,07,D0,07,
538970,0000070A,false,Rx,1,8,F4,D0,02,00,0A,00,00,00,
539165,0000020A,false,Rx,1,6,C9,11,09,12,42,00,00,00,
539410,0000014A,false,Rx,1,8,01,00,FF,7F,FF,7F,FF,7F,
539588,0000022A,false,Rx,1,4,00,00,08,00,00,00,00,00,
539943,0000070A,false,Rx,1,8,F4,D0,02,00,0A,00,00,00,
540947,0000070A,false,Rx,1,8,F4,D0,02,00,0A,00,00,00,
541182,0000012A,false,Rx,1,8,0B,00,D0,07,D0,07,D0,07,
541468,0000076C,false,Rx,1,8,15,00,00,D0,20,00,00,00,
541939,0000070A,false,Rx,1,8,F4,D0,02,00,0A,00,00,00,
542942,0000070A,false,Rx,1,8,F4,D0,02,00,0A,00,00,00,
543178,0000012A,false,Rx,1,8,0C,00,D0,07,D0,07,D0,07,
543939,0000070A,false,Rx,1,8,F4,D0,02,00,0A,00,00,00,
544943,0000070A,false,Rx,1,8,F4,D0,02,00,0A,00,00,00,
545934,00000232,false,Rx,1,8,5B,00,00,00,00,00,00,00,
546171,0000012A,false,Rx,1,8,0D,00,D0,07,D0,07,D0,07,
546425,00000152,false,Rx,1,8,00,00,00,00,00,00,00,00,
546649,00000172,false,Rx,1,8,00,01,D0,6A,D0,6A,D0,6A,
546904,00000401,false,Rx,1,8,21,2A,00,00,00,00,00,00,
547149,00000112,false,Rx,1,8,00,00,00,00,00,00,59,07,
547374,00000272,false,Rx,1,7,00,00,00,00,00,00,00,00,
547528,000002B2,false,Rx,1,3,00,00,00,00,00,00,00,00,
547772,00000392,false,Rx,1,8,00,00,72,0D,F4,7F,04,04,
548016,000003B2,false,Rx,1,8,2F,00,10,27,00,00,00,00,
548150,00000432,false,Rx,1,2,06,00,00,00,00,00,00,00,
548386,0000070A,false,Rx,1,8,F4,D0,02,00,0A,00,00,00,
548620,00000712,false,Rx,1,8,03,00,C4,09,C4,09,C4,09,
548854,0000070A,false,Rx,1,8,F4,D0,02,00,0A,00,00,00,
549099,0000012A,false,Rx,1,8,0E,00,D0,07,D0,07,D0,07,
549295,0000020A,false,Rx,1,6,C9,11,09,12,42,00,00,00,
549538,0000014A,false,Rx,1,8,02,00,FF,7F,FF,7F,FF,7F,
