Time Stamp,ID,Extended,Dir,Bus,LEN,D1,D2,D3,D4,D5,D6,D7,D8
85999083,0000070A,false,Rx,0,8,F4,D0,02,00,0A,00,00,00,
85998821,0000012A,false,Rx,0,8,0D,00,D0,07,D0,07,D0,07,
85499567,0000020A,false,Rx,0,6,C9,11,09,12,42,00,00,00,
82600381,0000022A,false,Rx,0,4,00,00,08,00,00,00,00,00,
84972236,00000152,false,Rx,0,8,00,00,00,00,00,00,00,00,
84750146,0000014A,false,Rx,0,8,05,00,00,00,00,00,00,00,
80065033,0000074A,false,Rx,0,8,01,00,00,00,00,00,00,00,
84764915,0000024A,false,Rx,0,1,07,00,00,00,00,00,00,00,
80065304,0000026A,false,Rx,0,3,00,00,00,00,00,00,00,00,
64366411,00000682,false,Rx,0,6,00,44,45,01,04,06,00,00,
18268385,0000076A,false,Rx,0,8,02,D0,07,00,00,00,00,00,
18269347,000007AA,false,Rx,0,8,82,00,00,00,03,00,21,00,
64367435,0000078A,false,Rx,0,8,DA,01,1A,1D,40,00,45,05,
85461975,00000232,false,Rx,0,8,5B,00,00,00,00,00,00,00,
84513048,00000172,false,Rx,0,8,02,00,D0,6A,D0,6A,00,00,
85656242,00000401,false,Rx,0,8,14,00,2D,00,2D,00,2D,00,
80353601,00000712,false,Rx,0,8,00,00,C4,09,C4,09,C4,09,
78381972,00000112,false,Rx,0,8,00,00,00,00,00,00,59,07,
80883952,00000272,false,Rx,0,7,00,00,00,00,00,00,00,00,
6846174,000003D2,false,Rx,0,8,65,B3,02,00,AD,2F,03,00,
75984623,000002B2,false,Rx,0,3,00,00,00,00,00,00,00,00,
74484751,00000392,false,Rx,0,8,00,00,72,0D,F4,BF,00,04,
74584743,000003B2,false,Rx,0,8,2E,00,10,27,00,00,00,00,
74287519,00000432,false,Rx,0,2,1C,00,00,00,00,00,00,00,
74585799,00000792,false,Rx,0,3,00,00,00,00,00,00,00,00,
86016314,0000070A,false,Rx,0,8,F4,D0,02,00,0A,00,00,00,
86020742,0000070A,false,Rx,0,8,F4,D0,02,00,0A,00,00,00,
86034314,0000070A,false,Rx,0,8,F4,D0,02,00,0A,00,00,00,
86048314,0000070A,false,Rx,0,8,F4,D0,02,00,0A,00,00,00,
86088314,0000070A,false,Rx,0,8,F4,D0,02,00,0A,00,00,00,
86106312,0000070A,false,Rx,0,8,F4,D0,02,00,0A,00,00,00,
86143639,0000012A,false,Rx,0,8,1D,00,D0,07,D0,07,D0,07,
86143899,0000070A,false,Rx,0,8,F4,D0,02,00,0A,00,00,00,
86179329,0000070A,false,Rx,0,8,F4,D0,02,00,0A,00,00,00,
86201927,00000232,false,Rx,0,8,5B,00,00,00,00,00,00,00,
86220781,0000020A,false,Rx,0,6,C9,11,09,12,42,00,00,00,
86225292,0000070A,false,Rx,0,8,F4,D0,02,00,0A,00,00,00,
86229536,0000012A,false,Rx,0,8,19,00,D0,07,D0,07,D0,07,
86229747,0000020A,false,Rx,0,6,C9,11,09,12,42,00,00,00,
86251431,0000070A,false,Rx,0,8,F4,D0,02,00,0A,00,00,00,
86297303,0000070A,false,Rx,0,8,F4,D0,02,00,0A,00,00,00,
86306715,0000070A,false,Rx,0,8,F4,D0,02,00,0A,00,00,00,
86311277,0000020A,false,Rx,0,6,C9,11,09,12,42,00,00,00,
86328296,0000070A,false,Rx,0,8,F4,D0,02,00,0A,00,00,00,
86332898,00000232,false,Rx,0,8,5B,00,00,00,00,00,00,00,
86350968,0000070A,false,Rx,0,8,F4,D0,02,00,0A,00,00,00,
86355293,0000070A,false,Rx,0,8,F4,D0,02,00,0A,00,00,00,
86364911,0000024A,false,Rx,0,1,07,00,00,00,00,00,00,00,
86369164,0000012A,false,Rx,0,8,03,00,D0,07,D0,07,D0,07,
86374317,0000070A,false,Rx,0,8,F4,D0,02,00,0A,00,00,00,
86374567,0000012A,false,Rx,0,8,05,00,D0,07,D0,07,D0,07,
86414288,0000070A,false,Rx,0,8,F4,D0,02,00,0A,00,00,00,
86428289,0000070A,false,Rx,0,8,F4,D0,02,00,0A,00,00,00,
86446290,0000070A,false,Rx,0,8,F4,D0,02,00,0A,00,00,00,
86446530,0000012A,false,Rx,0,8,1F,00,D0,07,D0,07,D0,07,
86455861,0000070A,false,Rx,0,8,F4,D0,02,00,0A,00,00,00,
86460412,0000020A,false,Rx,0,6,C9,11,09,12,42,00,00,00,
86464575,0000012A,false,Rx,0,8,01,00,D0,07,D0,07,D0,07,
86468210,0000024A,false,Rx,0,1,07,00,00,00,00,00,00,00,
86505303,0000070A,false,Rx,0,8,F4,D0,02,00,0A,00,00,00,
86541842,0000012A,false,Rx,0,8,1D,00,D0,07,D0,07,D0,07,
86546048,0000070A,false,Rx,0,8,F4,D0,02,00,0A,00,00,00,
86551260,0000020A,false,Rx,0,6,C9,11,09,12,42,00,00,00,
86558135,0000070A,false,Rx,0,8,F4,D0,02,00,0A,00,00,00,
86591281,0000070A,false,Rx,0,8,F4,D0,02,00,0A,00,00,00,
86600756,0000070A,false,Rx,0,8,F4,D0,02,00,0A,00,00,00,
86605277,0000070A,false,Rx,0,8,F4,D0,02,00,0A,00,00,00,
86632971,00000172,false,Rx,0,8,01,00,D0,6A,D0,6A,D0,6A,
86646696,0000012A,false,Rx,0,8,1F,00,D0,07,D0,07,D0,07,
86651258,0000020A,false,Rx,0,6,C9,11,09,12,42,00,00,00,
86695283,0000070A,false,Rx,0,8,F4,D0,02,00,0A,00,00,00,
86728279,0000070A,false,Rx,0,8,F4,D0,02,00,0A,00,00,00,
86750753,0000020A,false,Rx,0,6,C9,11,09,12,42,00,00,00,
86755171,0000012A,false,Rx,0,8,22,00,00,00,00,00,00,00,
86768195,0000070A,false,Rx,0,8,F4,D0,02,00,0A,00,00,00,
86786417,0000070A,false,Rx,0,8,F4,D0,02,00,0A,00,00,00,
86804273,0000070A,false,Rx,0,8,F4,D0,02,00,0A,00,00,00,
86814277,0000070A,false,Rx,0,8,F4,D0,02,00,0A,00,00,00,
86846264,0000070A,false,Rx,0,8,F4,D0,02,00,0A,00,00,00,
86850500,0000020A,false,Rx,0,6,C9,11,09,12,42,00,00,00,
86855825,0000012A,false,Rx,0,8,22,00,00,00,00,00,00,00,
86881899,00000232,false,Rx,0,8,5B,00,00,00,00,00,00,00,
86964024,0000012A,false,Rx,0,8,01,00,D0,07,D0,07,D0,07,
86991258,0000070A,false,Rx,0,8,F4,D0,02,00,0A,00,00,00,
87009286,0000070A,false,Rx,0,8,F4,D0,02,00,0A,00,00,00,
87009486,0000020A,false,Rx,0,6,C9,11,09,12,42,00,00,00,
87041253,0000070A,false,Rx,0,8,F4,D0,02,00,0A,00,00,00,
87041495,0000012A,false,Rx,0,8,1D,00,D0,07,D0,07,D0,07,
87055260,0000070A,false,Rx,0,8,F4,D0,02,00,0A,00,00,00,
87062135,00000152,false,Rx,0,8,02,00,00,00,00,00,00,00,
87064880,0000026A,false,Rx,0,3,00,00,00,00,00,00,00,00,
87090676,0000070A,false,Rx,0,8,F4,D0,02,00,0A,00,00,00,
87114261,0000070A,false,Rx,0,8,F4,D0,02,00,0A,00,00,00,
87146388,0000070A,false,Rx,0,8,F4,D0,02,00,0A,00,00,00,
87154038,0000020A,false,Rx,0,6,C9,11,09,12,42,00,00,00,
87154289,0000012A,false,Rx,0,8,20,00,00,00,00,00,00,00,
87158612,0000070A,false,Rx,0,8,F4,D0,02,00,0A,00,00,00,
87186266,0000070A,false,Rx,0,8,F4,D0,02,00,0A,00,00,00,
87190542,0000070A,false,Rx,0,8,F4,D0,02,00,0A,00,00,00,
87204269,0000070A,false,Rx,0,8,F4,D0,02,00,0A,00,00,00,
87204509,0000012A,false,Rx,0,8,10,00,D0,07,D0,07,D0,07,
87241680,0000020A,false,Rx,0,6,C9,11,09,12,42,00,00,00,
87241931,00000232,false,Rx,0,8,5B,00,00,00,00,00,00,00,
87258246,0000070A,false,Rx,0,8,F4,D0,02,00,0A,00,00,00,
87281871,00000232,false,Rx,0,8,5B,00,00,00,00,00,00,00,
87331881,00000232,false,Rx,0,8,5B,00,00,00,00,00,00,00,
87336086,0000012A,false,Rx,0,8,1B,00,D0,07,D0,07,D0,07,
87341461,0000020A,false,Rx,0,6,C9,11,09,12,42,00,00,00,
87341722,0000012A,false,Rx,0,8,1D,00,D0,07,D0,07,D0,07,
87381241,0000070A,false,Rx,0,8,F4,D0,02,00,0A,00,00,00,
87395241,0000070A,false,Rx,0,8,F4,D0,02,00,0A,00,00,00,
87409263,0000070A,false,Rx,0,8,F4,D0,02,00,0A,00,00,00,
87441238,0000070A,false,Rx,0,8,F4,D0,02,00,0A,00,00,00,
87458625,0000070A,false,Rx,0,8,F4,D0,02,00,0A,00,00,00,
87481874,00000232,false,Rx,0,8,5B,00,00,00,00,00,00,00,
87490647,0000070A,false,Rx,0,8,F4,D0,02,00,0A,00,00,00,
87499266,0000070A,false,Rx,0,8,F4,D0,02,00,0A,00,00,00,
87512431,00000172,false,Rx,0,8,02,00,D0,6A,D0,6A,00,00,
87513178,0000070A,false,Rx,0,8,F4,D0,02,00,0A,00,00,00,
87513412,0000012A,false,Rx,0,8,13,00,D0,07,D0,07,D0,07,
87513657,0000070A,false,Rx,0,8,F4,D0,02,00,0A,00,00,00,
87513882,00000712,false,Rx,0,8,02,00,C4,09,C4,09,C4,09,
87540956,0000070A,false,Rx,0,8,F4,D0,02,00,0A,00,00,00,
87545181,0000070A,false,Rx,0,8,F4,D0,02,00,0A,00,00,00,
87546292,0000070A,false,Rx,0,8,F4,D0,02,00,0A,00,00,00,
87554099,0000020A,false,Rx,0,6,C9,11,09,12,42,00,00,00,
87558414,0000070A,false,Rx,0,8,F4,D0,02,00,0A,00,00,00,
87581874,00000232,false,Rx,0,8,5B,00,00,00,00,00,00,00,
87590443,0000070A,false,Rx,0,8,F4,D0,02,00,0A,00,00,00,
87604241,0000070A,false,Rx,0,8,F4,D0,02,00,0A,00,00,00,
87604482,0000012A,false,Rx,0,8,10,00,D0,07,D0,07,D0,07,
87618228,0000070A,false,Rx,0,8,F4,D0,02,00,0A,00,00,00,
87641496,0000012A,false,Rx,0,8,1D,00,D0,07,D0,07,D0,07,
87645904,0000070A,false,Rx,0,8,F4,D0,02,00,0A,00,00,00,
87646165,0000070A,false,Rx,0,8,F4,D0,02,00,0A,00,00,00,
87676232,0000070A,false,Rx,0,8,F4,D0,02,00,0A,00,00,00,
87684994,00000432,false,Rx,0,2,08,00,00,00,00,00,00,00,
87709247,0000070A,false,Rx,0,8,F4,D0,02,00,0A,00,00,00,
87731862,00000232,false,Rx,0,8,5B,00,00,00,00,00,00,00,
87745783,0000070A,false,Rx,0,8,F4,D0,02,00,0A,00,00,00,
87749977,0000020A,false,Rx,0,6,C9,11,09,12,42,00,00,00,
87750833,0000012A,false,Rx,0,8,20,00,00,00,00,00,00,00,
87755388,0000012A,false,Rx,0,8,22,00,00,00,00,00,00,00,
87781216,0000070A,false,Rx,0,8,F4,D0,02,00,0A,00,00,00,
87795219,0000070A,false,Rx,0,8,F4,D0,02,00,0A,00,00,00,
87809241,0000070A,false,Rx,0,8,F4,D0,02,00,0A,00,00,00,
87841217,0000070A,false,Rx,0,8,F4,D0,02,00,0A,00,00,00,
87850681,0000070A,false,Rx,0,8,F4,D0,02,00,0A,00,00,00,
87855212,0000070A,false,Rx,0,8,F4,D0,02,00,0A,00,00,00,
87859356,0000070A,false,Rx,0,8,F4,D0,02,00,0A,00,00,00,
87864548,0000070A,false,Rx,0,8,F4,D0,02,00,0A,00,00,00,
87868864,0000012A,false,Rx,0,8,02,00,D0,07,D0,07,D0,07,
87869116,0000070A,false,Rx,0,8,F4,D0,02,00,0A,00,00,00,
87890464,0000070A,false,Rx,0,8,F4,D0,02,00,0A,00,00,00,
87890735,0000070A,false,Rx,0,8,F4,D0,02,00,0A,00,00,00,
87918212,0000070A,false,Rx,0,8,F4,D0,02,00,0A,00,00,00,
87918444,0000012A,false,Rx,0,8,15,00,D0,07,D0,07,D0,07,
87946052,0000070A,false,Rx,0,8,F4,D0,02,00,0A,00,00,00,
87950328,0000020A,false,Rx,0,6,C9,11,09,12,42,00,00,00,
87950588,0000012A,false,Rx,0,8,20,00,00,00,00,00,00,00,
87976211,0000070A,false,Rx,0,8,F4,D0,02,00,0A,00,00,00,
87990426,0000070A,false,Rx,0,8,F4,D0,02,00,0A,00,00,00,
88004204,0000070A,false,Rx,0,8,F4,D0,02,00,0A,00,00,00,
88018206,0000070A,false,Rx,0,8,F4,D0,02,00,0A,00,00,00,
88036205,0000070A,false,Rx,0,8,F4,D0,02,00,0A,00,00,00,
88045761,0000070A,false,Rx,0,8,F4,D0,02,00,0A,00,00,00,
88050078,0000020A,false,Rx,0,6,C9,11,09,12,42,00,00,00,
88095205,0000070A,false,Rx,0,8,F4,D0,02,00,0A,00,00,00,
88141463,0000012A,false,Rx,0,8,1D,00,D0,07,D0,07,D0,07,
88145483,0000070A,false,Rx,0,8,F4,D0,02,00,0A,00,00,00,
88145745,0000070A,false,Rx,0,8,F4,D0,02,00,0A,00,00,00,
88195201,0000070A,false,Rx,0,8,F4,D0,02,00,0A,00,00,00,
88212403,00000172,false,Rx,0,8,00,01,D0,6A,D0,6A,D0,6A,
88213211,0000070A,false,Rx,0,8,F4,D0,02,00,0A,00,00,00,
88241029,0000020A,false,Rx,0,6,C9,11,09,12,42,00,00,00,
88258425,0000070A,false,Rx,0,8,F4,D0,02,00,0A,00,00,00,
88290685,0000070A,false,Rx,0,8,F4,D0,02,00,0A,00,00,00,
88318125,0000012A,false,Rx,0,8,14,00,D0,07,D0,07,D0,07,
88325957,0000012A,false,Rx,0,8,16,00,D0,07,D0,07,D0,07,
88326128,0000022A,false,Rx,0,4,00,00,08,00,00,00,00,00,
88330420,0000070A,false,Rx,0,8,F4,D0,02,00,0A,00,00,00,
88358185,0000070A,false,Rx,0,8,F4,D0,02,00,0A,00,00,00,
88376192,0000070A,false,Rx,0,8,F4,D0,02,00,0A,00,00,00,
88404180,0000070A,false,Rx,0,8,F4,D0,02,00,0A,00,00,00,
88418182,0000070A,false,Rx,0,8,F4,D0,02,00,0A,00,00,00,
88431836,00000232,false,Rx,0,8,5B,00,00,00,00,00,00,00,
88432078,00000152,false,Rx,0,8,01,00,00,00,00,00,00,00,
88436181,0000070A,false,Rx,0,8,F4,D0,02,00,0A,00,00,00,
88445726,0000070A,false,Rx,0,8,F4,D0,02,00,0A,00,00,00,
88481200,0000070A,false,Rx,0,8,F4,D0,02,00,0A,00,00,00,
88495182,0000070A,false,Rx,0,8,F4,D0,02,00,0A,00,00,00,
88541245,0000070A,false,Rx,0,8,F4,D0,02,00,0A,00,00,00,
88545593,0000070A,false,Rx,0,8,F4,D0,02,00,0A,00,00,00,
88570646,0000070A,false,Rx,0,8,F4,D0,02,00,0A,00,00,00,
88581181,0000070A,false,Rx,0,8,F4,D0,02,00,0A,00,00,00,
88595173,0000070A,false,Rx,0,8,F4,D0,02,00,0A,00,00,00,
88599204,0000070A,false,Rx,0,8,F4,D0,02,00,0A,00,00,00,
88645166,0000070A,false,Rx,0,8,F4,D0,02,00,0A,00,00,00,
88654721,0000012A,false,Rx,0,8,22,00,00,00,00,00,00,00,
88654984,0000070A,false,Rx,0,8,F4,D0,02,00,0A,00,00,00,
88690401,0000070A,false,Rx,0,8,F4,D0,02,00,0A,00,00,00,
88704168,0000070A,false,Rx,0,8,F4,D0,02,00,0A,00,00,00,
88731778,0000070A,false,Rx,0,8,F4,D0,02,00,0A,00,00,00,
88732020,00000152,false,Rx,0,8,01,00,00,00,00,00,00,00,
88736322,0000012A,false,Rx,0,8,1B,00,D0,07,D0,07,D0,07,
88736584,0000070A,false,Rx,0,8,F4,D0,02,00,0A,00,00,00,
88748371,0000070A,false,Rx,0,8,F4,D0,02,00,0A,00,00,00,
88758162,0000070A,false,Rx,0,8,F4,D0,02,00,0A,00,00,00,
88776170,0000070A,false,Rx,0,8,F4,D0,02,00,0A,00,00,00,
88804190,0000070A,false,Rx,0,8,F4,D0,02,00,0A,00,00,00,
88831761,0000070A,false,Rx,0,8,F4,D0,02,00,0A,00,00,00,
88836036,0000012A,false,Rx,0,8,1B,00,D0,07,D0,07,D0,07,
88881163,0000070A,false,Rx,0,8,F4,D0,02,00,0A,00,00,00,
88940877,0000020A,false,Rx,0,6,C9,11,09,12,42,00,00,00,
88945317,0000070A,false,Rx,0,8,F4,D0,02,00,0A,00,00,00,
88945567,0000070A,false,Rx,0,8,F4,D0,02,00,0A,00,00,00,
88981158,0000070A,false,Rx,0,8,F4,D0,02,00,0A,00,00,00,
88999178,0000070A,false,Rx,0,8,F4,D0,02,00,0A,00,00,00,
89080559,0000070A,false,Rx,0,8,F4,D0,02,00,0A,00,00,00,
89104144,0000070A,false,Rx,0,8,F4,D0,02,00,0A,00,00,00,
89131806,00000232,false,Rx,0,8,5B,00,00,00,00,00,00,00,
89136276,0000012A,false,Rx,0,8,1B,00,D0,07,D0,07,D0,07,
89140501,0000020A,false,Rx,0,6,C9,11,09,12,42,00,00,00,
89144887,0000070A,false,Rx,0,8,F4,D0,02,00,0A,00,00,00,
89176150,0000070A,false,Rx,0,8,F4,D0,02,00,0A,00,00,00,
89208145,0000070A,false,Rx,0,8,F4,D0,02,00,0A,00,00,00,
89231800,00000232,false,Rx,0,8,5B,00,00,00,00,00,00,00,
89236137,0000070A,false,Rx,0,8,F4,D0,02,00,0A,00,00,00,
89240138,0000020A,false,Rx,0,6,C9,11,09,12,42,00,00,00,
89245544,0000012A,false,Rx,0,8,1E,00,D0,07,D0,07,D0,07,
89299161,0000070A,false,Rx,0,8,F4,D0,02,00,0A,00,00,00,
89299362,0000020A,false,Rx,0,6,C9,11,09,12,42,00,00,00,
89339878,0000020A,false,Rx,0,6,C9,11,09,12,42,00,00,00,
89345266,0000012A,false,Rx,0,8,1E,00,D0,07,D0,07,D0,07,
89345517,0000070A,false,Rx,0,8,F4,D0,02,00,0A,00,00,00,
89371150,0000070A,false,Rx,0,8,F4,D0,02,00,0A,00,00,00,
89371391,0000012A,false,Rx,0,8,04,00,D0,07,D0,07,D0,07,
89399164,0000070A,false,Rx,0,8,F4,D0,02,00,0A,00,00,00,
89431129,0000070A,false,Rx,0,8,F4,D0,02,00,0A,00,00,00,
89440736,0000020A,false,Rx,0,6,C9,11,09,12,42,00,00,00,
89445093,0000070A,false,Rx,0,8,F4,D0,02,00,0A,00,00,00,
89457881,0000070A,false,Rx,0,8,F4,D0,02,00,0A,00,00,00,
89508350,0000012A,false,Rx,0,8,11,00,D0,07,D0,07,D0,07,
89524847,0000070A,false,Rx,0,8,F4,D0,02,00,0A,00,00,00,
89548118,0000070A,false,Rx,0,8,F4,D0,02,00,0A,00,00,00,
89562302,00000172,false,Rx,0,8,00,01,D0,6A,D0,6A,D0,6A,
89576122,0000070A,false,Rx,0,8,F4,D0,02,00,0A,00,00,00,
89594274,0000070A,false,Rx,0,8,F4,D0,02,00,0A,00,00,00,
89608122,0000070A,false,Rx,0,8,F4,D0,02,00,0A,00,00,00,
89616680,0000012A,false,Rx,0,8,14,00,D0,07,D0,07,D0,07,
89648114,0000070A,false,Rx,0,8,F4,D0,02,00,0A,00,00,00,
89684685,000003B2,false,Rx,0,8,28,00,10,27,00,00,00,00,
89699147,0000070A,false,Rx,0,8,F4,D0,02,00,0A,00,00,00,
89731395,0000070A,false,Rx,0,8,F4,D0,02,00,0A,00,00,00,
89735752,0000012A,false,Rx,0,8,1A,00,D0,07,D0,07,D0,07,
89771121,0000070A,false,Rx,0,8,F4,D0,02,00,0A,00,00,00,
89771361,0000012A,false,Rx,0,8,04,00,D0,07,D0,07,D0,07,
89799135,0000070A,false,Rx,0,8,F4,D0,02,00,0A,00,00,00,
89808324,0000012A,false,Rx,0,8,11,00,D0,07,D0,07,D0,07,
89871121,0000070A,false,Rx,0,8,F4,D0,02,00,0A,00,00,00,
89876111,0000070A,false,Rx,0,8,F4,D0,02,00,0A,00,00,00,
89884158,00000272,false,Rx,0,7,00,00,00,00,00,00,00,00,
89889148,0000070A,false,Rx,0,8,F4,D0,02,00,0A,00,00,00,
89892709,00000232,false,Rx,0,8,5B,00,00,00,00,00,00,00,
89894418,0000070A,false,Rx,0,8,F4,D0,02,00,0A,00,00,00,
89908325,0000012A,false,Rx,0,8,11,00,D0,07,D0,07,D0,07,
89976106,0000070A,false,Rx,0,8,F4,D0,02,00,0A,00,00,00,
90008099,0000070A,false,Rx,0,8,F4,D0,02,00,0A,00,00,00,
90048098,0000070A,false,Rx,0,8,F4,D0,02,00,0A,00,00,00,
90061772,00000232,false,Rx,0,8,5B,00,00,00,00,00,00,00,
90062014,00000152,false,Rx,0,8,02,00,00,00,00,00,00,00,
90085109,0000070A,false,Rx,0,8,F4,D0,02,00,0A,00,00,00,
90126055,0000012A,false,Rx,0,8,17,00,D0,07,D0,07,D0,07,
90231084,0000070A,false,Rx,0,8,F4,D0,02,00,0A,00,00,00,
90235358,0000012A,false,Rx,0,8,1B,00,D0,07,D0,07,D0,07,
90240440,0000020A,false,Rx,0,6,C9,11,09,12,42,00,00,00,
90244775,0000012A,false,Rx,0,8,1E,00,D0,07,D0,07,D0,07,
90245037,0000070A,false,Rx,0,8,F4,D0,02,00,0A,00,00,00,
90269781,0000014A,false,Rx,0,8,00,00,FF,7F,FF,7F,FF,7F,
90269962,0000022A,false,Rx,0,4,00,00,08,00,00,00,00,00,
90270196,0000070A,false,Rx,0,8,F4,D0,02,00,0A,00,00,00,
90280304,0000070A,false,Rx,0,8,F4,D0,02,00,0A,00,00,00,
90284071,000002B2,false,Rx,0,3,00,00,00,00,00,00,00,00,
90289129,0000070A,false,Rx,0,8,F4,D0,02,00,0A,00,00,00,
90326651,0000070A,false,Rx,0,8,F4,D0,02,00,0A,00,00,00,
90330815,0000020A,false,Rx,0,6,C9,11,09,12,42,00,00,00,
90348079,0000070A,false,Rx,0,8,F4,D0,02,00,0A,00,00,00,
90380297,0000070A,false,Rx,0,8,F4,D0,02,00,0A,00,00,00,
90394187,0000070A,false,Rx,0,8,F4,D0,02,00,0A,00,00,00,
90408076,0000070A,false,Rx,0,8,F4,D0,02,00,0A,00,00,00,
90426317,0000012A,false,Rx,0,8,17,00,D0,07,D0,07,D0,07,
90430552,0000020A,false,Rx,0,6,C9,11,09,12,42,00,00,00,
90448070,0000070A,false,Rx,0,8,F4,D0,02,00,0A,00,00,00,
90461765,00000232,false,Rx,0,8,5B,00,00,00,00,00,00,00,
90462017,00000152,false,Rx,0,8,00,00,00,00,00,00,00,00,
90498068,0000070A,false,Rx,0,8,F4,D0,02,00,0A,00,00,00,
90521633,0000012A,false,Rx,0,8,16,00,D0,07,D0,07,D0,07,
90521873,00000232,false,Rx,0,8,5B,00,00,00,00,00,00,00,
90526107,0000012A,false,Rx,0,8,17,00,D0,07,D0,07,D0,07,
90538060,0000070A,false,Rx,0,8,F4,D0,02,00,0A,00,00,00,
90583337,00000272,false,Rx,0,7,00,00,00,00,00,00,00,00,
90657058,0000070A,false,Rx,0,8,F4,D0,02,00,0A,00,00,00,
90671081,0000070A,false,Rx,0,8,F4,D0,02,00,0A,00,00,00,
90675081,0000070A,false,Rx,0,8,F4,D0,02,00,0A,00,00,00,
90689102,0000070A,false,Rx,0,8,F4,D0,02,00,0A,00,00,00,
90708060,0000070A,false,Rx,0,8,F4,D0,02,00,0A,00,00,00,
90728952,0000070A,false,Rx,0,8,F4,D0,02,00,0A,00,00,00,
90734329,0000070A,false,Rx,0,8,F4,D0,02,00,0A,00,00,00,
90748055,0000070A,false,Rx,0,8,F4,D0,02,00,0A,00,00,00,
90761058,0000070A,false,Rx,0,8,F4,D0,02,00,0A,00,00,00,
90780207,0000070A,false,Rx,0,8,F4,D0,02,00,0A,00,00,00,
90783595,000002B2,false,Rx,0,3,00,00,00,00,00,00,00,00,
90794170,0000070A,false,Rx,0,8,F4,D0,02,00,0A,00,00,00,
90798333,0000070A,false,Rx,0,8,F4,D0,02,00,0A,00,00,00,
90807992,0000012A,false,Rx,0,8,11,00,D0,07,D0,07,D0,07,
90820353,0000070A,false,Rx,0,8,F4,D0,02,00,0A,00,00,00,
90834050,0000070A,false,Rx,0,8,F4,D0,02,00,0A,00,00,00,
90848051,0000070A,false,Rx,0,8,F4,D0,02,00,0A,00,00,00,
90852337,0000012A,false,Rx,0,8,21,00,00,00,00,00,00,00,
90861751,00000232,false,Rx,0,8,5B,00,00,00,00,00,00,00,
90880199,0000070A,false,Rx,0,8,F4,D0,02,00,0A,00,00,00,
90938048,0000070A,false,Rx,0,8,F4,D0,02,00,0A,00,00,00,
90957045,0000070A,false,Rx,0,8,F4,D0,02,00,0A,00,00,00,
90961738,00000232,false,Rx,0,8,5B,00,00,00,00,00,00,00,
90971060,0000070A,false,Rx,0,8,F4,D0,02,00,0A,00,00,00,
90989353,0000020A,false,Rx,0,6,C9,11,09,12,42,00,00,00,
91010787,0000070A,false,Rx,0,8,F4,D0,02,00,0A,00,00,00,
91011038,0000070A,false,Rx,0,8,F4,D0,02,00,0A,00,00,00,
91057040,0000070A,false,Rx,0,8,F4,D0,02,00,0A,00,00,00,
91075058,0000070A,false,Rx,0,8,F4,D0,02,00,0A,00,00,00,
91088896,0000012A,false,Rx,0,8,0A,00,D0,07,D0,07,D0,07,
91089148,0000070A,false,Rx,0,8,F4,D0,02,00,0A,00,00,00,
91093371,0000070A,false,Rx,0,8,F4,D0,02,00,0A,00,00,00,
91106362,0000070A,false,Rx,0,8,F4,D0,02,00,0A,00,00,00,
91120262,0000070A,false,Rx,0,8,F4,D0,02,00,0A,00,00,00,
91129065,0000070A,false,Rx,0,8,F4,D0,02,00,0A,00,00,00,
91134034,0000070A,false,Rx,0,8,F4,D0,02,00,0A,00,00,00,
91188050,0000070A,false,Rx,0,8,F4,D0,02,00,0A,00,00,00,
91220136,0000020A,false,Rx,0,6,C9,11,09,12,42,00,00,00,
91227957,0000070A,false,Rx,0,8,F4,D0,02,00,0A,00,00,00,
91246028,0000070A,false,Rx,0,8,F4,D0,02,00,0A,00,00,00,
91246270,0000012A,false,Rx,0,8,1F,00,D0,07,D0,07,D0,07,
91260045,0000070A,false,Rx,0,8,F4,D0,02,00,0A,00,00,00,
91274024,0000070A,false,Rx,0,8,F4,D0,02,00,0A,00,00,00,
91301523,0000014A,false,Rx,0,8,02,00,FF,7F,FF,7F,FF,7F,
91301763,00000232,false,Rx,0,8,5B,00,00,00,00,00,00,00,
91306100,0000070A,false,Rx,0,8,F4,D0,02,00,0A,00,00,00,
91318835,0000070A,false,Rx,0,8,F4,D0,02,00,0A,00,00,00,
91351026,0000070A,false,Rx,0,8,F4,D0,02,00,0A,00,00,00,
91387537,0000070A,false,Rx,0,8,F4,D0,02,00,0A,00,00,00,
91431705,00000232,false,Rx,0,8,5B,00,00,00,00,00,00,00,
91437022,0000070A,false,Rx,0,8,F4,D0,02,00,0A,00,00,00,
91450829,0000070A,false,Rx,0,8,F4,D0,02,00,0A,00,00,00,
91455197,0000012A,false,Rx,0,8,22,00,00,00,00,00,00,00,
91459543,0000020A,false,Rx,0,6,C9,11,09,12,42,00,00,00,
91464755,0000024A,false,Rx,0,1,07,00,00,00,00,00,00,00,
91491021,0000070A,false,Rx,0,8,F4,D0,02,00,0A,00,00,00,
91495022,0000070A,false,Rx,0,8,F4,D0,02,00,0A,00,00,00,
91509043,0000070A,false,Rx,0,8,F4,D0,02,00,0A,00,00,00,
91532454,00000172,false,Rx,0,8,02,00,D0,6A,D0,6A,00,00,
91537016,0000070A,false,Rx,0,8,F4,D0,02,00,0A,00,00,00,
91541016,0000070A,false,Rx,0,8,F4,D0,02,00,0A,00,00,00,
91546371,0000012A,false,Rx,0,8,1F,00,D0,07,D0,07,D0,07,
91554155,0000020A,false,Rx,0,6,C9,11,09,12,42,00,00,00,
91558703,0000070A,false,Rx,0,8,F4,D0,02,00,0A,00,00,00,
91568017,0000070A,false,Rx,0,8,F4,D0,02,00,0A,00,00,00,
91613742,0000012A,false,Rx,0,8,13,00,D0,07,D0,07,D0,07,
91614004,0000070A,false,Rx,0,8,F4,D0,02,00,0A,00,00,00,
91618227,0000012A,false,Rx,0,8,14,00,D0,07,D0,07,D0,07,
91618477,0000070A,false,Rx,0,8,F4,D0,02,00,0A,00,00,00,
91630438,0000070A,false,Rx,0,8,F4,D0,02,00,0A,00,00,00,
91640221,0000070A,false,Rx,0,8,F4,D0,02,00,0A,00,00,00,
91654010,0000070A,false,Rx,0,8,F4,D0,02,00,0A,00,00,00,
91672048,00000152,false,Rx,0,8,01,00,00,00,00,00,00,00,
91672278,00000172,false,Rx,0,8,01,00,D0,6A,D0,6A,D0,6A,
91681700,00000232,false,Rx,0,8,5B,00,00,00,00,00,00,00,
91686179,0000070A,false,Rx,0,8,F4,D0,02,00,0A,00,00,00,
91707867,0000070A,false,Rx,0,8,F4,D0,02,00,0A,00,00,00,
91726008,0000070A,false,Rx,0,8,F4,D0,02,00,0A,00,00,00,
91749389,0000020A,false,Rx,0,6,C9,11,09,12,42,00,00,00,
91753858,0000070A,false,Rx,0,8,F4,D0,02,00,0A,00,00,00,
91761681,0000070A,false,Rx,0,8,F4,D0,02,00,0A,00,00,00,
91811699,00000232,false,Rx,0,8,5B,00,00,00,00,00,00,00,
91830973,0000020A,false,Rx,0,6,C9,11,09,12,42,00,00,00,
91835451,0000012A,false,Rx,0,8,1B,00,D0,07,D0,07,D0,07,
91856998,0000070A,false,Rx,0,8,F4,D0,02,00,0A,00,00,00,
91871019,0000070A,false,Rx,0,8,F4,D0,02,00,0A,00,00,00,
91889037,0000070A,false,Rx,0,8,F4,D0,02,00,0A,00,00,00,
91889237,0000020A,false,Rx,0,6,C9,11,09,12,42,00,00,00,
91916990,0000070A,false,Rx,0,8,F4,D0,02,00,0A,00,00,00,
91926280,0000070A,false,Rx,0,8,F4,D0,02,00,0A,00,00,00,
91930729,0000020A,false,Rx,0,6,C9,11,09,12,42,00,00,00,
91930980,0000012A,false,Rx,0,8,19,00,D0,07,D0,07,D0,07,
91935121,0000070A,false,Rx,0,8,F4,D0,02,00,0A,00,00,00,
91942842,00000401,false,Rx,0,8,01,15,29,00,29,00,29,00,
91945385,00000712,false,Rx,0,8,01,00,C4,09,C4,09,C4,09,
91961008,0000070A,false,Rx,0,8,F4,D0,02,00,0A,00,00,00,
91980208,0000070A,false,Rx,0,8,F4,D0,02,00,0A,00,00,00,
91994005,0000070A,false,Rx,0,8,F4,D0,02,00,0A,00,00,00,
92020952,0000020A,false,Rx,0,6,C9,11,09,12,42,00,00,00,
92034026,0000070A,false,Rx,0,8,F4,D0,02,00,0A,00,00,00,
92061698,00000232,false,Rx,0,8,5B,00,00,00,00,00,00,00,
92125797,0000012A,false,Rx,0,8,17,00,D0,07,D0,07,D0,07,
92126059,0000070A,false,Rx,0,8,F4,D0,02,00,0A,00,00,00,
92161694,00000232,false,Rx,0,8,5B,00,00,00,00,00,00,00,
92197981,0000070A,false,Rx,0,8,F4,D0,02,00,0A,00,00,00,
92225684,0000012A,false,Rx,0,8,17,00,D0,07,D0,07,D0,07,
92225944,0000070A,false,Rx,0,8,F4,D0,02,00,0A,00,00,00,
92229976,0000020A,false,Rx,0,6,C9,11,09,12,42,00,00,00,
92251693,00000232,false,Rx,0,8,5B,00,00,00,00,00,00,00,
92256978,0000070A,false,Rx,0,8,F4,D0,02,00,0A,00,00,00,
92269623,0000014A,false,Rx,0,8,00,00,FF,7F,FF,7F,FF,7F,
92269792,0000022A,false,Rx,0,4,00,00,08,00,00,00,00,00,
92270028,0000070A,false,Rx,0,8,F4,D0,02,00,0A,00,00,00,
92289016,0000070A,false,Rx,0,8,F4,D0,02,00,0A,00,00,00,
92289217,0000020A,false,Rx,0,6,C9,11,09,12,42,00,00,00,
92307314,0000012A,false,Rx,0,8,11,00,D0,07,D0,07,D0,07,
92329002,0000070A,false,Rx,0,8,F4,D0,02,00,0A,00,00,00,
92329193,0000020A,false,Rx,0,6,C9,11,09,12,42,00,00,00,
92374987,0000070A,false,Rx,0,8,F4,D0,02,00,0A,00,00,00,
92388989,0000070A,false,Rx,0,8,F4,D0,02,00,0A,00,00,00,
92420914,0000020A,false,Rx,0,6,C9,11,09,12,42,00,00,00,
92428767,0000070A,false,Rx,0,8,F4,D0,02,00,0A,00,00,00,
92452280,0000012A,false,Rx,0,8,21,00,00,00,00,00,00,00,
92460971,0000070A,false,Rx,0,8,F4,D0,02,00,0A,00,00,00,
92478990,0000070A,false,Rx,0,8,F4,D0,02,00,0A,00,00,00,
92516378,0000012A,false,Rx,0,8,14,00,D0,07,D0,07,D0,07,
92520664,0000014A,false,Rx,0,8,03,00,00,00,00,00,00,00,
92524961,0000012A,false,Rx,0,8,17,00,D0,07,D0,07,D0,07,
92532793,00000172,false,Rx,0,8,00,01,D0,6A,D0,6A,D0,6A,
92537956,0000070A,false,Rx,0,8,F4,D0,02,00,0A,00,00,00,
92538197,0000012A,false,Rx,0,8,1C,00,D0,07,D0,07,D0,07,
92552269,0000012A,false,Rx,0,8,21,00,00,00,00,00,00,00,
92583153,000002B2,false,Rx,0,3,00,00,00,00,00,00,00,00,
92597959,0000070A,false,Rx,0,8,F4,D0,02,00,0A,00,00,00,
92607505,0000012A,false,Rx,0,8,11,00,D0,07,D0,07,D0,07,
92623975,0000070A,false,Rx,0,8,F4,D0,02,00,0A,00,00,00,
92637955,0000070A,false,Rx,0,8,F4,D0,02,00,0A,00,00,00,
92693307,0000012A,false,Rx,0,8,0B,00,D0,07,D0,07,D0,07,
92693557,0000070A,false,Rx,0,8,F4,D0,02,00,0A,00,00,00,
92697892,0000012A,false,Rx,0,8,0D,00,D0,07,D0,07,D0,07,
92705613,0000070A,false,Rx,0,8,F4,D0,02,00,0A,00,00,00,
92728975,0000070A,false,Rx,0,8,F4,D0,02,00,0A,00,00,00,
92760950,0000070A,false,Rx,0,8,F4,D0,02,00,0A,00,00,00,
92779447,0000020A,false,Rx,0,6,C9,11,09,12,42,00,00,00,
92783650,000002B2,false,Rx,0,3,00,00,00,00,00,00,00,00,
92788822,0000012A,false,Rx,0,8,0A,00,D0,07,D0,07,D0,07,
92800968,0000070A,false,Rx,0,8,F4,D0,02,00,0A,00,00,00,
92801218,0000070A,false,Rx,0,8,F4,D0,02,00,0A,00,00,00,
92814942,0000070A,false,Rx,0,8,F4,D0,02,00,0A,00,00,00,
92828975,0000070A,false,Rx,0,8,F4,D0,02,00,0A,00,00,00,
92856495,0000070A,false,Rx,0,8,F4,D0,02,00,0A,00,00,00,
92860933,0000020A,false,Rx,0,6,C9,11,09,12,42,00,00,00,
92900941,0000070A,false,Rx,0,8,F4,D0,02,00,0A,00,00,00,
92905941,0000070A,false,Rx,0,8,F4,D0,02,00,0A,00,00,00,
92918964,0000070A,false,Rx,0,8,F4,D0,02,00,0A,00,00,00,
92956392,0000070A,false,Rx,0,8,F4,D0,02,00,0A,00,00,00,
93000654,0000070A,false,Rx,0,8,F4,D0,02,00,0A,00,00,00,
93005939,0000070A,false,Rx,0,8,F4,D0,02,00,0A,00,00,00,
93037861,0000070A,false,Rx,0,8,F4,D0,02,00,0A,00,00,00,
93038114,0000012A,false,Rx,0,8,1C,00,D0,07,D0,07,D0,07,
93045996,0000012A,false,Rx,0,8,1D,00,D0,07,D0,07,D0,07,
93063942,0000070A,false,Rx,0,8,F4,D0,02,00,0A,00,00,00,
93077934,0000070A,false,Rx,0,8,F4,D0,02,00,0A,00,00,00,
93091764,00000232,false,Rx,0,8,5B,00,00,00,00,00,00,00,
93109944,0000070A,false,Rx,0,8,F4,D0,02,00,0A,00,00,00,
93114241,0000070A,false,Rx,0,8,F4,D0,02,00,0A,00,00,00,
93115069,0000070A,false,Rx,0,8,F4,D0,02,00,0A,00,00,00,
93131651,00000232,false,Rx,0,8,5B,00,00,00,00,00,00,00,
93201023,0000070A,false,Rx,0,8,F4,D0,02,00,0A,00,00,00,
93205380,0000012A,false,Rx,0,8,10,00,D0,07,D0,07,D0,07,
93205641,0000070A,false,Rx,0,8,F4,D0,02,00,0A,00,00,00,
93240926,0000070A,false,Rx,0,8,F4,D0,02,00,0A,00,00,00,
93241158,0000012A,false,Rx,0,8,1D,00,D0,07,D0,07,D0,07,
93254923,0000070A,false,Rx,0,8,F4,D0,02,00,0A,00,00,00,
93294757,0000070A,false,Rx,0,8,F4,D0,02,00,0A,00,00,00,
93295009,0000070A,false,Rx,0,8,F4,D0,02,00,0A,00,00,00,
93326919,0000070A,false,Rx,0,8,F4,D0,02,00,0A,00,00,00,
93340912,0000070A,false,Rx,0,8,F4,D0,02,00,0A,00,00,00,
93350163,0000020A,false,Rx,0,6,C9,11,09,12,42,00,00,00,
93350433,0000012A,false,Rx,0,8,20,00,00,00,00,00,00,00,
93354594,0000012A,false,Rx,0,8,22,00,00,00,00,00,00,00,
93354855,0000070A,false,Rx,0,8,F4,D0,02,00,0A,00,00,00,
93390143,0000070A,false,Rx,0,8,F4,D0,02,00,0A,00,00,00,
93445759,0000070A,false,Rx,0,8,F4,D0,02,00,0A,00,00,00,
93450268,0000020A,false,Rx,0,6,C9,11,09,12,42,00,00,00,
93490145,0000070A,false,Rx,0,8,F4,D0,02,00,0A,00,00,00,
93503912,0000070A,false,Rx,0,8,F4,D0,02,00,0A,00,00,00,
93504144,0000012A,false,Rx,0,8,10,00,D0,07,D0,07,D0,07,
93517909,0000070A,false,Rx,0,8,F4,D0,02,00,0A,00,00,00,
93543799,0000070A,false,Rx,0,8,F4,D0,02,00,0A,00,00,00,
93548932,0000070A,false,Rx,0,8,F4,D0,02,00,0A,00,00,00,
93557908,0000070A,false,Rx,0,8,F4,D0,02,00,0A,00,00,00,
93571655,00000232,false,Rx,0,8,5B,00,00,00,00,00,00,00,
93631624,00000232,false,Rx,0,8,5B,00,00,00,00,00,00,00,
93640977,0000070A,false,Rx,0,8,F4,D0,02,00,0A,00,00,00,
93645405,0000070A,false,Rx,0,8,F4,D0,02,00,0A,00,00,00,
93680896,0000070A,false,Rx,0,8,F4,D0,02,00,0A,00,00,00,
93694899,0000070A,false,Rx,0,8,F4,D0,02,00,0A,00,00,00,
93726898,0000070A,false,Rx,0,8,F4,D0,02,00,0A,00,00,00,
93727129,0000012A,false,Rx,0,8,18,00,D0,07,D0,07,D0,07,
93748641,0000070A,false,Rx,0,8,F4,D0,02,00,0A,00,00,00,
93748891,0000070A,false,Rx,0,8,F4,D0,02,00,0A,00,00,00,
93780896,0000070A,false,Rx,0,8,F4,D0,02,00,0A,00,00,00,
93790331,0000070A,false,Rx,0,8,F4,D0,02,00,0A,00,00,00,
93798918,0000070A,false,Rx,0,8,F4,D0,02,00,0A,00,00,00,
93826887,0000070A,false,Rx,0,8,F4,D0,02,00,0A,00,00,00,
93890121,0000070A,false,Rx,0,8,F4,D0,02,00,0A,00,00,00,
93903897,0000070A,false,Rx,0,8,F4,D0,02,00,0A,00,00,00,
93904149,0000012A,false,Rx,0,8,10,00,D0,07,D0,07,D0,07,
93917822,0000012A,false,Rx,0,8,14,00,D0,07,D0,07,D0,07,
93930111,0000070A,false,Rx,0,8,F4,D0,02,00,0A,00,00,00,
93944132,0000070A,false,Rx,0,8,F4,D0,02,00,0A,00,00,00,
93957879,0000070A,false,Rx,0,8,F4,D0,02,00,0A,00,00,00,
93975888,0000070A,false,Rx,0,8,F4,D0,02,00,0A,00,00,00,
93990093,0000070A,false,Rx,0,8,F4,D0,02,00,0A,00,00,00,
94003880,0000070A,false,Rx,0,8,F4,D0,02,00,0A,00,00,00,
94017810,0000012A,false,Rx,0,8,14,00,D0,07,D0,07,D0,07,
94025665,0000012A,false,Rx,0,8,16,00,D0,07,D0,07,D0,07,
94043876,0000070A,false,Rx,0,8,F4,D0,02,00,0A,00,00,00,
94071623,00000232,false,Rx,0,8,5B,00,00,00,00,00,00,00,
94075878,0000070A,false,Rx,0,8,F4,D0,02,00,0A,00,00,00,
94094874,0000070A,false,Rx,0,8,F4,D0,02,00,0A,00,00,00,
94099262,0000020A,false,Rx,0,6,C9,11,09,12,42,00,00,00,
94099513,0000012A,false,Rx,0,8,0E,00,D0,07,D0,07,D0,07,
94103654,0000070A,false,Rx,0,8,F4,D0,02,00,0A,00,00,00,
94120888,0000070A,false,Rx,0,8,F4,D0,02,00,0A,00,00,00,
94121130,0000012A,false,Rx,0,8,16,00,D0,07,D0,07,D0,07,
94134873,0000070A,false,Rx,0,8,F4,D0,02,00,0A,00,00,00,
94180877,0000070A,false,Rx,0,8,F4,D0,02,00,0A,00,00,00,
94194868,0000070A,false,Rx,0,8,F4,D0,02,00,0A,00,00,00,
94199001,0000070A,false,Rx,0,8,F4,D0,02,00,0A,00,00,00,
94199212,0000020A,false,Rx,0,6,C9,11,09,12,42,00,00,00,
94230287,0000070A,false,Rx,0,8,F4,D0,02,00,0A,00,00,00,
94234869,0000070A,false,Rx,0,8,F4,D0,02,00,0A,00,00,00,
94238900,0000070A,false,Rx,0,8,F4,D0,02,00,0A,00,00,00,
94257867,0000070A,false,Rx,0,8,F4,D0,02,00,0A,00,00,00,
94280586,0000070A,false,Rx,0,8,F4,D0,02,00,0A,00,00,00,
94290224,0000020A,false,Rx,0,6,C9,11,09,12,42,00,00,00,
94294591,0000012A,false,Rx,0,8,0C,00,D0,07,D0,07,D0,07,
94310866,0000070A,false,Rx,0,8,F4,D0,02,00,0A,00,00,00,
94356861,0000070A,false,Rx,0,8,F4,D0,02,00,0A,00,00,00,
94357861,0000070A,false,Rx,0,8,F4,D0,02,00,0A,00,00,00,
94371620,00000232,false,Rx,0,8,5B,00,00,00,00,00,00,00,
94371870,00000152,false,Rx,0,8,01,00,00,00,00,00,00,00,
94397789,0000070A,false,Rx,0,8,F4,D0,02,00,0A,00,00,00,
94411606,00000232,false,Rx,0,8,5B,00,00,00,00,00,00,00,
94411847,00000152,false,Rx,0,8,02,00,00,00,00,00,00,00,
94430077,0000070A,false,Rx,0,8,F4,D0,02,00,0A,00,00,00,
94439470,0000020A,false,Rx,0,6,C9,11,09,12,42,00,00,00,
94443898,0000012A,false,Rx,0,8,1E,00,D0,07,D0,07,D0,07,
94455820,0000070A,false,Rx,0,8,F4,D0,02,00,0A,00,00,00,
94474879,0000070A,false,Rx,0,8,F4,D0,02,00,0A,00,00,00,
94507122,0000012A,false,Rx,0,8,11,00,D0,07,D0,07,D0,07,
94511530,0000020A,false,Rx,0,6,C9,11,09,12,42,00,00,00,
94515847,0000070A,false,Rx,0,8,F4,D0,02,00,0A,00,00,00,
94528880,0000070A,false,Rx,0,8,F4,D0,02,00,0A,00,00,00,
94560874,0000070A,false,Rx,0,8,F4,D0,02,00,0A,00,00,00,
94574866,0000070A,false,Rx,0,8,F4,D0,02,00,0A,00,00,00,
94601592,00000232,false,Rx,0,8,5B,00,00,00,00,00,00,00,
94606938,0000070A,false,Rx,0,8,F4,D0,02,00,0A,00,00,00,
94607189,0000012A,false,Rx,0,8,11,00,D0,07,D0,07,D0,07,
94611289,0000020A,false,Rx,0,6,C9,11,09,12,42,00,00,00,
94628868,0000070A,false,Rx,0,8,F4,D0,02,00,0A,00,00,00,
94651088,0000070A,false,Rx,0,8,F4,D0,02,00,0A,00,00,00,
94660848,0000070A,false,Rx,0,8,F4,D0,02,00,0A,00,00,00,
94674839,0000070A,false,Rx,0,8,F4,D0,02,00,0A,00,00,00,
94688403,0000012A,false,Rx,0,8,0A,00,D0,07,D0,07,D0,07,
94688653,0000070A,false,Rx,0,8,F4,D0,02,00,0A,00,00,00,
94737837,0000070A,false,Rx,0,8,F4,D0,02,00,0A,00,00,00,
94788398,0000012A,false,Rx,0,8,0A,00,D0,07,D0,07,D0,07,
94805763,0000070A,false,Rx,0,8,F4,D0,02,00,0A,00,00,00,
94823833,0000070A,false,Rx,0,8,F4,D0,02,00,0A,00,00,00,
94824074,0000012A,false,Rx,0,8,17,00,D0,07,D0,07,D0,07,
94832426,00000172,false,Rx,0,8,02,00,D0,6A,D0,6A,00,00,
94837832,0000070A,false,Rx,0,8,F4,D0,02,00,0A,00,00,00,
94838074,0000012A,false,Rx,0,8,1C,00,D0,07,D0,07,D0,07,
94851592,00000232,false,Rx,0,8,5B,00,00,00,00,00,00,00,
94851833,00000152,false,Rx,0,8,01,00,00,00,00,00,00,00,
94888110,0000012A,false,Rx,0,8,0A,00,D0,07,D0,07,D0,07,
94905689,0000070A,false,Rx,0,8,F4,D0,02,00,0A,00,00,00,
94909852,0000070A,false,Rx,0,8,F4,D0,02,00,0A,00,00,00,
94923832,0000070A,false,Rx,0,8,F4,D0,02,00,0A,00,00,00,
94937832,0000070A,false,Rx,0,8,F4,D0,02,00,0A,00,00,00,
94951589,00000232,false,Rx,0,8,5B,00,00,00,00,00,00,00,
94961055,0000020A,false,Rx,0,6,C9,11,09,12,42,00,00,00,
95000868,0000070A,false,Rx,0,8,F4,D0,02,00,0A,00,00,00,
95014820,0000070A,false,Rx,0,8,F4,D0,02,00,0A,00,00,00,
95054706,0000070A,false,Rx,0,8,F4,D0,02,00,0A,00,00,00,
95054978,0000070A,false,Rx,0,8,F4,D0,02,00,0A,00,00,00,
95114813,0000070A,false,Rx,0,8,F4,D0,02,00,0A,00,00,00,
95118845,0000070A,false,Rx,0,8,F4,D0,02,00,0A,00,00,00,
95119047,0000020A,false,Rx,0,6,C9,11,09,12,42,00,00,00,
95124095,0000012A,false,Rx,0,8,17,00,D0,07,D0,07,D0,07,
95128524,0000012A,false,Rx,0,8,18,00,D0,07,D0,07,D0,07,
95132790,0000070A,false,Rx,0,8,F4,D0,02,00,0A,00,00,00,
95140839,0000070A,false,Rx,0,8,F4,D0,02,00,0A,00,00,00,
95150284,0000070A,false,Rx,0,8,F4,D0,02,00,0A,00,00,00,
95154468,0000070A,false,Rx,0,8,F4,D0,02,00,0A,00,00,00,
95158855,0000070A,false,Rx,0,8,F4,D0,02,00,0A,00,00,00,
95204820,0000070A,false,Rx,0,8,F4,D0,02,00,0A,00,00,00,
95210106,0000012A,false,Rx,0,8,12,00,D0,07,D0,07,D0,07,
95214443,0000012A,false,Rx,0,8,13,00,D0,07,D0,07,D0,07,
95218656,0000012A,false,Rx,0,8,15,00,D0,07,D0,07,D0,07,
95224094,0000012A,false,Rx,0,8,17,00,D0,07,D0,07,D0,07,
95236169,0000070A,false,Rx,0,8,F4,D0,02,00,0A,00,00,00,
95250282,0000070A,false,Rx,0,8,F4,D0,02,00,0A,00,00,00,
95277813,0000070A,false,Rx,0,8,F4,D0,02,00,0A,00,00,00,
95291671,00000232,false,Rx,0,8,5B,00,00,00,00,00,00,00,
95291922,00000152,false,Rx,0,8,00,00,00,00,00,00,00,00,
95305536,0000012A,false,Rx,0,8,10,00,D0,07,D0,07,D0,07,
95309812,0000020A,false,Rx,0,6,C9,11,09,12,42,00,00,00,
95310062,0000012A,false,Rx,0,8,12,00,D0,07,D0,07,D0,07,
95317750,0000070A,false,Rx,0,8,F4,D0,02,00,0A,00,00,00,
95331558,00000232,false,Rx,0,8,5B,00,00,00,00,00,00,00,
95331808,00000152,false,Rx,0,8,01,00,00,00,00,00,00,00,
95340232,0000070A,false,Rx,0,8,F4,D0,02,00,0A,00,00,00,
95377649,0000012A,false,Rx,0,8,06,00,D0,07,D0,07,D0,07,
95408830,0000070A,false,Rx,0,8,F4,D0,02,00,0A,00,00,00,
95431560,00000232,false,Rx,0,8,5B,00,00,00,00,00,00,00,
95435806,0000070A,false,Rx,0,8,F4,D0,02,00,0A,00,00,00,
95454803,0000070A,false,Rx,0,8,F4,D0,02,00,0A,00,00,00,
95459293,0000020A,false,Rx,0,6,C9,11,09,12,42,00,00,00,
95475496,0000070A,false,Rx,0,8,F4,D0,02,00,0A,00,00,00,
95480801,0000070A,false,Rx,0,8,F4,D0,02,00,0A,00,00,00,
95494803,0000070A,false,Rx,0,8,F4,D0,02,00,0A,00,00,00,
95508823,0000070A,false,Rx,0,8,F4,D0,02,00,0A,00,00,00,
95540801,0000070A,false,Rx,0,8,F4,D0,02,00,0A,00,00,00,
95541033,0000012A,false,Rx,0,8,1D,00,D0,07,D0,07,D0,07,
95550282,0000020A,false,Rx,0,6,C9,11,09,12,42,00,00,00,
95554546,0000012A,false,Rx,0,8,22,00,00,00,00,00,00,00,
95554807,0000070A,false,Rx,0,8,F4,D0,02,00,0A,00,00,00,
95580795,0000070A,false,Rx,0,8,F4,D0,02,00,0A,00,00,00,
95594796,0000070A,false,Rx,0,8,F4,D0,02,00,0A,00,00,00,
95626791,0000070A,false,Rx,0,8,F4,D0,02,00,0A,00,00,00,
95636460,0000012A,false,Rx,0,8,1B,00,D0,07,D0,07,D0,07,
95640531,0000020A,false,Rx,0,6,C9,11,09,12,42,00,00,00,
95690083,0000070A,false,Rx,0,8,F4,D0,02,00,0A,00,00,00,
95717745,0000012A,false,Rx,0,8,14,00,D0,07,D0,07,D0,07,
95717997,0000070A,false,Rx,0,8,F4,D0,02,00,0A,00,00,00,
95725542,0000012A,false,Rx,0,8,16,00,D0,07,D0,07,D0,07,
95725773,0000070A,false,Rx,0,8,F4,D0,02,00,0A,00,00,00,
95730180,0000070A,false,Rx,0,8,F4,D0,02,00,0A,00,00,00,
95743805,0000070A,false,Rx,0,8,F4,D0,02,00,0A,00,00,00,
95757787,0000070A,false,Rx,0,8,F4,D0,02,00,0A,00,00,00,
95771555,00000232,false,Rx,0,8,5B,00,00,00,00,00,00,00,
95771805,00000152,false,Rx,0,8,00,00,00,00,00,00,00,00,
95803780,0000070A,false,Rx,0,8,F4,D0,02,00,0A,00,00,00,
95817782,0000070A,false,Rx,0,8,F4,D0,02,00,0A,00,00,00,
95831529,00000232,false,Rx,0,8,5B,00,00,00,00,00,00,00,
95831780,00000152,false,Rx,0,8,00,00,00,00,00,00,00,00,
95863783,0000070A,false,Rx,0,8,F4,D0,02,00,0A,00,00,00,
95877774,0000070A,false,Rx,0,8,F4,D0,02,00,0A,00,00,00,
95891643,00000232,false,Rx,0,8,5B,00,00,00,00,00,00,00,
95895777,0000070A,false,Rx,0,8,F4,D0,02,00,0A,00,00,00,
95909777,0000070A,false,Rx,0,8,F4,D0,02,00,0A,00,00,00,
95923778,0000070A,false,Rx,0,8,F4,D0,02,00,0A,00,00,00,
95927778,0000070A,false,Rx,0,8,F4,D0,02,00,0A,00,00,00,
95951536,00000232,false,Rx,0,8,5B,00,00,00,00,00,00,00,
95955772,0000070A,false,Rx,0,8,F4,D0,02,00,0A,00,00,00,
95960770,0000070A,false,Rx,0,8,F4,D0,02,00,0A,00,00,00,
96006773,0000070A,false,Rx,0,8,F4,D0,02,00,0A,00,00,00,
96019774,0000070A,false,Rx,0,8,F4,D0,02,00,0A,00,00,00,
96033764,0000070A,false,Rx,0,8,F4,D0,02,00,0A,00,00,00,
96061531,00000232,false,Rx,0,8,5B,00,00,00,00,00,00,00,
96066764,0000070A,false,Rx,0,8,F4,D0,02,00,0A,00,00,00,
96068838,0000070A,false,Rx,0,8,F4,D0,02,00,0A,00,00,00,
96098795,0000070A,false,Rx,0,8,F4,D0,02,00,0A,00,00,00,
96098997,0000020A,false,Rx,0,6,C9,11,09,12,42,00,00,00,
96158799,0000070A,false,Rx,0,8,F4,D0,02,00,0A,00,00,00,
96204761,0000070A,false,Rx,0,8,F4,D0,02,00,0A,00,00,00,
96218784,0000070A,false,Rx,0,8,F4,D0,02,00,0A,00,00,00,
96236762,0000070A,false,Rx,0,8,F4,D0,02,00,0A,00,00,00,
96250754,0000070A,false,Rx,0,8,F4,D0,02,00,0A,00,00,00,
96310756,0000070A,false,Rx,0,8,F4,D0,02,00,0A,00,00,00,
96324758,0000070A,false,Rx,0,8,F4,D0,02,00,0A,00,00,00,
96328779,0000070A,false,Rx,0,8,F4,D0,02,00,0A,00,00,00,
96328980,0000020A,false,Rx,0,6,C9,11,09,12,42,00,00,00,
96356750,0000070A,false,Rx,0,8,F4,D0,02,00,0A,00,00,00,
96368886,0000070A,false,Rx,0,8,F4,D0,02,00,0A,00,00,00,
96369087,0000020A,false,Rx,0,6,C9,11,09,12,42,00,00,00,
96369331,0000014A,false,Rx,0,8,00,00,FF,7F,FF,7F,FF,7F,
96369506,0000022A,false,Rx,0,4,00,00,08,00,00,00,00,00,
96370772,0000070A,false,Rx,0,8,F4,D0,02,00,0A,00,00,00,
96388775,0000070A,false,Rx,0,8,F4,D0,02,00,0A,00,00,00,
96406751,0000070A,false,Rx,0,8,F4,D0,02,00,0A,00,00,00,
96406982,0000012A,false,Rx,0,8,11,00,D0,07,D0,07,D0,07,
96407752,0000070A,false,Rx,0,8,F4,D0,02,00,0A,00,00,00,
96409748,0000070A,false,Rx,0,8,F4,D0,02,00,0A,00,00,00,
96409993,0000012A,false,Rx,0,8,12,00,D0,07,D0,07,D0,07,
96421534,00000232,false,Rx,0,8,5B,00,00,00,00,00,00,00,
96425750,0000070A,false,Rx,0,8,F4,D0,02,00,0A,00,00,00,
96430749,0000070A,false,Rx,0,8,F4,D0,02,00,0A,00,00,00,
96471541,00000232,false,Rx,0,8,5B,00,00,00,00,00,00,00,
96495138,0000070A,false,Rx,0,8,F4,D0,02,00,0A,00,00,00,
96499374,0000020A,false,Rx,0,6,C9,11,09,12,42,00,00,00,
96530745,0000070A,false,Rx,0,8,F4,D0,02,00,0A,00,00,00,
96576843,0000070A,false,Rx,0,8,F4,D0,02,00,0A,00,00,00,
96580934,0000020A,false,Rx,0,6,C9,11,09,12,42,00,00,00,
96581175,00000112,false,Rx,0,8,00,00,00,00,00,00,59,07,
96595051,00000401,false,Rx,0,8,22,2A,00,00,00,00,00,00,
96616737,0000070A,false,Rx,0,8,F4,D0,02,00,0A,00,00,00,
96630739,0000070A,false,Rx,0,8,F4,D0,02,00,0A,00,00,00,
96639971,0000070A,false,Rx,0,8,F4,D0,02,00,0A,00,00,00,
96648873,0000070A,false,Rx,0,8,F4,D0,02,00,0A,00,00,00,
96658196,0000012A,false,Rx,0,8,23,00,00,00,00,00,00,00,
96679956,0000070A,false,Rx,0,8,F4,D0,02,00,0A,00,00,00,
96682702,000002B2,false,Rx,0,3,00,00,00,00,00,00,00,00,
96693735,0000070A,false,Rx,0,8,F4,D0,02,00,0A,00,00,00,
96706727,0000070A,false,Rx,0,8,F4,D0,02,00,0A,00,00,00,
96707737,0000070A,false,Rx,0,8,F4,D0,02,00,0A,00,00,00,
96720732,0000070A,false,Rx,0,8,F4,D0,02,00,0A,00,00,00,
96721520,00000232,false,Rx,0,8,5B,00,00,00,00,00,00,00,
96735299,0000012A,false,Rx,0,8,1B,00,D0,07,D0,07,D0,07,
96739840,0000020A,false,Rx,0,6,C9,11,09,12,42,00,00,00,
96761527,00000232,false,Rx,0,8,5B,00,00,00,00,00,00,00,
96779964,0000070A,false,Rx,0,8,F4,D0,02,00,0A,00,00,00,
96793729,0000070A,false,Rx,0,8,F4,D0,02,00,0A,00,00,00,
96807731,0000070A,false,Rx,0,8,F4,D0,02,00,0A,00,00,00,
96821528,00000232,false,Rx,0,8,5B,00,00,00,00,00,00,00,
96825724,0000070A,false,Rx,0,8,F4,D0,02,00,0A,00,00,00,
96830214,0000070A,false,Rx,0,8,F4,D0,02,00,0A,00,00,00,
96835275,0000012A,false,Rx,0,8,1B,00,D0,07,D0,07,D0,07,
96839581,0000020A,false,Rx,0,6,C9,11,09,12,42,00,00,00,
96839811,0000020A,false,Rx,0,6,C9,11,09,12,42,00,00,00,
96861517,00000232,false,Rx,0,8,5B,00,00,00,00,00,00,00,
96897723,0000070A,false,Rx,0,8,F4,D0,02,00,0A,00,00,00,
96921521,00000232,false,Rx,0,8,5B,00,00,00,00,00,00,00,
96925564,0000070A,false,Rx,0,8,F4,D0,02,00,0A,00,00,00,
96930704,0000020A,false,Rx,0,6,C9,11,09,12,42,00,00,00,
96970721,0000070A,false,Rx,0,8,F4,D0,02,00,0A,00,00,00,
97016682,0000012A,false,Rx,0,8,14,00,D0,07,D0,07,D0,07,
97016934,0000070A,false,Rx,0,8,F4,D0,02,00,0A,00,00,00,
97024602,0000070A,false,Rx,0,8,F4,D0,02,00,0A,00,00,00,
97056718,0000070A,false,Rx,0,8,F4,D0,02,00,0A,00,00,00,
97056961,0000012A,false,Rx,0,8,23,00,00,00,00,00,00,00,
97070736,0000070A,false,Rx,0,8,F4,D0,02,00,0A,00,00,00,
97082831,00000272,false,Rx,0,7,00,00,00,00,00,00,00,00,
97088758,0000070A,false,Rx,0,8,F4,D0,02,00,0A,00,00,00,
97088958,0000020A,false,Rx,0,6,C9,11,09,12,42,00,00,00,
97098463,0000012A,false,Rx,0,8,0D,00,D0,07,D0,07,D0,07,
97102758,00000172,false,Rx,0,8,01,00,D0,6A,D0,6A,D0,6A,
97105303,00000401,false,Rx,0,8,0D,00,2E,00,2E,00,2E,00,
97110586,0000070A,false,Rx,0,8,F4,D0,02,00,0A,00,00,00,
97120125,0000070A,false,Rx,0,8,F4,D0,02,00,0A,00,00,00,
97128732,0000070A,false,Rx,0,8,F4,D0,02,00,0A,00,00,00,
97187694,0000070A,false,Rx,0,8,F4,D0,02,00,0A,00,00,00,
97201492,00000232,false,Rx,0,8,5B,00,00,00,00,00,00,00,
97219919,0000070A,false,Rx,0,8,F4,D0,02,00,0A,00,00,00,
97250243,0000070A,false,Rx,0,8,F4,D0,02,00,0A,00,00,00,
97264102,0000076A,false,Rx,0,8,00,00,00,00,00,00,00,00,
97273701,0000070A,false,Rx,0,8,F4,D0,02,00,0A,00,00,00,
97287702,0000070A,false,Rx,0,8,F4,D0,02,00,0A,00,00,00,
97301489,00000232,false,Rx,0,8,5B,00,00,00,00,00,00,00,
97301730,00000152,false,Rx,0,8,00,00,00,00,00,00,00,00,
97305831,0000070A,false,Rx,0,8,F4,D0,02,00,0A,00,00,00,
97327702,0000070A,false,Rx,0,8,F4,D0,02,00,0A,00,00,00,
97341510,00000232,false,Rx,0,8,5B,00,00,00,00,00,00,00,
97345694,0000070A,false,Rx,0,8,F4,D0,02,00,0A,00,00,00,
97350968,0000070A,false,Rx,0,8,F4,D0,02,00,0A,00,00,00,
97377693,0000070A,false,Rx,0,8,F4,D0,02,00,0A,00,00,00,
97401483,00000232,false,Rx,0,8,5B,00,00,00,00,00,00,00,
97405556,0000070A,false,Rx,0,8,F4,D0,02,00,0A,00,00,00,
97410922,0000020A,false,Rx,0,6,C9,11,09,12,42,00,00,00,
97478539,0000070A,false,Rx,0,8,F4,D0,02,00,0A,00,00,00,
97500157,0000070A,false,Rx,0,8,F4,D0,02,00,0A,00,00,00,
97504686,0000070A,false,Rx,0,8,F4,D0,02,00,0A,00,00,00,
97518718,0000070A,false,Rx,0,8,F4,D0,02,00,0A,00,00,00,
97532210,00000172,false,Rx,0,8,02,00,D0,6A,D0,6A,00,00,
97532462,00000232,false,Rx,0,8,5B,00,00,00,00,00,00,00,
97536684,0000070A,false,Rx,0,8,F4,D0,02,00,0A,00,00,00,
97550686,0000070A,false,Rx,0,8,F4,D0,02,00,0A,00,00,00,
97564290,0000024A,false,Rx,0,1,07,00,00,00,00,00,00,00,
97564458,0000026A,false,Rx,0,3,00,00,00,00,00,00,00,00,
97564682,00000682,false,Rx,0,6,00,44,45,01,04,06,00,00,
97590692,0000070A,false,Rx,0,8,F4,D0,02,00,0A,00,00,00,
97600138,0000070A,false,Rx,0,8,F4,D0,02,00,0A,00,00,00,
97608715,0000070A,false,Rx,0,8,F4,D0,02,00,0A,00,00,00,
97632210,00000172,false,Rx,0,8,00,01,D0,6A,D0,6A,D0,6A,
97667682,0000070A,false,Rx,0,8,F4,D0,02,00,0A,00,00,00,
97667922,0000012A,false,Rx,0,8,03,00,D0,07,D0,07,D0,07,
97713700,0000070A,false,Rx,0,8,F4,D0,02,00,0A,00,00,00,
97727681,0000070A,false,Rx,0,8,F4,D0,02,00,0A,00,00,00,
97745853,0000012A,false,Rx,0,8,1F,00,D0,07,D0,07,D0,07,
97758032,0000070A,false,Rx,0,8,F4,D0,02,00,0A,00,00,00,
97767679,0000070A,false,Rx,0,8,F4,D0,02,00,0A,00,00,00,
97781467,00000232,false,Rx,0,8,5B,00,00,00,00,00,00,00,
97781717,00000152,false,Rx,0,8,00,00,00,00,00,00,00,00,
97827677,0000070A,false,Rx,0,8,F4,D0,02,00,0A,00,00,00,
97837072,0000070A,false,Rx,0,8,F4,D0,02,00,0A,00,00,00,
97858708,0000070A,false,Rx,0,8,F4,D0,02,00,0A,00,00,00,
97881468,00000232,false,Rx,0,8,5B,00,00,00,00,00,00,00,
97904674,0000070A,false,Rx,0,8,F4,D0,02,00,0A,00,00,00,
97917666,0000070A,false,Rx,0,8,F4,D0,02,00,0A,00,00,00,
97923238,0000070A,false,Rx,0,8,F4,D0,02,00,0A,00,00,00,
97927329,0000012A,false,Rx,0,8,18,00,D0,07,D0,07,D0,07,
97930963,0000070A,false,Rx,0,8,F4,D0,02,00,0A,00,00,00,
97944669,0000070A,false,Rx,0,8,F4,D0,02,00,0A,00,00,00,
97958700,0000070A,false,Rx,0,8,F4,D0,02,00,0A,00,00,00,
97981225,0000070A,false,Rx,0,8,F4,D0,02,00,0A,00,00,00,
97990873,0000020A,false,Rx,0,6,C9,11,09,12,42,00,00,00,
97994996,0000070A,false,Rx,0,8,F4,D0,02,00,0A,00,00,00,
98030702,0000070A,false,Rx,0,8,F4,D0,02,00,0A,00,00,00,
98044591,0000070A,false,Rx,0,8,F4,D0,02,00,0A,00,00,00,
98054088,0000012A,false,Rx,0,8,22,00,00,00,00,00,00,00,
98070659,0000070A,false,Rx,0,8,F4,D0,02,00,0A,00,00,00,
98088707,0000070A,false,Rx,0,8,F4,D0,02,00,0A,00,00,00,
98116653,0000070A,false,Rx,0,8,F4,D0,02,00,0A,00,00,00,
98130534,0000070A,false,Rx,0,8,F4,D0,02,00,0A,00,00,00,
98135676,0000012A,false,Rx,0,8,1B,00,D0,07,D0,07,D0,07,
98175654,0000070A,false,Rx,0,8,F4,D0,02,00,0A,00,00,00,
98179950,0000070A,false,Rx,0,8,F4,D0,02,00,0A,00,00,00,
98207655,0000070A,false,Rx,0,8,F4,D0,02,00,0A,00,00,00,
98221472,00000232,false,Rx,0,8,5B,00,00,00,00,00,00,00,
98221712,00000152,false,Rx,0,8,02,00,00,00,00,00,00,00,
98235651,0000012A,false,Rx,0,8,1B,00,D0,07,D0,07,D0,07,
98239898,0000020A,false,Rx,0,6,C9,11,09,12,42,00,00,00,
98247680,0000070A,false,Rx,0,8,F4,D0,02,00,0A,00,00,00,
98261458,00000232,false,Rx,0,8,5B,00,00,00,00,00,00,00,
98261708,00000152,false,Rx,0,8,00,00,00,00,00,00,00,00,
98275656,0000070A,false,Rx,0,8,F4,D0,02,00,0A,00,00,00,
98279870,0000070A,false,Rx,0,8,F4,D0,02,00,0A,00,00,00,
98307644,0000070A,false,Rx,0,8,F4,D0,02,00,0A,00,00,00,
98321461,00000232,false,Rx,0,8,5B,00,00,00,00,00,00,00,
98325778,0000070A,false,Rx,0,8,F4,D0,02,00,0A,00,00,00,
98330869,0000020A,false,Rx,0,6,C9,11,09,12,42,00,00,00,
98361458,00000232,false,Rx,0,8,5B,00,00,00,00,00,00,00,
98421196,0000012A,false,Rx,0,8,16,00,D0,07,D0,07,D0,07,
98498661,0000070A,false,Rx,0,8,F4,D0,02,00,0A,00,00,00,
98516679,0000070A,false,Rx,0,8,F4,D0,02,00,0A,00,00,00,
98516931,0000070A,false,Rx,0,8,F4,D0,02,00,0A,00,00,00,
98528881,0000070A,false,Rx,0,8,F4,D0,02,00,0A,00,00,00,
98538662,0000070A,false,Rx,0,8,F4,D0,02,00,0A,00,00,00,
98570638,0000070A,false,Rx,0,8,F4,D0,02,00,0A,00,00,00,
98607863,0000012A,false,Rx,0,8,11,00,D0,07,D0,07,D0,07,
98675634,0000070A,false,Rx,0,8,F4,D0,02,00,0A,00,00,00,
98680013,0000012A,false,Rx,0,8,07,00,D0,07,D0,07,D0,07,
98680202,0000022A,false,Rx,0,4,00,00,08,00,00,00,00,00,
98689500,0000020A,false,Rx,0,6,C9,11,09,12,42,00,00,00,
98693970,0000012A,false,Rx,0,8,0C,00,D0,07,D0,07,D0,07,
98715627,0000070A,false,Rx,0,8,F4,D0,02,00,0A,00,00,00,
98720057,0000070A,false,Rx,0,8,F4,D0,02,00,0A,00,00,00,
98757201,0000012A,false,Rx,0,8,23,00,00,00,00,00,00,00,
98761823,0000012A,false,Rx,0,8,00,00,D0,07,D0,07,D0,07,
98787619,0000070A,false,Rx,0,8,F4,D0,02,00,0A,00,00,00,
98815618,0000070A,false,Rx,0,8,F4,D0,02,00,0A,00,00,00,
98819832,0000070A,false,Rx,0,8,F4,D0,02,00,0A,00,00,00,
98829379,0000020A,false,Rx,0,6,C9,11,09,12,42,00,00,00,
98832004,00000172,false,Rx,0,8,00,01,D0,6A,D0,6A,D0,6A,
98833752,0000012A,false,Rx,0,8,1A,00,D0,07,D0,07,D0,07,
98850903,0000070A,false,Rx,0,8,F4,D0,02,00,0A,00,00,00,
98851154,0000070A,false,Rx,0,8,F4,D0,02,00,0A,00,00,00,
98859637,0000070A,false,Rx,0,8,F4,D0,02,00,0A,00,00,00,
98873618,0000070A,false,Rx,0,8,F4,D0,02,00,0A,00,00,00,
98882482,00000232,false,Rx,0,8,5B,00,00,00,00,00,00,00,
98901427,00000232,false,Rx,0,8,5B,00,00,00,00,00,00,00,
98905611,0000070A,false,Rx,0,8,F4,D0,02,00,0A,00,00,00,
98924732,0000012A,false,Rx,0,8,17,00,D0,07,D0,07,D0,07,
98924983,0000070A,false,Rx,0,8,F4,D0,02,00,0A,00,00,00,
98929318,0000020A,false,Rx,0,6,C9,11,09,12,42,00,00,00,
98933491,0000070A,false,Rx,0,8,F4,D0,02,00,0A,00,00,00,
98937074,0000070A,false,Rx,0,8,F4,D0,02,00,0A,00,00,00,
98946609,0000070A,false,Rx,0,8,F4,D0,02,00,0A,00,00,00,
98978634,0000070A,false,Rx,0,8,F4,D0,02,00,0A,00,00,00,
98978834,0000020A,false,Rx,0,6,C9,11,09,12,42,00,00,00,
99010756,0000012A,false,Rx,0,8,12,00,D0,07,D0,07,D0,07,
99015012,0000070A,false,Rx,0,8,F4,D0,02,00,0A,00,00,00,
99069486,0000014A,false,Rx,0,8,00,00,FF,7F,FF,7F,FF,7F,
99069655,0000022A,false,Rx,0,4,00,00,08,00,00,00,00,00,
99078627,0000070A,false,Rx,0,8,F4,D0,02,00,0A,00,00,00,
99136600,0000070A,false,Rx,0,8,F4,D0,02,00,0A,00,00,00,
99155597,0000070A,false,Rx,0,8,F4,D0,02,00,0A,00,00,00,
99218271,0000070A,false,Rx,0,8,F4,D0,02,00,0A,00,00,00,
99223627,0000070A,false,Rx,0,8,F4,D0,02,00,0A,00,00,00,
99255590,0000070A,false,Rx,0,8,F4,D0,02,00,0A,00,00,00,
99282674,00000272,false,Rx,0,7,00,00,00,00,00,00,00,00,
