Time Stamp,ID,Extended,Dir,Bus,LEN,D1,D2,D3,D4,D5,D6,D7,D8
31231,0000025D,false,Rx,0,8,24,08,04,D0,00,05,0B,80,
130686,0000025D,false,Rx,0,8,24,08,04,D0,00,05,0B,80,
230695,0000025D,false,Rx,0,8,24,08,04,D0,00,05,0B,80,
330704,0000025D,false,Rx,0,8,24,08,04,D0,00,05,0B,80,
430713,0000025D,false,Rx,0,8,24,08,04,CF,00,05,0B,80,
530679,0000025D,false,Rx,0,8,24,08,04,CE,00,05,0B,80,
630689,0000025D,false,Rx,0,8,24,08,04,CE,00,05,0B,80,
730728,0000025D,false,Rx,0,8,24,08,04,CD,00,05,0B,80,
830694,0000025D,false,Rx,0,8,24,08,04,CB,00,05,0B,80,
930746,0000025D,false,Rx,0,8,24,08,04,CB,00,05,0B,80,
1031267,0000025D,false,Rx,0,8,24,08,04,CD,00,05,0B,80,
1130721,0000025D,false,Rx,0,8,24,08,04,CF,00,05,0B,80,
1230730,0000025D,false,Rx,0,8,24,08,04,D1,00,05,0B,80,
1330697,0000025D,false,Rx,0,8,24,08,04,D2,00,05,0B,80,
1430706,0000025D,false,Rx,0,8,24,08,04,D1,00,05,0B,80,
1530758,0000025D,false,Rx,0,8,24,08,04,CF,00,05,0B,80,
1630724,0000025D,false,Rx,0,8,24,08,04,CD,00,05,0B,80,
1730763,0000025D,false,Rx,0,8,24,08,04,CD,00,05,0B,80,
1830772,0000025D,false,Rx,0,8,24,08,04,CE,00,05,0B,80,
1931208,0000025D,false,Rx,0,8,24,08,04,CF,00,05,0B,80,
2031217,0000025D,false,Rx,0,8,24,08,04,CF,00,05,0B,80,
2130757,0000025D,false,Rx,0,8,24,08,04,CF,00,05,0B,80,
2230510,0000025D,false,Rx,0,8,24,08,04,CF,00,05,0B,80,
2330775,0000025D,false,Rx,0,8,24,08,04,CF,00,05,0B,80,
2430742,0000025D,false,Rx,0,8,24,08,04,CF,00,05,0B,80,
2530794,0000025D,false,Rx,0,8,24,08,04,CF,00,05,0B,80,
2630547,0000025D,false,Rx,0,8,24,08,04,CF,00,05,0B,80,
2730543,0000025D,false,Rx,0,8,24,08,04,CF,00,05,0B,80,
2830552,0000025D,false,Rx,0,8,24,08,04,CF,00,05,0B,80,
2931756,0000025D,false,Rx,0,8,24,08,04,CF,00,05,0B,80,
3032021,0000025D,false,Rx,0,8,24,08,04,CF,00,05,0B,80,
3131518,0000025D,false,Rx,0,8,24,08,04,CF,00,05,0B,80,
3230461,0000025D,false,Rx,0,8,24,08,04,CF,00,05,0B,80,
3330470,0000025D,false,Rx,0,8,24,08,04,CF,00,05,0B,80,
3431289,0000025D,false,Rx,0,8,24,08,04,CF,00,05,0B,80,
3531171,0000025D,false,Rx,0,8,24,08,04,CF,00,05,0B,80,
3630838,0000025D,false,Rx,0,8,24,08,04,CF,00,05,0B,80,
3731176,0000025D,false,Rx,0,8,24,08,04,CF,00,05,0B,80,
3831228,0000025D,false,Rx,0,8,24,08,04,CF,00,05,0B,80,
3930853,0000025D,false,Rx,0,8,24,08,04,CF,00,05,0B,80,
4031417,0000025D,false,Rx,0,8,24,08,04,CF,00,05,0B,80,
4130615,0000025D,false,Rx,0,8,24,08,04,CF,00,05,0B,80,
4230624,0000025D,false,Rx,0,8,24,08,04,CF,00,05,0B,80,
4330889,0000025D,false,Rx,0,8,24,08,04,D0,00,05,0B,80,
4430557,0000025D,false,Rx,0,8,24,08,04,D0,00,05,0B,80,
4530481,0000025D,false,Rx,0,8,24,08,04,D0,00,05,0B,80,
4630618,0000025D,false,Rx,0,8,24,08,04,D0,00,05,0B,80,
4730572,0000025D,false,Rx,0,8,24,08,04,D0,00,05,0B,80,
4830453,0000025D,false,Rx,0,8,24,08,04,D0,00,05,0B,80,
4930889,0000025D,false,Rx,0,8,24,08,04,D0,00,05,0B,80,
5031282,0000025D,false,Rx,0,8,24,08,04,D0,00,05,0B,80,
5130651,0000025D,false,Rx,0,8,24,08,04,D0,00,05,0B,80,
5230404,0000025D,false,Rx,0,8,24,08,04,D0,00,05,0B,80,
5330669,0000025D,false,Rx,0,8,24,08,04,D0,00,05,0B,80,
5430422,0000025D,false,Rx,0,8,24,08,04,D0,00,05,0B,80,
5530687,0000025D,false,Rx,0,8,24,08,04,D0,00,05,0B,80,
5630440,0000025D,false,Rx,0,8,24,08,04,D0,00,05,0B,80,
5730693,0000025D,false,Rx,0,8,24,08,04,D0,00,05,0B,80,
5830446,0000025D,false,Rx,0,8,24,08,04,D0,00,05,0B,80,
5931308,0000025D,false,Rx,0,8,24,08,04,D0,00,05,0B,80,
6031275,0000025D,false,Rx,0,8,24,08,04,D0,00,05,0B,80,
6130687,0000025D,false,Rx,0,8,24,08,04,D0,00,05,0B,80,
6230482,0000025D,false,Rx,0,8,24,08,04,D0,00,05,0B,80,
6330705,0000025D,false,Rx,0,8,24,08,04,CF,00,05,0B,80,
6430458,0000025D,false,Rx,0,8,24,08,04,CF,00,05,0B,80,
6530595,0000025D,false,Rx,0,8,24,08,04,D0,00,05,0B,80,
6630732,0000025D,false,Rx,0,8,24,08,04,D0,00,05,0B,80,
6730729,0000025D,false,Rx,0,8,24,08,04,CF,00,05,0B,80,
6830524,0000025D,false,Rx,0,8,24,08,04,CF,00,05,0B,80,
6931216,0000025D,false,Rx,0,8,24,08,04,CE,00,05,0B,80,
7030969,0000025D,false,Rx,0,8,24,08,04,CE,00,05,0B,80,
7130509,0000025D,false,Rx,0,8,24,08,04,CD,00,05,0B,80,
7230518,0000025D,false,Rx,0,8,24,08,04,CB,00,05,0B,80,
7330527,0000025D,false,Rx,0,8,24,08,04,CB,00,05,0B,80,
7430536,0000025D,false,Rx,0,8,24,08,04,CD,00,05,0B,80,
7530673,0000025D,false,Rx,0,8,24,08,04,CF,00,05,0B,80,
7630512,0000025D,false,Rx,0,8,24,08,04,CF,00,05,0B,80,
7730551,0000025D,false,Rx,0,8,24,08,04,CF,00,05,0B,80,
7830560,0000025D,false,Rx,0,8,24,08,04,CE,00,05,0B,80,
7931252,0000025D,false,Rx,0,8,24,08,04,CE,00,05,0B,80,
8031389,0000025D,false,Rx,0,8,24,08,04,CE,00,05,0B,80,
8130545,0000025D,false,Rx,0,8,24,08,04,CE,00,05,0B,80,
8230554,0000025D,false,Rx,0,8,24,08,04,CF,00,05,0B,80,
8330563,0000025D,false,Rx,0,8,24,08,04,CF,00,05,0B,80,
8430572,0000025D,false,Rx,0,8,24,08,04,CF,00,05,0B,80,
8530709,0000025D,false,Rx,0,8,24,08,04,CE,00,05,0B,80,
8630590,0000025D,false,Rx,0,8,24,08,04,CE,00,05,0B,80,
8730587,0000025D,false,Rx,0,8,24,08,04,CE,00,05,0B,80,
8830596,0000025D,false,Rx,0,8,24,08,04,CE,00,05,0B,80,
8931458,0000025D,false,Rx,0,8,24,08,04,CE,00,05,0B,80,
9031297,0000025D,false,Rx,0,8,24,08,04,CF,00,05,0B,80,
9130580,0000025D,false,Rx,0,8,24,08,04,CF,00,05,0B,80,
9230589,0000025D,false,Rx,0,8,24,08,04,CF,00,05,0B,80,
9330599,0000025D,false,Rx,0,8,24,08,04,CF,00,05,0B,80,
9430608,0000025D,false,Rx,0,8,24,08,04,CF,00,05,0B,80,
9530489,0000025D,false,Rx,0,8,24,08,04,CF,00,05,0B,80,
9630626,0000025D,false,Rx,0,8,24,08,04,CF,00,05,0B,80,
9730622,0000025D,false,Rx,0,8,24,08,04,CF,00,05,0B,80,
9830674,0000025D,false,Rx,0,8,24,08,04,CF,00,05,0B,80,
9931494,0000025D,false,Rx,0,8,24,08,04,CF,00,05,0B,80,
10031460,0000025D,false,Rx,0,8,24,08,04,CF,00,05,0B,80,
10130659,0000025D,false,Rx,0,8,24,08,04,CF,00,05,0B,80,
10230668,0000025D,false,Rx,0,8,24,08,04,CF,00,05,0B,80,
10330634,0000025D,false,Rx,0,8,24,08,04,CF,00,05,0B,80,
10430686,0000025D,false,Rx,0,8,24,08,04,CF,00,05,0B,80,
10530439,0000025D,false,Rx,0,8,24,08,04,CF,00,05,0B,80,
10630662,0000025D,false,Rx,0,8,24,08,04,CF,00,07,0B,80,
10730829,0000025D,false,Rx,0,8,24,18,04,CF,00,18,1B,80,
10830454,0000025D,false,Rx,0,8,24,18,04,CE,00,18,1B,80,
10931530,0000025D,false,Rx,0,8,24,18,04,CD,00,18,1B,80,
11030941,0000025D,false,Rx,0,8,24,18,04,CA,00,18,1B,80,
11130822,0000025D,false,Rx,0,8,24,18,04,CA,00,18,1B,80,
11230704,0000025D,false,Rx,0,8,24,18,04,CB,00,18,1B,80,
11330713,0000025D,false,Rx,0,8,24,1C,04,CC,08,18,5B,80,
11430466,0000025D,false,Rx,0,8,24,1C,04,CE,08,18,5B,80,
11530731,0000025D,false,Rx,0,8,24,1C,04,D0,08,18,5B,80,
11630825,0000025D,false,Rx,0,8,24,24,04,CF,08,18,4B,80,
11730736,0000025D,false,Rx,0,8,24,0C,04,CE,08,18,4B,80,
11830490,0000025D,false,Rx,0,8,24,0C,04,CE,08,18,4B,80,
11931011,0000025D,false,Rx,0,8,24,0C,04,CE,08,18,4C,80,
12030977,0000025D,false,Rx,0,8,24,0C,04,CE,08,18,4C,80,
12130730,0000025D,false,Rx,0,8,24,0C,04,CF,08,18,4C,80,
12230867,0000025D,false,Rx,0,8,24,0C,04,D0,08,18,4C,80,
12330748,0000025D,false,Rx,0,8,24,0C,04,D0,08,18,4C,80,
12430843,0000025D,false,Rx,0,8,2C,0C,04,CF,08,18,4C,80,
12530639,0000025D,false,Rx,0,8,2C,0C,04,CF,08,18,4C,80,
12630861,0000025D,false,Rx,0,8,2C,0C,04,CF,08,18,4C,80,
12730772,0000025D,false,Rx,0,8,2C,0C,04,CF,08,18,4C,80,
12830653,0000025D,false,Rx,0,8,2C,0C,04,CF,08,18,4C,80,
12930918,0000025D,false,Rx,0,8,2C,0C,04,D0,28,18,4C,80,
13031013,0000025D,false,Rx,0,8,2C,0C,04,CF,28,18,4C,80,
13130766,0000025D,false,Rx,0,8,2C,0C,04,CF,28,18,4C,80,
13230647,0000025D,false,Rx,0,8,2C,0C,04,CF,28,05,4C,80,
13330656,0000025D,false,Rx,0,8,2C,0C,04,CF,28,05,4C,80,
13430623,0000025D,false,Rx,0,8,2C,0C,04,CF,28,05,4C,80,
13530674,0000025D,false,Rx,0,8,2C,0C,04,CF,28,05,4C,80,
13630854,0000025D,false,Rx,0,8,2C,0C,04,CF,28,05,4C,80,
13730808,0000025D,false,Rx,0,8,2C,0C,04,CF,28,05,4C,80,
13830646,0000025D,false,Rx,0,8,2C,0C,04,CF,28,05,4C,80,
13931637,0000025D,false,Rx,0,8,2C,0C,04,CF,28,05,4C,80,
14031048,0000025D,false,Rx,0,8,2C,0C,04,D0,28,05,4C,80,
14130802,0000025D,false,Rx,0,8,2C,0C,04,D0,28,05,4C,80,
14230853,0000025D,false,Rx,0,8,2C,0C,04,D0,28,05,4C,80,
14331076,0000025D,false,Rx,0,8,2C,0C,04,D0,28,05,4C,80,
14430829,0000025D,false,Rx,0,8,2C,0C,04,D0,28,05,4C,80,
14530838,0000025D,false,Rx,0,8,2C,0C,04,D0,28,05,4C,80,
14630591,0000025D,false,Rx,0,8,2C,0C,04,D0,28,05,4C,80,
14730749,0000025D,false,Rx,0,8,2C,0C,04,D0,28,05,4C,80,
14830758,0000025D,false,Rx,0,8,2C,0C,04,D0,28,05,4C,80,
14931023,0000025D,false,Rx,0,8,2C,0C,04,D0,28,05,4C,80,
15030989,0000025D,false,Rx,0,8,2C,0C,04,D0,28,05,4C,80,
15130529,0000025D,false,Rx,0,8,2C,0C,04,D0,28,05,4C,80,
15230538,0000025D,false,Rx,0,8,2C,0C,04,D0,28,05,4C,80,
15330761,0000025D,false,Rx,0,8,2C,0C,04,D0,28,05,4C,80,
15430514,0000025D,false,Rx,0,8,2C,0C,04,D0,28,05,4C,80,
15530523,0000025D,false,Rx,0,8,2C,0C,04,D0,28,05,4C,80,
15630532,0000025D,false,Rx,0,8,2C,0C,04,CF,28,05,4C,80,
15730571,0000025D,false,Rx,0,8,2C,0C,04,CF,28,05,4C,80,
15830580,0000025D,false,Rx,0,8,2C,0C,04,CF,28,05,4C,80,
15931058,0000025D,false,Rx,0,8,2C,0C,04,CF,28,05,4C,80,
16031025,0000025D,false,Rx,0,8,2C,0C,04,D0,28,05,4C,80,
16130607,0000025D,false,Rx,0,8,2C,0C,04,D0,28,05,4C,80,
16230574,0000025D,false,Rx,0,8,2C,0C,04,D0,28,05,4C,80,
16330839,0000025D,false,Rx,0,8,2C,0C,04,D0,28,05,4C,80,
16430592,0000025D,false,Rx,0,8,2C,0C,04,D0,28,05,4C,80,
16530558,0000025D,false,Rx,0,8,2C,0C,04,D0,28,05,56,80,
16630568,0000025D,false,Rx,0,8,2C,0C,04,D0,28,05,56,80,
16730735,0000025D,false,Rx,0,8,2C,0C,04,D0,28,05,56,80,
16830488,0000025D,false,Rx,0,8,2C,0C,05,CF,28,05,56,80,
16931009,0000025D,false,Rx,0,8,2C,0C,05,CC,28,05,56,80,
17031103,0000025D,false,Rx,0,8,2C,0C,01,CB,26,05,56,80,
17130856,0000025D,false,Rx,0,8,2C,0C,01,C9,26,05,56,80,
17230652,0000025D,false,Rx,0,8,5C,0C,01,CA,34,05,56,80,
17330875,0000025D,false,Rx,0,8,5C,0C,01,CC,34,05,56,80,
17430500,0000025D,false,Rx,0,8,5C,0C,01,CD,34,05,56,80,
17530637,0000025D,false,Rx,0,8,5C,0C,01,CE,34,05,56,80,
17630646,0000025D,false,Rx,0,8,5C,0C,01,CE,34,05,56,80,
17730642,0000025D,false,Rx,0,8,5C,0C,01,CE,34,05,56,80,
17830651,0000025D,false,Rx,0,8,5C,0C,01,CE,34,05,56,80,
17931173,0000025D,false,Rx,0,8,5C,0C,01,CE,34,05,56,80,
18031139,0000025D,false,Rx,0,8,5C,0C,01,CE,34,05,56,80,
18130679,0000025D,false,Rx,0,8,5C,0C,01,CE,34,05,56,80,
18230688,0000025D,false,Rx,0,8,5C,0C,01,CF,34,05,56,80,
18330910,0000025D,false,Rx,0,8,5C,0C,01,CF,34,05,56,80,
18430663,0000025D,false,Rx,0,8,5C,0C,01,CF,34,05,56,80,
18530545,0000025D,false,Rx,0,8,5C,0C,01,CF,34,05,56,80,
18630554,0000025D,false,Rx,0,8,5C,0C,01,CF,34,05,56,80,
18730593,0000025D,false,Rx,0,8,5C,0C,01,CF,34,05,56,80,
18830602,0000025D,false,Rx,0,8,5C,0C,01,CF,34,05,56,80,
18931080,0000025D,false,Rx,0,8,5C,0C,01,CF,34,05,56,80,
19031175,0000025D,false,Rx,0,8,5C,0C,01,CF,34,05,56,80,
19130970,0000025D,false,Rx,0,8,5C,0C,01,CF,34,05,56,80,
19230724,0000025D,false,Rx,0,8,58,0C,01,CF,34,05,56,80,
19330946,0000025D,false,Rx,0,8,58,0C,01,CF,34,05,56,80,
19430699,0000025D,false,Rx,0,8,58,0C,01,CF,34,05,56,80,
19530751,0000025D,false,Rx,0,8,58,0C,01,CF,2A,05,56,80,
19630931,0000025D,false,Rx,0,8,58,0C,01,CF,2A,05,56,80,
19730671,0000025D,false,Rx,0,8,58,0C,01,CF,2A,05,56,80,
19830766,0000025D,false,Rx,0,8,58,0C,01,CF,2A,05,56,80,
19931543,0000025D,false,Rx,0,8,58,0C,01,CF,2A,05,56,80,
20030954,0000025D,false,Rx,0,8,58,0C,01,D0,2A,05,56,80,
20130665,0000025D,false,Rx,0,8,58,0C,01,D0,2A,05,56,80,
20230759,0000025D,false,Rx,0,8,58,0C,01,D0,2A,05,56,80,
20330768,0000025D,false,Rx,0,8,58,0C,01,D0,2A,05,56,80,
20430777,0000025D,false,Rx,0,8,58,0C,01,D0,2A,05,56,80,
20530744,0000025D,false,Rx,0,8,58,0C,01,D0,2A,05,56,80,
20630796,0000025D,false,Rx,0,8,58,0C,01,D0,2A,05,56,80,
20730664,0000025D,false,Rx,0,8,58,0C,01,D0,2A,05,56,80,
20830801,0000025D,false,Rx,0,8,58,0C,01,D0,2A,05,56,80,
20931792,0000025D,false,Rx,0,8,58,0C,01,D0,2A,05,56,80,
21031630,0000025D,false,Rx,0,8,58,0C,01,D0,2A,05,56,80,
21130701,0000025D,false,Rx,0,8,58,0C,01,D0,2A,05,56,80,
21230667,0000025D,false,Rx,0,8,58,0C,01,D0,2A,05,56,80,
21331060,0000025D,false,Rx,0,8,58,0C,01,D0,2A,05,56,80,
21430685,0000025D,false,Rx,0,8,58,0C,01,D0,2A,05,56,80,
21530694,0000025D,false,Rx,0,8,58,0C,01,D0,2A,05,56,80,
21630703,0000025D,false,Rx,0,8,58,0C,01,D0,2A,05,56,80,
21730743,0000025D,false,Rx,0,8,58,0C,01,CF,2A,05,56,80,
21830709,0000025D,false,Rx,0,8,58,0C,01,CF,2A,05,56,80,
21931699,0000025D,false,Rx,0,8,58,0C,01,CE,2A,05,56,80,
22031666,0000025D,false,Rx,0,8,58,0C,01,CE,2A,05,56,80,
22130736,0000025D,false,Rx,0,8,58,0C,01,CD,2A,05,56,80,
22230745,0000025D,false,Rx,0,8,58,0C,01,CB,2A,05,56,80,
22331096,0000025D,false,Rx,0,8,58,0C,01,CB,2A,05,56,80,
22430721,0000025D,false,Rx,0,8,58,0C,01,CC,2A,05,56,80,
22530602,0000025D,false,Rx,0,8,58,0C,01,CE,2A,05,56,80,
22630739,0000025D,false,Rx,0,8,58,0C,01,CF,2A,05,56,80,
22730906,0000025D,false,Rx,0,8,58,0C,01,CF,2A,05,56,80,
22830873,0000025D,false,Rx,0,8,58,0C,01,CE,2A,05,56,80,
22931735,0000025D,false,Rx,0,8,58,0C,01,CD,2A,05,56,80,
23031318,0000025D,false,Rx,0,8,58,0C,01,CD,2A,05,56,80,
23130900,0000025D,false,Rx,0,8,58,0C,01,CE,2A,05,56,80,
23230653,0000025D,false,Rx,0,8,58,0C,01,CE,2A,05,56,80,
23331260,0000025D,false,Rx,0,8,58,0C,01,CF,2A,05,56,80,
23430629,0000025D,false,Rx,0,8,58,0C,01,CF,2A,05,56,80,
23531022,0000025D,false,Rx,0,8,58,0C,01,CE,2A,05,56,80,
23630903,0000025D,false,Rx,0,8,58,0C,01,CE,2A,05,56,80,
23730942,0000025D,false,Rx,0,8,58,0C,01,CE,2A,05,56,80,
23830908,0000025D,false,Rx,0,8,58,0C,01,CE,2A,05,56,80,
23931301,0000025D,false,Rx,0,8,58,0C,01,CF,2A,05,56,80,
24031396,0000025D,false,Rx,0,8,58,0C,01,CF,2A,05,56,80,
24130765,0000025D,false,Rx,0,8,58,0C,01,CF,2A,05,56,80,
24230902,0000025D,false,Rx,0,8,58,0C,01,CF,2A,05,56,80,
24330826,0000025D,false,Rx,0,8,58,0C,01,CF,2A,05,56,80,
24430878,0000025D,false,Rx,0,8,58,0C,01,CF,2A,05,56,80,
24530972,0000025D,false,Rx,0,8,58,0C,01,CF,2A,05,56,80,
24630896,0000025D,false,Rx,0,8,58,0C,01,CF,2A,05,56,80,
24730850,0000025D,false,Rx,0,8,58,0C,01,CF,2A,05,56,80,
24830987,0000025D,false,Rx,0,8,58,0C,01,CF,2A,05,56,80,
24931337,0000025D,false,Rx,0,8,58,0C,01,CF,2A,05,56,80,
25031304,0000025D,false,Rx,0,8,58,0C,01,CF,2A,05,56,80,
25130843,0000025D,false,Rx,0,8,58,0C,01,CF,2A,05,56,80,
25230938,0000025D,false,Rx,0,8,58,0C,01,CF,2A,05,56,80,
25331288,0000025D,false,Rx,0,8,58,0C,01,CF,2A,05,56,80,
25430956,0000025D,false,Rx,0,8,58,0C,01,CF,2A,05,56,80,
25530837,0000025D,false,Rx,0,8,58,0C,01,CF,2A,05,56,80,
25630932,0000025D,false,Rx,0,8,58,0C,01,CF,2A,05,56,80,
25730843,0000025D,false,Rx,0,8,58,0C,01,CF,2A,05,56,80,
25830980,0000025D,false,Rx,0,8,58,0C,01,CF,2A,05,56,80,
25931330,0000025D,false,Rx,0,8,58,0C,01,CF,2A,05,56,80,
26031339,0000025D,false,Rx,0,8,58,0C,01,CF,2A,05,56,80,
26130836,0000025D,false,Rx,0,8,58,0C,01,D0,2A,05,56,80,
26230931,0000025D,false,Rx,0,8,58,0C,01,D0,2A,05,56,80,
26331196,0000025D,false,Rx,0,8,58,0C,01,D0,2A,05,56,80,
26430949,0000025D,false,Rx,0,8,58,0C,01,D0,2A,05,56,80,
26530830,0000025D,false,Rx,0,8,58,0C,01,D0,2A,05,56,80,
26630967,0000025D,false,Rx,0,8,58,0C,01,D0,2A,05,56,80,
26730878,0000025D,false,Rx,0,8,58,0C,01,D0,2A,05,56,80,
26830973,0000025D,false,Rx,0,8,58,0C,01,D0,2A,05,56,80,
26932091,0000025D,false,Rx,0,8,58,0C,01,D0,2A,05,56,80,
27031375,0000025D,false,Rx,0,8,58,0C,01,D0,2A,05,56,80,
27131256,0000025D,false,Rx,0,8,58,0C,01,D0,2A,05,56,80,
27231009,0000025D,false,Rx,0,8,58,0C,01,D0,2A,05,56,80,
27331189,0000025D,false,Rx,0,8,58,0C,01,D0,2A,05,56,80,
27431198,0000025D,false,Rx,0,8,58,0C,01,D0,2A,05,56,80,
27531335,0000025D,false,Rx,0,8,58,0C,01,D0,2A,05,56,80,
27631216,0000025D,false,Rx,0,8,58,0C,01,D0,2A,05,56,80,
27731255,0000025D,false,Rx,0,8,58,0C,01,D0,2A,05,56,80,
27831265,0000025D,false,Rx,0,8,58,0C,01,D0,2A,05,56,80,
27932084,0000025D,false,Rx,0,8,58,0C,01,D0,2A,05,56,80,
28031837,0000025D,false,Rx,0,8,58,0C,01,D0,2A,05,56,80,
28131121,0000025D,false,Rx,0,8,58,0C,01,D0,2A,05,56,80,
28231258,0000025D,false,Rx,0,8,58,0C,01,D0,2A,05,56,80,
28331225,0000025D,false,Rx,0,8,58,0C,01,D0,2A,05,56,80,
28431276,0000025D,false,Rx,0,8,58,0C,01,D0,2A,05,56,80,
28531328,0000025D,false,Rx,0,8,58,0C,01,D0,2A,05,56,80,
28631252,0000025D,false,Rx,0,8,58,0C,01,D0,2A,05,56,80,
28731291,0000025D,false,Rx,0,8,58,0C,01,D0,2A,05,56,80,
28831300,0000025D,false,Rx,0,8,58,0C,01,D0,2A,05,56,80,
28931437,0000025D,false,Rx,0,8,58,0C,01,D0,2A,05,56,80,
29031873,0000025D,false,Rx,0,8,58,0C,01,D0,2A,05,56,80,
29131285,0000025D,false,Rx,0,8,58,0C,01,D0,2A,05,56,80,
29231251,0000025D,false,Rx,0,8,58,0C,01,D0,2A,05,56,80,
29331260,0000025D,false,Rx,0,8,58,0C,01,D0,2A,05,56,80,
29431270,0000025D,false,Rx,0,8,58,0C,01,D0,2A,05,56,80,
29531236,0000025D,false,Rx,0,8,58,0C,01,D0,2A,05,56,80,
29631288,0000025D,false,Rx,0,8,58,0C,01,D0,2A,05,56,80,
29731156,0000025D,false,Rx,0,8,58,0C,01,D0,2A,05,56,80,
29831293,0000025D,false,Rx,0,8,58,0C,01,D0,2A,05,56,80,
29931473,0000025D,false,Rx,0,8,58,0C,01,D0,2A,05,56,80,
30031909,0000025D,false,Rx,0,8,58,0C,01,D0,2A,05,56,80,
30131150,0000025D,false,Rx,0,8,58,0C,01,D0,2A,05,56,80,
30231287,0000025D,false,Rx,0,8,58,0C,01,D0,2A,05,56,80,
30331296,0000025D,false,Rx,0,8,58,0C,01,D0,2A,05,56,80,
30431305,0000025D,false,Rx,0,8,58,0C,01,CF,2A,05,56,80,
30531272,0000025D,false,Rx,0,8,58,0C,01,CF,2A,05,56,80,
30631281,0000025D,false,Rx,0,8,58,0C,01,CE,2A,05,56,80,
30731235,0000025D,false,Rx,0,8,58,0C,01,CC,2A,05,56,80,
30831329,0000025D,false,Rx,0,8,58,0C,01,CC,2A,05,56,80,
30931466,0000025D,false,Rx,0,8,58,0C,01,CD,2A,05,56,80,
31031902,0000025D,false,Rx,0,8,58,0C,01,CE,2A,05,56,80,
31131228,0000025D,false,Rx,0,8,58,0C,01,CE,2A,05,56,80,
31231323,0000025D,false,Rx,0,8,58,0C,01,CF,2A,05,56,80,
31331417,0000025D,false,Rx,0,8,58,0C,01,CF,2A,05,56,80,
31431341,0000025D,false,Rx,0,8,58,0C,01,CF,2A,05,56,80,
31531094,0000025D,false,Rx,0,8,58,0C,01,CF,2A,05,56,80,
31631060,0000025D,false,Rx,0,8,58,0C,01,CF,2A,05,56,80,
31731228,0000025D,false,Rx,0,8,58,0C,01,CF,2A,05,56,80,
31831109,0000025D,false,Rx,0,8,58,0C,01,CF,2A,05,56,80,
31931502,0000025D,false,Rx,0,8,58,0C,01,CF,2A,05,56,80,
32031596,0000025D,false,Rx,0,8,58,0C,01,CF,2A,05,56,80,
32131221,0000025D,false,Rx,0,8,58,0C,01,CF,2A,05,56,80,
32231102,0000025D,false,Rx,0,8,58,0C,01,CF,2A,05,56,80,
32331240,0000025D,false,Rx,0,8,58,0C,01,CF,2A,05,56,80,
32431121,0000025D,false,Rx,0,8,58,0C,01,CF,2A,05,56,80,
32531300,0000025D,false,Rx,0,8,58,0C,01,CF,2A,05,56,80,
32631096,0000025D,false,Rx,0,8,58,0C,01,CF,2A,05,56,80,
32731263,0000025D,false,Rx,0,8,58,0C,01,CF,2A,05,56,80,
32831102,0000025D,false,Rx,0,8,58,0C,01,CF,2A,05,56,80,
32931536,0000025D,false,Rx,0,8,58,0C,01,CF,2A,05,56,80,
33031631,0000025D,false,Rx,0,8,58,0C,01,CF,2A,05,56,80,
33131256,0000025D,false,Rx,0,8,58,0C,01,CF,2A,05,56,80,
33231138,0000025D,false,Rx,0,8,58,0C,01,CF,2A,05,56,80,
33331489,0000025D,false,Rx,0,8,58,0C,01,CF,2A,05,56,80,
33431114,0000025D,false,Rx,0,8,58,0C,01,CF,2A,05,56,80,
33531464,0000025D,false,Rx,0,8,58,0C,01,CF,2A,05,56,80,
33631132,0000025D,false,Rx,0,8,58,0C,01,CF,2A,05,56,80,
33731285,0000025D,false,Rx,0,8,58,0C,01,CF,2A,05,56,80,
33831081,0000025D,false,Rx,0,8,58,0C,01,D0,2A,05,56,80,
33932029,0000025D,false,Rx,0,8,58,0C,01,D0,2A,05,56,80,
34031270,0000025D,false,Rx,0,8,58,0C,01,D0,2A,05,56,80,
34131322,0000025D,false,Rx,0,8,58,0C,01,D0,2A,05,56,80,
34231075,0000025D,false,Rx,0,8,58,0C,01,D0,2A,05,56,80,
34331297,0000025D,false,Rx,0,8,58,0C,01,D0,2A,05,56,80,
34431093,0000025D,false,Rx,0,8,58,0C,01,D0,2A,05,56,80,
34531401,0000025D,false,Rx,0,8,58,0C,01,D0,2A,05,56,80,
34631069,0000025D,false,Rx,0,8,58,0C,01,D0,2A,05,56,80,
34731364,0000025D,false,Rx,0,8,58,0C,01,D0,2A,05,56,80,
34831117,0000025D,false,Rx,0,8,58,0C,01,D0,2A,05,56,80,
34932193,0000025D,false,Rx,0,8,58,0C,01,D0,2A,05,56,80,
35031348,0000025D,false,Rx,0,8,58,0C,01,D0,2A,05,56,80,
35131357,0000025D,false,Rx,0,8,58,0C,01,D0,2A,05,56,80,
35231111,0000025D,false,Rx,0,8,58,0C,01,D0,2A,05,56,80,
35331376,0000025D,false,Rx,0,8,58,0C,01,D0,2A,05,56,80,
35431129,0000025D,false,Rx,0,8,58,0C,01,D0,2A,05,56,80,
35531223,0000025D,false,Rx,0,8,58,0C,01,D0,2A,05,56,80,
35631147,0000025D,false,Rx,0,8,58,0C,01,D0,2A,05,56,80,
35731399,0000025D,false,Rx,0,8,58,0C,01,D0,2A,05,56,80,
35831366,0000025D,false,Rx,0,8,58,0C,01,D0,2A,05,56,80,
35932100,0000025D,false,Rx,0,8,58,0C,01,CF,2A,05,56,80,
36031384,0000025D,false,Rx,0,8,58,0C,01,CF,2A,05,56,80,
36131393,0000025D,false,Rx,0,8,58,0C,01,CE,2A,05,56,80,
36231445,0000025D,false,Rx,0,8,58,0C,01,CC,2A,05,56,80,
36331070,0000025D,false,Rx,0,8,58,0C,01,CC,2A,05,56,80,
36431335,0000025D,false,Rx,0,8,58,0C,01,CD,2A,05,56,80,
36531259,0000025D,false,Rx,0,8,58,0C,01,CF,2A,05,56,80,
36631481,0000025D,false,Rx,0,8,58,0C,01,D1,2A,05,56,80,
36731435,0000025D,false,Rx,0,8,58,0C,01,D2,2A,05,56,80,
36831487,0000025D,false,Rx,0,8,58,0C,01,D1,2A,05,56,80,
36932179,0000025D,false,Rx,0,8,58,0C,01,CF,2A,05,56,80,
37031420,0000025D,false,Rx,0,8,58,0C,01,CE,2A,05,56,80,
37131429,0000025D,false,Rx,0,8,58,0C,01,CE,2A,05,56,80,
37231353,0000025D,false,Rx,0,8,58,0C,01,CF,2A,05,56,80,
37331020,0000025D,false,Rx,0,8,58,0C,01,CF,2A,05,56,80,
37431499,0000025D,false,Rx,0,8,58,0C,01,D0,2A,05,56,80,
37531295,0000025D,false,Rx,0,8,58,0C,01,D0,2A,05,56,80,
37631474,0000025D,false,Rx,0,8,58,0C,01,CF,2A,05,56,80,
37731044,0000025D,false,Rx,0,8,58,0C,01,CF,2A,05,56,80,
37831053,0000025D,false,Rx,0,8,58,0C,01,CF,2A,05,56,80,
37931532,0000025D,false,Rx,0,8,58,0C,01,CF,2A,05,56,80,
38031498,0000025D,false,Rx,0,8,58,0C,01,CF,2A,05,56,80,
38131166,0000025D,false,Rx,0,8,58,0C,01,D0,2A,05,56,80,
38231132,0000025D,false,Rx,0,8,58,0C,01,D0,2A,05,56,80,
38331141,0000025D,false,Rx,0,8,58,0C,01,CF,2A,05,56,80,
38431108,0000025D,false,Rx,0,8,58,0C,01,CF,2A,05,56,80,
38530989,0000025D,false,Rx,0,8,58,0C,01,CF,2A,05,56,80,
38631126,0000025D,false,Rx,0,8,58,0C,01,CF,2A,05,56,80,
38731123,0000025D,false,Rx,0,8,58,0C,01,D0,2A,05,56,80,
38831132,0000025D,false,Rx,0,8,58,0C,01,D0,2A,05,56,80,
38931610,0000025D,false,Rx,0,8,58,0C,01,D0,2A,05,56,80,
39031619,0000025D,false,Rx,0,8,58,0C,01,D0,2A,05,56,80,
39131116,0000025D,false,Rx,0,8,58,0C,01,D0,2A,05,56,80,
39231125,0000025D,false,Rx,0,8,58,0C,01,D0,2A,05,56,80,
39331220,0000025D,false,Rx,0,8,58,0C,01,D0,2A,05,56,80,
39431101,0000025D,false,Rx,0,8,58,0C,01,D0,2A,05,56,80,
39531195,0000025D,false,Rx,0,8,58,0C,01,D0,2A,05,56,80,
39631076,0000025D,false,Rx,0,8,58,0C,01,D0,2A,05,56,80,
39731066,0000025D,false,Rx,0,8,58,0C,01,D0,2A,05,56,80,
39831075,0000025D,false,Rx,0,8,58,0C,01,D0,2A,05,56,80,
39931553,0000025D,false,Rx,0,8,58,0C,01,D0,2A,05,56,80,
40031392,0000025D,false,Rx,0,8,58,0C,01,D0,2A,05,56,80,
40131273,0000025D,false,Rx,0,8,58,0C,01,D0,2A,05,56,80,
40230898,0000025D,false,Rx,0,8,58,0C,01,D0,2A,05,56,80,
40331163,0000025D,false,Rx,0,8,58,0C,01,D0,2A,05,56,80,
40430873,0000025D,false,Rx,0,8,58,0C,01,D0,2A,05,56,80,
40531138,0000025D,false,Rx,0,8,58,0C,01,D0,2A,05,56,80,
40630892,0000025D,false,Rx,0,8,58,0C,01,CF,2A,05,56,80,
40731144,0000025D,false,Rx,0,8,58,0C,01,CF,2A,05,56,80,
40831452,0000025D,false,Rx,0,8,58,0C,01,CE,2A,05,56,80,
40931631,0000025D,false,Rx,0,8,58,0C,01,CC,2A,05,56,80,
41031854,0000025D,false,Rx,0,8,58,0C,01,CC,2A,05,56,80,
41131223,0000025D,false,Rx,0,8,58,0C,01,CD,2A,05,56,80,
41231104,0000025D,false,Rx,0,8,58,0C,01,CE,2A,05,56,80,
41331241,0000025D,false,Rx,0,8,58,0C,01,CE,2A,05,56,80,
41430866,0000025D,false,Rx,0,8,58,0C,01,CE,2A,05,56,80,
41531089,0000025D,false,Rx,0,8,58,0C,01,CE,2A,05,56,80,
41631098,0000025D,false,Rx,0,8,58,0C,01,CE,2A,05,56,80,
41731172,0000025D,false,Rx,0,8,58,0C,01,CE,2A,05,56,80,
41831096,0000025D,false,Rx,0,8,58,0C,01,CF,2A,05,56,80,
41931788,0000025D,false,Rx,0,8,58,0C,01,CF,2A,05,56,80,
42031285,0000025D,false,Rx,0,8,58,0C,01,CF,2A,05,56,80,
42131166,0000025D,false,Rx,0,8,58,0C,01,CF,2A,05,56,80,
42231090,0000025D,false,Rx,0,8,58,0C,01,CF,2A,05,56,80,
42331312,0000025D,false,Rx,0,8,58,0C,01,CF,2A,05,56,80,
42431108,0000025D,false,Rx,0,8,58,0C,01,CF,2A,05,56,80,
42531032,0000025D,false,Rx,0,8,58,0C,01,CF,2A,05,56,80,
42631084,0000025D,false,Rx,0,8,58,0C,01,CF,2A,05,56,80,
42731208,0000025D,false,Rx,0,8,58,0C,01,CF,2A,05,56,80,
42831132,0000025D,false,Rx,0,8,58,0C,01,CF,2A,05,56,80,
42931824,0000025D,false,Rx,0,8,58,0C,01,CF,2A,05,56,80,
43031790,0000025D,false,Rx,0,8,58,0C,01,CF,2A,05,56,80,
43131202,0000025D,false,Rx,0,8,58,0C,01,CF,2A,05,56,80,
43231126,0000025D,false,Rx,0,8,58,0C,01,CF,2A,05,56,80,
43331305,0000025D,false,Rx,0,8,58,0C,01,CF,2A,05,56,80,
43431485,0000025D,false,Rx,0,8,58,0C,01,CF,2A,05,56,80,
43531068,0000025D,false,Rx,0,8,58,0C,01,CF,2A,05,56,80,
43631162,0000025D,false,Rx,0,8,58,0C,01,CF,2A,05,56,80,
43731073,0000025D,false,Rx,0,8,58,0C,01,CF,2A,05,56,80,
43831168,0000025D,false,Rx,0,8,58,0C,01,CF,2A,05,56,80,
