Time Stamp,ID,Extended,Dir,Bus,LEN,D1,D2,D3,D4,D5,D6,D7,D8
9767878,00000504,false,Rx,0,8,00,1B,04,01,00,01,00,01,
10468295,0000076C,false,Rx,0,8,01,0D,0D,20,20,24,24,00,
10470385,000002C4,false,Rx,0,8,46,25,41,00,00,00,00,7D,
10470649,00000224,false,Rx,0,8,00,00,00,00,00,00,10,08,
10472400,000002A4,false,Rx,0,8,00,04,20,00,6B,EE,F4,FF,
10472544,00000364,false,Rx,0,2,00,78,00,00,00,00,00,00,
10472808,000003A4,false,Rx,0,8,00,00,00,00,00,00,00,00,
10478291,0000076C,false,Rx,0,8,02,01,01,02,02,01,01,00,
10488281,0000076C,false,Rx,0,8,03,60,60,4A,4A,66,66,00,
10498312,0000076C,false,Rx,0,8,04,0C,0C,00,06,00,03,00,
10508392,0000076C,false,Rx,0,8,05,A6,64,36,3B,DC,2E,00,
10518281,0000076C,false,Rx,0,8,8A,11,C0,00,64,00,00,00,
10528280,0000076C,false,Rx,0,8,0B,11,00,D0,20,00,00,00,
10538282,0000076C,false,Rx,0,8,0C,00,00,00,40,20,40,00,
10548285,0000076C,false,Rx,0,8,0D,04,32,8F,BB,28,00,00,
10558396,0000076C,false,Rx,0,8,0E,E2,DB,38,97,02,00,00,
10568279,0000076C,false,Rx,0,8,94,16,20,00,64,00,00,00,
10570388,000002C4,false,Rx,0,8,07,00,00,04,00,00,00,00,
10570653,00000204,false,Rx,0,8,01,00,00,00,00,00,00,00,
10570867,00000264,false,Rx,0,6,32,00,00,00,E0,01,00,00,
10571357,00000224,false,Rx,0,8,00,04,00,00,00,00,10,08,
10578283,0000076C,false,Rx,0,8,15,00,00,D0,20,00,00,00,
10588282,0000076C,false,Rx,0,8,16,00,00,00,40,00,00,00,
10598293,0000076C,false,Rx,0,8,17,04,32,8F,BB,28,00,00,
10608394,0000076C,false,Rx,0,8,18,E0,DB,39,97,02,00,00,
10618280,0000076C,false,Rx,0,8,1E,1A,60,00,64,00,00,00,
10628279,0000076C,false,Rx,0,8,1F,01,00,D0,20,00,00,00,
10638284,0000076C,false,Rx,0,8,20,00,00,00,30,00,00,00,
10648276,0000076C,false,Rx,0,8,21,04,32,8F,BB,28,00,00,
10658398,0000076C,false,Rx,0,8,22,E0,DB,39,97,02,00,00,
10668285,0000076C,false,Rx,0,8,33,00,00,00,00,00,20,84,
10670384,000002C4,false,Rx,0,8,08,00,00,00,1C,00,00,00,
10670649,00000204,false,Rx,0,8,01,00,00,00,00,00,00,00,
10670864,00000264,false,Rx,0,6,3C,00,00,00,E0,01,00,00,
10671353,00000224,false,Rx,0,8,00,04,00,00,00,00,10,08,
10678269,0000076C,false,Rx,0,8,34,00,00,00,00,00,00,00,
10688276,0000076C,false,Rx,0,8,35,2A,00,00,00,00,00,00,
10698289,0000076C,false,Rx,0,8,64,00,00,41,70,4A,0E,00,
10708397,0000076C,false,Rx,0,8,66,00,00,00,00,00,00,00,
10718270,0000076C,false,Rx,0,8,67,00,00,00,00,00,00,00,
10728270,0000076C,false,Rx,0,8,68,00,00,00,00,00,00,00,
10738260,0000076C,false,Rx,0,8,69,00,00,00,00,00,9D,FF,
10748283,0000076C,false,Rx,0,8,6A,00,00,00,00,00,00,00,
10758393,0000076C,false,Rx,0,8,6B,CD,06,00,00,00,00,00,
10768255,0000076C,false,Rx,0,8,6C,00,00,00,00,00,1C,00,
10770344,000002C4,false,Rx,0,8,49,DC,E5,2E,B0,84,25,00,
10770601,00000204,false,Rx,0,8,01,00,00,00,00,00,00,00,
10770826,00000264,false,Rx,0,6,40,00,00,00,E0,01,00,00,
10771306,00000224,false,Rx,0,8,00,04,00,00,00,00,10,08,
10778259,0000076C,false,Rx,0,8,6D,00,00,00,00,00,00,00,
10788257,0000076C,false,Rx,0,8,6E,00,00,00,00,00,00,00,
10798298,0000076C,false,Rx,0,8,6F,00,00,00,00,00,00,00,
10808392,0000076C,false,Rx,0,8,70,00,00,00,00,00,00,00,
10818240,0000076C,false,Rx,0,8,71,2C,30,00,2C,38,80,00,
10828250,0000076C,false,Rx,0,8,77,00,00,00,00,00,00,00,
10838250,0000076C,false,Rx,0,8,78,00,00,00,00,00,00,00,
10848282,0000076C,false,Rx,0,8,79,00,00,00,00,00,00,00,
10858386,0000076C,false,Rx,0,8,7A,01,09,00,00,00,00,00,
10868324,0000076C,false,Rx,0,8,01,10,10,17,20,17,24,00,
10870370,000002C4,false,Rx,0,8,0A,00,00,00,00,08,00,00,
10870625,00000204,false,Rx,0,8,01,00,00,00,00,00,00,00,
10870839,00000264,false,Rx,0,6,42,00,00,00,E0,01,00,00,
10871330,00000224,false,Rx,0,8,00,04,00,00,00,00,10,08,
10871570,000003C4,false,Rx,0,8,0A,01,9B,01,FC,00,1B,00,
10878243,0000076C,false,Rx,0,8,02,02,02,02,02,00,01,00,
10888233,0000076C,false,Rx,0,8,03,60,60,40,4A,4D,66,00,
10898284,0000076C,false,Rx,0,8,04,0C,17,00,06,00,03,00,
10908382,0000076C,false,Rx,0,8,05,AA,7C,36,3A,E4,2E,00,
10918229,0000076C,false,Rx,0,8,8A,21,20,01,64,00,40,00,
10928227,0000076C,false,Rx,0,8,0B,12,00,D0,20,00,00,00,
10938239,0000076C,false,Rx,0,8,0C,00,00,00,40,20,40,00,
10948283,0000076C,false,Rx,0,8,0D,04,32,8F,BB,28,00,00,
10958383,0000076C,false,Rx,0,8,0E,E0,DB,39,97,02,00,00,
10968224,0000076C,false,Rx,0,8,94,21,40,00,64,00,40,00,
10970334,000002C4,false,Rx,0,8,0B,00,00,00,0E,08,00,00,
10970601,00000204,false,Rx,0,8,01,00,00,00,00,00,00,00,
10970825,00000264,false,Rx,0,6,44,00,00,00,E0,01,00,00,
10971305,00000224,false,Rx,0,8,00,04,00,00,00,00,10,08,
10978238,0000076C,false,Rx,0,8,15,00,00,D0,20,00,00,00,
10988236,0000076C,false,Rx,0,8,16,00,00,00,40,00,00,00,
10998277,0000076C,false,Rx,0,8,17,04,32,8F,BB,28,00,00,
11008379,0000076C,false,Rx,0,8,18,E0,DB,39,97,02,00,00,
11018226,0000076C,false,Rx,0,8,1E,22,80,00,64,00,40,00,
11026201,00000424,false,Rx,0,8,18,80,04,00,00,00,00,00,
11028229,0000076C,false,Rx,0,8,1F,02,00,D0,20,00,00,00,
11038231,0000076C,false,Rx,0,8,20,00,00,00,40,00,40,00,
11048262,0000076C,false,Rx,0,8,21,04,32,8F,BB,28,00,00,
11058375,0000076C,false,Rx,0,8,22,E0,DB,39,97,02,00,00,
11068234,0000076C,false,Rx,0,8,33,00,00,00,00,00,20,84,
11070331,000002C4,false,Rx,0,8,0C,00,00,80,FF,07,00,00,
11070605,00000204,false,Rx,0,8,01,00,00,00,00,00,00,00,
11070819,00000264,false,Rx,0,6,46,00,00,00,E0,01,00,00,
11071310,00000224,false,Rx,0,8,00,04,00,00,00,00,10,08,
11078219,0000076C,false,Rx,0,8,34,00,00,00,00,00,00,00,
11088218,0000076C,false,Rx,0,8,35,2A,00,00,00,00,00,00,
11098269,0000076C,false,Rx,0,8,64,00,00,41,70,4A,00,00,
11108378,0000076C,false,Rx,0,8,66,00,00,00,00,00,00,00,
11118210,0000076C,false,Rx,0,8,67,00,00,00,00,00,00,00,
11128217,0000076C,false,Rx,0,8,68,00,00,00,00,00,00,00,
11138208,0000076C,false,Rx,0,8,69,00,00,00,00,00,9D,FF,
11148266,0000076C,false,Rx,0,8,6A,00,00,00,00,00,00,00,
11158378,0000076C,false,Rx,0,8,6B,CD,06,00,00,00,00,00,
11168216,0000076C,false,Rx,0,8,6C,00,00,00,00,00,1C,00,
11170317,000002C4,false,Rx,0,8,0D,00,00,00,00,00,00,00,
11170583,00000204,false,Rx,0,8,01,00,00,00,00,00,00,00,
11170799,00000264,false,Rx,0,6,46,00,00,00,E0,01,00,00,
11171288,00000224,false,Rx,0,8,00,04,00,00,00,00,10,08,
11178211,0000076C,false,Rx,0,8,6D,00,00,00,00,00,00,00,
11188209,0000076C,false,Rx,0,8,6E,00,00,00,00,00,00,00,
11198268,0000076C,false,Rx,0,8,6F,00,00,00,00,00,00,00,
11208379,0000076C,false,Rx,0,8,70,00,00,00,00,00,00,00,
11218195,0000076C,false,Rx,0,8,71,2C,30,00,2C,38,80,00,
11228196,0000076C,false,Rx,0,8,77,00,00,5F,A0,0E,00,00,
11238206,0000076C,false,Rx,0,8,78,00,00,00,00,00,00,00,
11248258,0000076C,false,Rx,0,8,79,00,00,00,00,00,00,00,
11258369,0000076C,false,Rx,0,8,7A,01,09,00,00,00,00,00,
11268267,0000076C,false,Rx,0,8,01,10,10,16,20,16,24,00,
11270312,000002C4,false,Rx,0,8,12,00,00,00,00,00,00,00,
11270566,00000204,false,Rx,0,8,01,00,00,00,00,00,00,00,
11270782,00000264,false,Rx,0,6,47,00,00,00,E0,01,00,00,
11271271,00000224,false,Rx,0,8,00,04,00,00,00,00,10,08,
11278191,0000076C,false,Rx,0,8,02,02,02,02,02,00,01,00,
11288178,0000076C,false,Rx,0,8,03,60,60,4A,4A,62,66,00,
11298262,0000076C,false,Rx,0,8,04,0C,17,00,06,00,03,00,
11308351,0000076C,false,Rx,0,8,05,AD,74,36,39,D4,2E,00,
11318194,0000076C,false,Rx,0,8,0A,23,00,01,64,00,40,00,
11328188,0000076C,false,Rx,0,8,0B,12,00,D0,20,00,00,00,
11338187,0000076C,false,Rx,0,8,0C,00,00,00,40,20,40,00,
11348240,0000076C,false,Rx,0,8,0D,04,32,8F,BB,28,00,00,
11358361,0000076C,false,Rx,0,8,0E,E0,DB,39,97,02,00,00,
11368188,0000076C,false,Rx,0,8,14,23,40,00,64,00,40,00,
11370307,000002C4,false,Rx,0,8,13,00,00,00,00,00,00,00,
11370562,00000204,false,Rx,0,8,01,00,00,00,00,00,00,00,
11370781,00000264,false,Rx,0,6,46,00,00,00,E0,01,00,00,
11371271,00000224,false,Rx,0,8,00,04,00,00,00,00,10,08,
11371525,000003C4,false,Rx,0,8,0B,00,04,01,01,00,FF,FF,
11378185,0000076C,false,Rx,0,8,15,00,00,D0,20,00,00,00,
11388184,0000076C,false,Rx,0,8,16,00,00,00,40,00,00,00,
11398247,0000076C,false,Rx,0,8,17,04,32,8F,BB,28,00,00,
11408348,0000076C,false,Rx,0,8,18,E0,DB,39,97,02,00,00,
11418170,0000076C,false,Rx,0,8,1E,23,60,00,64,00,40,00,
11428180,0000076C,false,Rx,0,8,1F,01,00,D0,20,00,00,00,
11438182,0000076C,false,Rx,0,8,20,00,00,00,50,00,00,00,
11448234,0000076C,false,Rx,0,8,21,04,32,8F,BB,28,00,00,
11458355,0000076C,false,Rx,0,8,22,E0,DB,39,97,02,00,00,
11468174,0000076C,false,Rx,0,8,33,00,00,00,00,00,20,84,
11470290,000002C4,false,Rx,0,8,14,00,00,00,00,00,00,00,
11470545,00000204,false,Rx,0,8,01,00,00,00,00,00,00,00,
11470758,00000264,false,Rx,0,6,45,00,00,00,E0,01,00,00,
11471239,00000224,false,Rx,0,8,00,04,00,00,00,00,10,08,
11472344,000002A4,false,Rx,0,8,FA,7E,38,C4,87,BE,F5,FF,
11472487,00000364,false,Rx,0,2,00,78,00,00,00,00,00,00,
11472741,000003A4,false,Rx,0,8,01,00,00,00,00,00,00,00,
11478169,0000076C,false,Rx,0,8,34,00,00,00,00,00,00,00,
11488169,0000076C,false,Rx,0,8,35,2A,00,00,00,00,00,00,
11498251,0000076C,false,Rx,0,8,64,00,00,41,70,4A,0E,00,
11508361,0000076C,false,Rx,0,8,66,00,00,00,00,00,00,00,
11518172,0000076C,false,Rx,0,8,67,00,00,00,00,00,00,00,
11528169,0000076C,false,Rx,0,8,68,00,00,00,00,00,00,00,
11538162,0000076C,false,Rx,0,8,69,00,00,00,00,00,9D,FF,
11548242,0000076C,false,Rx,0,8,6A,00,00,00,00,00,00,00,
11558354,0000076C,false,Rx,0,8,6B,CD,06,00,00,00,00,00,
11568171,0000076C,false,Rx,0,8,6C,00,00,00,00,00,1C,00,
11570271,000002C4,false,Rx,0,8,35,00,01,04,00,40,FF,00,
11570525,00000204,false,Rx,0,8,01,00,00,00,00,00,00,00,
11570739,00000264,false,Rx,0,6,45,00,00,00,E0,01,00,00,
11571226,00000224,false,Rx,0,8,00,04,00,00,00,00,10,08,
11576135,00000424,false,Rx,0,8,17,80,01,00,00,00,00,00,
11578162,0000076C,false,Rx,0,8,6D,00,00,00,00,00,00,00,
11588163,0000076C,false,Rx,0,8,6E,00,00,00,00,00,00,00,
11598246,0000076C,false,Rx,0,8,6F,00,00,00,00,00,00,00,
11608348,0000076C,false,Rx,0,8,70,00,00,00,00,00,00,00,
11618142,0000076C,false,Rx,0,8,71,2C,30,00,2C,38,80,00,
11628153,0000076C,false,Rx,0,8,77,00,00,5F,A0,0E,00,00,
11638156,0000076C,false,Rx,0,8,78,00,00,00,00,00,00,00,
11648237,0000076C,false,Rx,0,8,79,00,00,00,00,00,00,00,
11658347,0000076C,false,Rx,0,8,7A,01,09,00,00,00,00,00,
11668217,0000076C,false,Rx,0,8,01,10,10,15,20,17,24,00,
11670254,000002C4,false,Rx,0,8,16,81,0B,00,00,00,00,00,
11670518,00000204,false,Rx,0,8,01,00,00,00,00,00,00,00,
11670744,00000264,false,Rx,0,6,46,00,00,00,E0,01,00,00,
11671222,00000224,false,Rx,0,8,00,04,00,00,00,00,10,08,
11678153,0000076C,false,Rx,0,8,02,02,02,02,02,01,01,00,
11688130,0000076C,false,Rx,0,8,03,60,60,4A,4A,65,66,00,
11698243,0000076C,false,Rx,0,8,04,0C,17,00,06,00,03,00,
11708332,0000076C,false,Rx,0,8,05,AE,7C,36,38,D4,2E,00,
11718139,0000076C,false,Rx,0,8,8A,22,E0,00,64,00,40,00,
11728138,0000076C,false,Rx,0,8,0B,12,00,D0,20,FF,0F,00,
11738139,0000076C,false,Rx,0,8,0C,00,00,00,30,20,40,00,
11748221,0000076C,false,Rx,0,8,0D,04,32,8F,BB,28,00,00,
11758333,0000076C,false,Rx,0,8,0E,E0,DB,39,97,02,00,00,
11768129,0000076C,false,Rx,0,8,94,22,40,00,64,00,40,00,
11770249,000002C4,false,Rx,0,8,20,40,00,D2,00,00,00,00,
11770523,00000204,false,Rx,0,8,01,00,00,00,00,00,00,00,
11770738,00000264,false,Rx,0,6,45,00,00,00,E0,01,00,00,
11771222,00000224,false,Rx,0,8,00,04,00,00,00,00,10,08,
11778133,0000076C,false,Rx,0,8,15,00,00,D0,20,00,00,00,
11788143,0000076C,false,Rx,0,8,16,00,00,00,40,00,00,00,
11798225,0000076C,false,Rx,0,8,17,04,32,8F,BB,28,00,00,
11808328,0000076C,false,Rx,0,8,18,DF,DB,39,97,02,00,00,
11818123,0000076C,false,Rx,0,8,9E,22,60,00,64,00,40,00,
11828133,0000076C,false,Rx,0,8,1F,01,00,D0,20,00,00,00,
11838134,0000076C,false,Rx,0,8,20,00,00,00,40,00,00,00,
11848211,0000076C,false,Rx,0,8,21,04,32,8F,BB,28,00,00,
11858331,0000076C,false,Rx,0,8,22,E0,DB,39,97,02,00,00,
11868129,0000076C,false,Rx,0,8,33,00,00,00,00,00,20,84,
11870243,000002C4,false,Rx,0,8,01,00,00,D2,00,00,00,00,
11870499,00000204,false,Rx,0,8,01,00,00,00,00,00,00,00,
11870713,00000264,false,Rx,0,6,46,00,00,00,E0,01,00,00,
11871204,00000224,false,Rx,0,8,00,04,00,00,00,00,10,08,
11871448,000003C4,false,Rx,0,8,0D,03,00,00,72,F2,7C,0A,
11878126,0000076C,false,Rx,0,8,34,00,00,00,00,00,00,00,
11888121,0000076C,false,Rx,0,8,35,2A,00,00,00,00,00,00,
11898222,0000076C,false,Rx,0,8,64,00,00,41,70,4A,0E,00,
11908334,0000076C,false,Rx,0,8,66,00,00,00,00,00,00,00,
11918124,0000076C,false,Rx,0,8,67,00,00,00,00,00,00,00,
11928122,0000076C,false,Rx,0,8,68,00,00,00,00,00,00,00,
11938122,0000076C,false,Rx,0,8,69,00,00,00,00,00,9D,FF,
11948224,0000076C,false,Rx,0,8,6A,00,00,00,00,00,00,00,
11958327,0000076C,false,Rx,0,8,6B,CD,06,00,00,00,00,00,
11968123,0000076C,false,Rx,0,8,6C,00,00,00,00,00,1C,00,
11970221,000002C4,false,Rx,0,8,02,00,00,D2,00,00,00,00,
11970486,00000204,false,Rx,0,8,01,00,00,00,00,00,00,00,
11970700,00000264,false,Rx,0,6,46,00,00,00,E0,01,00,00,
11971187,00000224,false,Rx,0,8,00,04,00,00,00,00,10,08,
11978119,0000076C,false,Rx,0,8,6D,00,00,00,00,00,00,00,
11988108,0000076C,false,Rx,0,8,6E,00,00,00,00,00,00,00,
11998230,0000076C,false,Rx,0,8,6F,00,00,00,00,00,00,00,
12008331,0000076C,false,Rx,0,8,70,00,00,00,00,00,00,00,
12018089,0000076C,false,Rx,0,8,71,2C,30,00,2C,38,80,00,
12028106,0000076C,false,Rx,0,8,77,00,00,5F,80,0E,00,00,
12038108,0000076C,false,Rx,0,8,78,00,00,5E,80,0E,00,00,
12048211,0000076C,false,Rx,0,8,79,00,00,00,00,00,00,00,
12058322,0000076C,false,Rx,0,8,7A,01,09,00,00,00,00,00,
12068182,0000076C,false,Rx,0,8,01,10,10,17,20,15,24,00,
12070208,000002C4,false,Rx,0,8,63,01,18,80,01,00,C0,00,
12070472,00000204,false,Rx,0,8,01,00,00,00,00,00,00,00,
12070686,00000264,false,Rx,0,6,47,00,00,00,E0,01,00,00,
12071176,00000224,false,Rx,0,8,00,04,00,00,00,00,10,08,
12078103,0000076C,false,Rx,0,8,02,03,03,02,02,00,01,00,
12088082,0000076C,false,Rx,0,8,03,60,60,4A,4A,65,66,00,
12098214,0000076C,false,Rx,0,8,04,0C,17,00,07,00,03,00,
12108305,0000076C,false,Rx,0,8,05,AE,74,36,39,E4,2E,00,
12118092,0000076C,false,Rx,0,8,0A,21,A0,00,64,00,40,00,
12128081,0000076C,false,Rx,0,8,0B,12,00,D0,20,FF,0F,00,
12138092,0000076C,false,Rx,0,8,0C,00,00,00,40,20,40,00,
12148196,0000076C,false,Rx,0,8,0D,04,32,8F,BB,28,00,00,
12158318,0000076C,false,Rx,0,8,0E,E0,DB,39,97,02,00,00,
12168086,0000076C,false,Rx,0,8,94,23,20,00,64,00,40,00,
12170196,000002C4,false,Rx,0,8,04,00,00,00,00,00,41,00,
12170461,00000204,false,Rx,0,8,01,00,00,00,00,00,00,00,
12170675,00000264,false,Rx,0,6,47,00,00,00,E0,01,00,00,
12171179,00000224,false,Rx,0,8,00,04,00,00,00,00,10,08,
12178080,0000076C,false,Rx,0,8,15,00,00,D0,20,00,00,00,
12188090,0000076C,false,Rx,0,8,16,00,00,00,30,00,00,00,
12198209,0000076C,false,Rx,0,8,17,04,32,8F,BB,28,00,00,
12208309,0000076C,false,Rx,0,8,18,DF,DB,3A,97,02,00,00,
12218084,0000076C,false,Rx,0,8,1E,23,60,00,64,00,40,00,
12228083,0000076C,false,Rx,0,8,1F,01,00,D0,20,00,00,00,
12238086,0000076C,false,Rx,0,8,20,00,00,00,40,00,40,00,
12248188,0000076C,false,Rx,0,8,21,04,32,8F,BB,28,00,00,
12258311,0000076C,false,Rx,0,8,22,E0,DB,39,97,02,00,00,
12268083,0000076C,false,Rx,0,8,33,00,00,00,00,00,20,84,
12270194,000002C4,false,Rx,0,8,25,22,00,00,00,00,00,20,
12270448,00000204,false,Rx,0,8,01,00,00,00,00,00,00,00,
12270663,00000264,false,Rx,0,6,45,00,00,00,E0,01,00,00,
12271153,00000224,false,Rx,0,8,00,04,00,00,00,00,10,08,
12278089,0000076C,false,Rx,0,8,34,00,00,00,00,00,00,00,
12288087,0000076C,false,Rx,0,8,35,2A,00,00,00,00,00,00,
12298208,0000076C,false,Rx,0,8,64,00,00,41,70,4A,0E,00,
12308309,0000076C,false,Rx,0,8,66,00,00,00,00,00,00,00,
12318077,0000076C,false,Rx,0,8,67,00,00,00,00,00,00,00,
12328085,0000076C,false,Rx,0,8,68,00,00,00,00,00,00,00,
12338079,0000076C,false,Rx,0,8,69,00,00,00,00,00,9D,FF,
12348203,0000076C,false,Rx,0,8,6A,00,00,00,00,00,00,00,
12358306,0000076C,false,Rx,0,8,6B,CD,06,00,00,00,00,00,
12368083,0000076C,false,Rx,0,8,6C,00,00,00,00,00,1C,00,
12370182,000002C4,false,Rx,0,8,46,25,41,00,00,00,C0,58,
12370447,00000204,false,Rx,0,8,01,00,00,00,00,00,00,00,
12370671,00000264,false,Rx,0,6,46,00,00,00,E0,01,00,00,
12371162,00000224,false,Rx,0,8,00,04,00,00,00,00,10,08,
12371412,000003C4,false,Rx,0,8,10,00,00,00,8D,2E,15,C5,
12378074,0000076C,false,Rx,0,8,6D,00,00,00,00,00,00,00,
12388072,0000076C,false,Rx,0,8,6E,00,00,00,00,00,00,00,
12398203,0000076C,false,Rx,0,8,6F,00,00,00,00,00,00,00,
12408304,0000076C,false,Rx,0,8,70,00,00,00,00,00,00,00,
12418066,0000076C,false,Rx,0,8,71,2C,30,00,2C,38,80,00,
12428068,0000076C,false,Rx,0,8,77,00,00,5F,80,0E,00,00,
12438069,0000076C,false,Rx,0,8,78,00,00,5E,80,0E,00,00,
12448193,0000076C,false,Rx,0,8,79,00,00,00,00,00,00,00,
12458301,0000076C,false,Rx,0,8,7A,01,09,00,00,00,00,00,
12468133,0000076C,false,Rx,0,8,01,10,10,15,20,17,24,00,
12470171,000002C4,false,Rx,0,8,07,00,00,00,00,00,00,00,
12470429,00000204,false,Rx,0,8,01,00,00,00,00,00,00,00,
12470643,00000264,false,Rx,0,6,45,00,00,00,E0,01,00,00,
12471123,00000224,false,Rx,0,8,00,04,00,00,00,00,10,08,
12472282,000002A4,false,Rx,0,8,23,CF,F9,CE,87,CE,F5,FF,
12472434,00000364,false,Rx,0,2,00,78,00,00,00,00,00,00,
12472698,000003A4,false,Rx,0,8,00,00,00,0C,00,00,00,00,
12478068,0000076C,false,Rx,0,8,02,02,03,02,02,01,01,00,
12488058,0000076C,false,Rx,0,8,03,60,60,4A,4A,65,68,00,
12498190,0000076C,false,Rx,0,8,04,0C,17,00,07,00,03,00,
12508291,0000076C,false,Rx,0,8,05,AD,84,36,39,D4,2E,00,
12518057,0000076C,false,Rx,0,8,8A,22,A0,00,64,00,80,00,
12528057,0000076C,false,Rx,0,8,0B,12,00,D0,20,FF,0F,00,
12538068,0000076C,false,Rx,0,8,0C,00,00,00,40,20,40,00,
12548181,0000076C,false,Rx,0,8,0D,04,32,8F,BB,28,00,00,
12558294,0000076C,false,Rx,0,8,0E,DF,DB,39,97,02,00,00,
12568062,0000076C,false,Rx,0,8,94,22,40,00,64,00,80,00,
12570149,000002C4,false,Rx,0,8,08,00,00,00,1C,00,00,00,
12570414,00000204,false,Rx,0,8,01,00,00,00,00,00,00,00,
12570628,00000264,false,Rx,0,6,46,00,00,00,E0,01,00,00,
12571118,00000224,false,Rx,0,8,00,04,00,00,00,00,10,08,
12578067,0000076C,false,Rx,0,8,15,00,00,D0,20,00,00,00,
12588067,0000076C,false,Rx,0,8,16,00,00,00,40,00,00,00,
12598190,0000076C,false,Rx,0,8,17,04,32,8F,BB,28,00,00,
12608290,0000076C,false,Rx,0,8,18,E0,DB,39,97,02,00,00,
12618059,0000076C,false,Rx,0,8,9E,22,40,00,64,00,80,00,
12628058,0000076C,false,Rx,0,8,1F,01,00,D0,20,00,00,00,
12638068,0000076C,false,Rx,0,8,20,00,00,00,40,00,40,00,
12648165,0000076C,false,Rx,0,8,21,04,32,8F,BB,28,00,00,
12658286,0000076C,false,Rx,0,8,22,E0,DB,39,97,02,00,00,
12668062,0000076C,false,Rx,0,8,33,00,00,00,00,00,20,84,
12670131,000002C4,false,Rx,0,8,49,DC,E5,2E,B0,84,25,03,
12670395,00000204,false,Rx,0,8,01,00,00,00,00,00,00,00,
12670604,00000264,false,Rx,0,6,46,00,00,00,E0,01,00,00,
12671094,00000224,false,Rx,0,8,00,04,00,00,00,00,10,08,
12678066,0000076C,false,Rx,0,8,34,00,00,00,00,00,00,00,
12688064,0000076C,false,Rx,0,8,35,2A,00,00,00,00,00,00,
12698186,0000076C,false,Rx,0,8,64,00,00,41,70,4A,0E,00,
12708291,0000076C,false,Rx,0,8,66,00,00,00,00,00,00,00,
12718060,0000076C,false,Rx,0,8,67,00,00,00,00,00,00,00,
12728060,0000076C,false,Rx,0,8,68,00,00,00,00,00,00,00,
12738050,0000076C,false,Rx,0,8,69,00,00,00,00,00,9D,FF,
12748173,0000076C,false,Rx,0,8,6A,00,00,00,00,00,00,00,
12758286,0000076C,false,Rx,0,8,6B,CD,06,00,00,00,00,00,
12768062,0000076C,false,Rx,0,8,6C,00,00,00,00,00,1C,00,
12770128,000002C4,false,Rx,0,8,0A,00,00,00,00,08,00,00,
12770392,00000204,false,Rx,0,8,01,00,00,00,00,00,00,00,
12770607,00000264,false,Rx,0,6,48,00,00,00,E0,01,00,00,
12771086,00000224,false,Rx,0,8,00,04,00,00,00,00,10,08,
12778056,0000076C,false,Rx,0,8,6D,00,00,00,00,00,00,00,
12788054,0000076C,false,Rx,0,8,6E,00,00,00,00,00,00,00,
12798179,0000076C,false,Rx,0,8,6F,00,00,00,00,00,00,00,
12808289,0000076C,false,Rx,0,8,70,00,00,00,00,00,00,00,
12818044,0000076C,false,Rx,0,8,71,2C,30,00,2C,38,80,00,
12828049,0000076C,false,Rx,0,8,77,00,00,5F,80,0E,00,00,
12838054,0000076C,false,Rx,0,8,78,00,00,5E,80,0E,00,00,
12848171,0000076C,false,Rx,0,8,79,00,00,00,00,00,00,00,
12858282,0000076C,false,Rx,0,8,7A,01,09,00,00,00,00,00,
12868079,0000076C,false,Rx,0,8,01,10,10,15,20,17,24,00,
12870116,000002C4,false,Rx,0,8,0B,00,00,00,0E,08,00,00,
12870382,00000204,false,Rx,0,8,01,00,00,00,00,00,00,00,
12870610,00000264,false,Rx,0,6,47,00,00,00,E0,01,00,00,
12871079,00000224,false,Rx,0,8,00,04,00,00,00,00,10,08,
12871345,000003C4,false,Rx,0,8,11,00,00,00,00,00,00,00,
12878046,0000076C,false,Rx,0,8,02,02,03,02,02,00,01,00,
12888044,0000076C,false,Rx,0,8,03,60,60,4A,4A,65,68,00,
12898167,0000076C,false,Rx,0,8,04,0C,17,00,07,00,03,00,
12908259,0000076C,false,Rx,0,8,05,AC,84,36,38,DC,2E,00,
12918042,0000076C,false,Rx,0,8,0A,22,80,00,64,00,80,00,
12928041,0000076C,false,Rx,0,8,0B,12,00,D0,20,FF,0F,00,
12938045,0000076C,false,Rx,0,8,0C,00,00,00,40,20,40,00,
12948156,0000076C,false,Rx,0,8,0D,04,32,8F,BB,28,00,00,
12958267,0000076C,false,Rx,0,8,0E,E0,DB,39,97,02,00,00,
12968035,0000076C,false,Rx,0,8,14,24,20,00,64,00,80,00,
12970109,000002C4,false,Rx,0,8,0C,00,00,80,FF,07,00,00,
12970375,00000204,false,Rx,0,8,01,00,00,00,00,00,00,00,
12970599,00000264,false,Rx,0,6,48,00,00,00,E0,01,00,00,
12971079,00000224,false,Rx,0,8,00,04,00,00,00,00,10,08,
12978038,0000076C,false,Rx,0,8,15,00,00,D0,20,00,00,00,
12988049,0000076C,false,Rx,0,8,16,00,00,00,40,00,00,00,
12998160,0000076C,false,Rx,0,8,17,04,32,8F,BB,28,00,00,
13008269,0000076C,false,Rx,0,8,18,E0,DB,39,97,02,00,00,
13018033,0000076C,false,Rx,0,8,1E,24,40,00,64,00,80,00,
13028042,0000076C,false,Rx,0,8,1F,02,00,D0,20,00,00,00,
13038039,0000076C,false,Rx,0,8,20,00,00,00,40,00,40,00,
13048143,0000076C,false,Rx,0,8,21,04,32,8F,BB,28,00,00,
13058265,0000076C,false,Rx,0,8,22,E0,DB,39,97,02,00,00,
13068041,0000076C,false,Rx,0,8,33,00,00,00,00,00,20,84,
13070100,000002C4,false,Rx,0,8,0D,00,00,00,00,00,00,00,
13070354,00000204,false,Rx,0,8,01,00,00,00,00,00,00,00,
13070568,00000264,false,Rx,0,6,47,00,00,00,E0,01,00,00,
13071054,00000224,false,Rx,0,8,00,04,00,00,00,00,10,08,
13078043,0000076C,false,Rx,0,8,34,00,00,00,00,00,00,00,
13088043,0000076C,false,Rx,0,8,35,2A,00,00,00,00,00,00,
13098166,0000076C,false,Rx,0,8,64,00,00,41,70,4A,00,00,
13108269,0000076C,false,Rx,0,8,66,00,00,00,00,00,00,00,
13118034,0000076C,false,Rx,0,8,67,00,00,00,00,00,00,00,
13128044,0000076C,false,Rx,0,8,68,00,00,00,00,00,00,00,
13138037,0000076C,false,Rx,0,8,69,00,00,00,00,00,9D,FF,
13148153,0000076C,false,Rx,0,8,6A,00,00,00,00,00,00,00,
13158261,0000076C,false,Rx,0,8,6B,CD,06,00,00,00,00,00,
13168039,0000076C,false,Rx,0,8,6C,00,00,00,00,00,1C,00,
13170084,000002C4,false,Rx,0,8,12,00,00,00,00,00,00,00,
13170349,00000204,false,Rx,0,8,01,00,00,00,00,00,00,00,
13170563,00000264,false,Rx,0,6,46,00,00,00,E0,01,00,00,
13171053,00000224,false,Rx,0,8,00,04,00,00,00,00,10,08,
13178034,0000076C,false,Rx,0,8,6D,00,00,00,00,00,00,00,
13188032,0000076C,false,Rx,0,8,6E,00,00,00,00,00,00,00,
13198164,0000076C,false,Rx,0,8,6F,00,00,00,00,00,00,00,
13208266,0000076C,false,Rx,0,8,70,00,00,00,00,00,00,00,
13218021,0000076C,false,Rx,0,8,71,2C,30,00,2C,38,80,00,
13228022,0000076C,false,Rx,0,8,77,00,00,5F,80,0E,00,00,
13238032,0000076C,false,Rx,0,8,78,00,00,5E,80,0E,00,00,
13248145,0000076C,false,Rx,0,8,79,00,00,00,00,00,00,00,
13258257,0000076C,false,Rx,0,8,7A,01,09,00,00,00,00,00,
13268035,0000076C,false,Rx,0,8,01,10,10,15,20,17,24,00,
13270074,000002C4,false,Rx,0,8,13,00,00,00,00,00,00,00,
13270328,00000204,false,Rx,0,8,01,00,00,00,00,00,00,00,
13270553,00000264,false,Rx,0,6,46,00,00,00,E0,01,00,00,
13271039,00000224,false,Rx,0,8,00,04,00,00,00,00,10,08,
13278020,0000076C,false,Rx,0,8,02,02,03,02,02,00,01,00,
13288020,0000076C,false,Rx,0,8,03,60,60,4A,4A,65,68,00,
13298152,0000076C,false,Rx,0,8,04,0C,17,00,07,00,03,00,
13308245,0000076C,false,Rx,0,8,05,AC,84,36,39,E4,2E,00,
13318023,0000076C,false,Rx,0,8,8A,22,60,00,64,00,80,00,
13328023,0000076C,false,Rx,0,8,0B,11,00,D0,20,FF,0F,00,
13338026,0000076C,false,Rx,0,8,0C,00,00,00,40,20,40,00,
13348130,0000076C,false,Rx,0,8,0D,04,32,8F,BB,28,00,00,
13358249,0000076C,false,Rx,0,8,0E,E0,DB,39,97,02,00,00,
13368018,0000076C,false,Rx,0,8,14,23,40,00,64,00,80,00,
13370072,000002C4,false,Rx,0,8,14,00,00,00,00,00,00,00,
13370328,00000204,false,Rx,0,8,01,00,00,00,00,00,00,00,
13370542,00000264,false,Rx,0,6,46,00,00,00,E0,01,00,00,
13371032,00000224,false,Rx,0,8,00,04,00,00,00,00,10,08,
13371267,000003C4,false,Rx,0,8,12,AE,49,F9,A8,EF,3D,8E,
13378017,0000076C,false,Rx,0,8,15,00,00,D0,20,00,00,00,
13388021,0000076C,false,Rx,0,8,16,00,00,00,40,00,00,00,
13398142,0000076C,false,Rx,0,8,17,04,32,8F,BB,28,00,00,
13408244,0000076C,false,Rx,0,8,18,E0,DB,39,97,02,00,00,
13418015,0000076C,false,Rx,0,8,9E,23,40,00,64,00,80,00,
13428023,0000076C,false,Rx,0,8,1F,01,00,D0,20,00,00,00,
13438025,0000076C,false,Rx,0,8,20,00,00,00,40,00,40,00,
13448125,0000076C,false,Rx,0,8,21,04,32,8F,BB,28,00,00,
13458240,0000076C,false,Rx,0,8,22,E2,DB,37,97,02,00,00,
13468017,0000076C,false,Rx,0,8,33,00,00,00,00,00,20,84,
13470044,000002C4,false,Rx,0,8,55,00,02,08,00,C0,FE,00,
13470320,00000204,false,Rx,0,8,01,00,00,00,00,00,00,00,
13470534,00000264,false,Rx,0,6,46,00,00,00,E0,01,00,00,
13471020,00000224,false,Rx,0,8,00,04,00,00,00,00,10,08,
13472241,000002A4,false,Rx,0,8,25,DF,79,CF,87,BE,F5,FF,
13472384,00000364,false,Rx,0,2,00,78,00,00,00,00,00,00,
13472638,000003A4,false,Rx,0,8,01,00,00,00,00,00,00,00,
13478022,0000076C,false,Rx,0,8,34,00,00,00,00,00,00,00,
13488020,0000076C,false,Rx,0,8,35,2A,00,00,00,00,00,00,
13498143,0000076C,false,Rx,0,8,64,00,00,41,70,4A,0E,00,
13508243,0000076C,false,Rx,0,8,66,00,00,00,00,00,00,00,
13512857,0000050A,false,Rx,0,8,10,00,00,00,00,00,00,00,
13518013,0000076C,false,Rx,0,8,67,00,00,00,00,00,00,00,
13528021,0000076C,false,Rx,0,8,68,00,00,00,00,00,00,00,
13538013,0000076C,false,Rx,0,8,69,00,00,00,00,00,9D,FF,
13548136,0000076C,false,Rx,0,8,6A,00,00,00,00,00,00,00,
13558246,0000076C,false,Rx,0,8,6B,CD,06,00,00,00,00,00,
13568014,0000076C,false,Rx,0,8,6C,00,00,00,00,00,1C,00,
13570029,000002C4,false,Rx,0,8,16,81,0B,00,00,00,00,00,
13570293,00000204,false,Rx,0,8,01,00,00,00,00,00,00,00,
13570507,00000264,false,Rx,0,6,46,00,00,00,E0,01,00,00,
13571008,00000224,false,Rx,0,8,00,04,00,00,00,00,10,08,
13578014,0000076C,false,Rx,0,8,6D,00,00,00,00,00,00,00,
13588011,0000076C,false,Rx,0,8,6E,00,00,00,00,00,00,00,
13598143,0000076C,false,Rx,0,8,6F,00,00,00,00,00,00,00,
13608246,0000076C,false,Rx,0,8,70,00,00,00,00,00,00,00,
13618000,0000076C,false,Rx,0,8,71,2C,30,00,2C,38,80,00,
13628008,0000076C,false,Rx,0,8,77,00,00,5F,80,0E,00,00,
13638008,0000076C,false,Rx,0,8,78,00,00,5E,80,0E,00,00,
13648121,0000076C,false,Rx,0,8,79,00,00,00,00,00,00,00,
13658234,0000076C,false,Rx,0,8,7A,01,09,00,00,00,00,00,
13668001,0000076C,false,Rx,0,8,01,10,10,16,20,17,24,00,
13670020,000002C4,false,Rx,0,8,00,40,00,D2,00,00,00,00,
13670284,00000204,false,Rx,0,8,01,00,00,00,00,00,00,00,
13670498,00000264,false,Rx,0,6,45,00,00,00,E0,01,00,00,
13670743,00000224,false,Rx,0,8,00,04,00,00,00,00,10,08,
13678005,0000076C,false,Rx,0,8,02,02,03,02,02,01,01,00,
13687994,0000076C,false,Rx,0,8,03,60,60,4A,4A,62,68,00,
13698126,0000076C,false,Rx,0,8,04,0C,17,00,07,00,03,00,
13708219,0000076C,false,Rx,0,8,05,AC,8C,36,39,D4,2E,00,
13718000,0000076C,false,Rx,0,8,0A,22,60,00,64,00,80,00,
13727999,0000076C,false,Rx,0,8,0B,12,00,D0,20,FF,0F,00,
13738001,0000076C,false,Rx,0,8,0C,00,00,00,40,20,40,00,
13748113,0000076C,false,Rx,0,8,0D,04,32,8F,BB,28,00,00,
13758224,0000076C,false,Rx,0,8,0E,E0,DB,39,97,02,00,00,
13767997,0000076C,false,Rx,0,8,14,23,40,00,64,00,80,00,
13770015,000002C4,false,Rx,0,8,01,00,00,D2,00,00,00,00,
13770282,00000204,false,Rx,0,8,01,00,00,00,00,00,00,00,
13770497,00000264,false,Rx,0,6,46,00,00,00,E0,01,00,00,
13770996,00000224,false,Rx,0,8,00,04,00,00,00,00,10,08,
13778000,0000076C,false,Rx,0,8,15,00,00,D0,20,00,00,00,
13787998,0000076C,false,Rx,0,8,16,00,00,00,30,00,00,00,
13798119,0000076C,false,Rx,0,8,17,04,32,8F,BB,28,00,00,
13808220,0000076C,false,Rx,0,8,18,E0,DB,39,97,02,00,00,
13817994,0000076C,false,Rx,0,8,9E,22,40,00,64,00,80,00,
13828002,0000076C,false,Rx,0,8,1F,02,00,D0,20,00,00,00,
13838004,0000076C,false,Rx,0,8,20,00,00,00,40,00,40,00,
13848106,0000076C,false,Rx,0,8,21,04,32,8F,BB,28,00,00,
13858219,0000076C,false,Rx,0,8,22,E0,DB,39,97,02,00,00,
13867994,0000076C,false,Rx,0,8,33,00,00,00,00,00,20,84,
13870002,000002C4,false,Rx,0,8,02,00,00,D2,00,00,00,00,
13870266,00000204,false,Rx,0,8,01,00,00,00,00,00,00,00,
13870481,00000264,false,Rx,0,6,44,00,00,00,E0,01,00,00,
13870991,00000224,false,Rx,0,8,00,04,00,00,00,00,10,08,
13871233,000003C4,false,Rx,0,8,14,05,00,00,1B,15,C3,EF,
13877993,0000076C,false,Rx,0,8,34,00,00,00,00,00,00,00,
13887992,0000076C,false,Rx,0,8,35,2A,00,00,00,00,00,00,
13898114,0000076C,false,Rx,0,8,64,00,00,41,70,4A,00,00,
13908222,0000076C,false,Rx,0,8,66,00,00,00,00,00,00,00,
13917994,0000076C,false,Rx,0,8,67,00,00,00,00,00,00,00,
13927995,0000076C,false,Rx,0,8,68,00,00,00,00,00,00,00,
13937985,0000076C,false,Rx,0,8,69,00,00,00,00,00,9D,FF,
13948109,0000076C,false,Rx,0,8,6A,00,00,00,00,00,00,00,
13958217,0000076C,false,Rx,0,8,6B,CD,06,00,00,00,00,00,
13967988,0000076C,false,Rx,0,8,6C,00,00,00,00,00,1C,00,
13969985,000002C4,false,Rx,0,8,83,01,16,60,01,00,A0,00,
13970253,00000204,false,Rx,0,8,01,00,00,00,00,00,00,00,
13970467,00000264,false,Rx,0,6,46,00,00,00,E0,01,00,00,
13970721,00000224,false,Rx,0,8,00,04,00,00,00,00,10,08,
13977992,0000076C,false,Rx,0,8,6D,00,00,00,00,00,00,00,
13987990,0000076C,false,Rx,0,8,6E,00,00,00,00,00,00,00,
13998121,0000076C,false,Rx,0,8,6F,00,00,00,00,00,00,00,
14008222,0000076C,false,Rx,0,8,70,00,00,00,00,00,00,00,
14017977,0000076C,false,Rx,0,8,71,2C,30,00,2C,38,80,00,
14027986,0000076C,false,Rx,0,8,77,00,00,5F,80,0E,00,00,
14037988,0000076C,false,Rx,0,8,78,00,00,5E,80,0E,00,00,
14048101,0000076C,false,Rx,0,8,79,00,00,00,00,00,00,00,
14058213,0000076C,false,Rx,0,8,7A,01,09,00,00,00,00,00,
14067979,0000076C,false,Rx,0,8,01,10,10,15,20,17,24,00,
14069986,000002C4,false,Rx,0,8,04,00,00,00,00,00,41,00,
14070250,00000204,false,Rx,0,8,01,00,00,00,00,00,00,00,
14070464,00000264,false,Rx,0,6,44,00,00,00,E0,01,00,00,
14070974,00000224,false,Rx,0,8,00,04,00,00,00,00,10,08,
14077984,0000076C,false,Rx,0,8,02,02,03,02,02,00,01,00,
14087973,0000076C,false,Rx,0,8,03,60,60,4A,4A,62,68,00,
14098104,0000076C,false,Rx,0,8,04,0C,17,00,07,00,03,00,
14108201,0000076C,false,Rx,0,8,05,AB,84,36,38,CC,2E,00,
14117980,0000076C,false,Rx,0,8,8A,21,60,00,64,00,80,00,
14127968,0000076C,false,Rx,0,8,0B,12,00,D0,20,FF,0F,00,
14137983,0000076C,false,Rx,0,8,0C,00,00,00,40,20,40,00,
14148086,0000076C,false,Rx,0,8,0D,04,32,8F,BB,28,00,00,
14158207,0000076C,false,Rx,0,8,0E,E0,DB,39,97,02,00,00,
14167974,0000076C,false,Rx,0,8,14,22,40,00,64,00,80,00,
14169972,000002C4,false,Rx,0,8,25,22,00,00,00,00,00,20,
14170226,00000204,false,Rx,0,8,01,00,00,00,00,00,00,00,
14170445,00000264,false,Rx,0,6,44,00,00,00,E0,01,00,00,
14170975,00000224,false,Rx,0,8,00,04,00,00,00,00,10,08,
14177978,0000076C,false,Rx,0,8,15,00,00,D0,20,00,00,00,
14187987,0000076C,false,Rx,0,8,16,00,00,00,40,00,00,00,
14198096,0000076C,false,Rx,0,8,17,04,32,8F,BB,28,00,00,
14208201,0000076C,false,Rx,0,8,18,E0,DB,39,97,02,00,00,
14217973,0000076C,false,Rx,0,8,1E,22,40,00,64,00,80,00,
14227973,0000076C,false,Rx,0,8,1F,02,00,D0,20,00,00,00,
14237983,0000076C,false,Rx,0,8,20,00,00,00,40,00,00,00,
14248086,0000076C,false,Rx,0,8,21,04,32,8F,BB,28,00,00,
14258197,0000076C,false,Rx,0,8,22,E2,DB,38,97,02,00,00,
14267972,0000076C,false,Rx,0,8,33,00,00,00,00,00,20,84,
14269956,000002C4,false,Rx,0,8,46,25,41,00,00,00,C0,58,
14270222,00000204,false,Rx,0,8,01,00,00,00,00,00,00,00,
14270427,00000264,false,Rx,0,6,45,00,00,00,E0,01,00,00,
14270681,00000224,false,Rx,0,8,00,04,00,00,00,00,10,08,
14277976,0000076C,false,Rx,0,8,34,00,00,00,00,00,00,00,
14287974,0000076C,false,Rx,0,8,35,2A,00,00,00,00,00,00,
14298099,0000076C,false,Rx,0,8,64,00,00,41,70,4A,0E,00,
14308208,0000076C,false,Rx,0,8,66,00,00,00,00,00,00,00,
14317973,0000076C,false,Rx,0,8,67,00,00,00,00,00,00,00,
14327973,0000076C,false,Rx,0,8,68,00,00,00,00,00,00,00,
14337964,0000076C,false,Rx,0,8,69,00,00,00,00,00,9D,FF,
14348086,0000076C,false,Rx,0,8,6A,00,00,00,00,00,00,00,
14358198,0000076C,false,Rx,0,8,6B,CD,06,00,00,00,00,00,
14367973,0000076C,false,Rx,0,8,6C,00,00,00,00,00,1C,00,
14369970,000002C4,false,Rx,0,8,07,00,00,00,00,00,00,00,
14370224,00000204,false,Rx,0,8,01,00,00,00,00,00,00,00,
14370460,00000264,false,Rx,0,6,45,00,00,00,E0,01,00,00,
14370965,00000224,false,Rx,0,8,00,04,00,00,00,00,10,08,
14371201,000003C4,false,Rx,0,8,19,31,31,33,35,35,35,38,
14377970,0000076C,false,Rx,0,8,6D,00,00,00,00,00,00,00,
14387970,0000076C,false,Rx,0,8,6E,00,00,00,00,00,00,00,
14398092,0000076C,false,Rx,0,8,6F,00,00,00,00,00,00,00,
14408205,0000076C,false,Rx,0,8,70,00,00,00,00,00,00,00,
14417954,0000076C,false,Rx,0,8,71,2C,30,00,2C,38,80,00,
14427966,0000076C,false,Rx,0,8,77,00,00,5F,80,0E,00,00,
14437968,0000076C,false,Rx,0,8,78,00,00,5E,80,0E,00,00,
14448079,0000076C,false,Rx,0,8,79,00,00,00,00,00,00,00,
14458190,0000076C,false,Rx,0,8,7A,01,09,00,00,00,00,00,
14467957,0000076C,false,Rx,0,8,01,10,10,16,20,17,24,00,
14469962,000002C4,false,Rx,0,8,08,00,00,00,1C,00,00,00,
14470228,00000204,false,Rx,0,8,01,00,00,00,00,00,00,00,
14470462,00000264,false,Rx,0,6,45,00,00,00,E0,01,00,00,
14470951,00000224,false,Rx,0,8,00,04,00,00,00,00,10,08,
14472188,000002A4,false,Rx,0,8,25,DF,79,CF,87,BE,F5,FF,
14472322,00000364,false,Rx,0,2,00,78,00,00,00,00,00,00,
14472596,000003A4,false,Rx,0,8,00,00,00,0C,00,00,00,00,
14477952,0000076C,false,Rx,0,8,02,02,03,02,02,01,01,00,
14487952,0000076C,false,Rx,0,8,03,60,60,4A,4A,62,68,00,
14498088,0000076C,false,Rx,0,8,04,0C,17,00,07,00,03,00,
14508176,0000076C,false,Rx,0,8,05,AD,84,36,38,DC,2E,00,
14517957,0000076C,false,Rx,0,8,0A,22,60,00,64,00,80,00,
14527955,0000076C,false,Rx,0,8,0B,11,00,D0,20,FF,0F,00,
14537957,0000076C,false,Rx,0,8,0C,00,00,00,40,20,40,00,
14548070,0000076C,false,Rx,0,8,0D,04,32,8F,BB,28,00,00,
14558182,0000076C,false,Rx,0,8,0E,E0,DB,39,97,02,00,00,
14567957,0000076C,false,Rx,0,8,14,23,40,00,64,00,80,00,
14569935,000002C4,false,Rx,0,8,49,DC,E5,2E,B0,84,25,03,
14570200,00000204,false,Rx,0,8,01,00,00,00,00,00,00,00,
14570414,00000264,false,Rx,0,6,46,00,00,00,E0,01,00,00,
14570950,00000224,false,Rx,0,8,00,04,00,00,00,00,10,08,
14577950,0000076C,false,Rx,0,8,15,00,00,D0,20,00,00,00,
14587961,0000076C,false,Rx,0,8,16,00,00,00,40,00,00,00,
14598077,0000076C,false,Rx,0,8,17,04,32,8F,BB,28,00,00,
14608179,0000076C,false,Rx,0,8,18,E0,DB,39,97,02,00,00,
14617953,0000076C,false,Rx,0,8,1E,23,40,00,64,00,80,00,
14627954,0000076C,false,Rx,0,8,1F,01,00,D0,20,00,00,00,
14637956,0000076C,false,Rx,0,8,20,00,00,00,30,00,00,00,
14648060,0000076C,false,Rx,0,8,21,04,32,8F,BB,28,00,00,
14658179,0000076C,false,Rx,0,8,22,E0,DB,39,97,02,00,00,
14667948,0000076C,false,Rx,0,8,33,00,00,00,00,00,20,84,
14669952,000002C4,false,Rx,0,8,0A,00,00,00,00,08,00,00,
14670209,00000204,false,Rx,0,8,01,00,00,00,00,00,00,00,
14670433,00000264,false,Rx,0,6,45,00,00,00,E0,01,00,00,
14670942,00000224,false,Rx,0,8,00,04,00,00,00,00,10,08,
14677954,0000076C,false,Rx,0,8,34,00,00,00,00,00,00,00,
14687952,0000076C,false,Rx,0,8,35,2A,00,00,00,00,00,00,
14698068,0000076C,false,Rx,0,8,64,00,00,41,70,4A,1C,00,
14708183,0000076C,false,Rx,0,8,66,00,00,00,00,00,00,00,
14717948,0000076C,false,Rx,0,8,67,00,00,00,00,00,00,00,
14727955,0000076C,false,Rx,0,8,68,00,00,00,00,00,00,00,
14737946,0000076C,false,Rx,0,8,69,00,00,00,00,00,9D,FF,
14748069,0000076C,false,Rx,0,8,6A,00,00,00,00,00,00,00,
14758172,0000076C,false,Rx,0,8,6B,CD,06,00,00,00,00,00,
14767947,0000076C,false,Rx,0,8,6C,00,00,00,00,00,1C,00,
14769938,000002C4,false,Rx,0,8,0B,00,00,00,0E,08,00,00,
14770204,00000204,false,Rx,0,8,01,00,00,00,00,00,00,00,
14770429,00000264,false,Rx,0,6,46,00,00,00,E0,01,00,00,
14770934,00000224,false,Rx,0,8,00,04,00,00,00,00,10,08,
14777943,0000076C,false,Rx,0,8,6D,00,00,00,00,00,00,00,
14787942,0000076C,false,Rx,0,8,6E,00,00,00,00,00,00,00,
14798076,0000076C,false,Rx,0,8,6F,00,00,00,00,00,00,00,
14808180,0000076C,false,Rx,0,8,70,00,00,00,00,00,00,00,
14817932,0000076C,false,Rx,0,8,71,2C,30,00,2C,38,80,00,
14827942,0000076C,false,Rx,0,8,77,00,00,5F,80,0E,00,00,
14837945,0000076C,false,Rx,0,8,78,00,00,5E,80,0E,00,00,
14848057,0000076C,false,Rx,0,8,79,00,00,00,00,00,00,00,
14858176,0000076C,false,Rx,0,8,7A,01,09,00,00,00,00,00,
14867935,0000076C,false,Rx,0,8,01,10,10,17,20,17,24,00,
14869939,000002C4,false,Rx,0,8,0C,00,00,80,FF,07,00,00,
14870204,00000204,false,Rx,0,8,01,00,00,00,00,00,00,00,
14870419,00000264,false,Rx,0,6,45,00,00,00,E0,01,00,00,
14870938,00000224,false,Rx,0,8,00,04,00,00,00,00,10,08,
14871184,000003C4,false,Rx,0,8,1A,2D,30,30,2D,43,00,00,
14877932,0000076C,false,Rx,0,8,02,02,03,02,02,00,01,00,
14887926,0000076C,false,Rx,0,8,03,60,60,4A,4A,62,68,00,
14898059,0000076C,false,Rx,0,8,04,0C,17,00,07,00,03,00,
14908151,0000076C,false,Rx,0,8,05,AD,84,36,38,DC,2E,00,
14917939,0000076C,false,Rx,0,8,8A,22,40,00,64,00,80,00,
14927927,0000076C,false,Rx,0,8,0B,11,00,D0,20,FF,0F,00,
14937938,0000076C,false,Rx,0,8,0C,00,00,00,40,20,40,00,
14948050,0000076C,false,Rx,0,8,0D,04,32,8F,BB,28,00,00,
14958164,0000076C,false,Rx,0,8,0E,E0,DB,39,97,02,00,00,
14967930,0000076C,false,Rx,0,8,94,22,40,00,64,00,80,00,
14969938,000002C4,false,Rx,0,8,0D,00,00,00,00,00,00,00,
14970194,00000204,false,Rx,0,8,01,00,00,00,00,00,00,00,
14970408,00000264,false,Rx,0,6,46,00,00,00,E0,01,00,00,
14970924,00000224,false,Rx,0,8,00,04,00,00,00,00,10,08,
14977935,0000076C,false,Rx,0,8,15,00,00,D0,20,00,00,00,
14987932,0000076C,false,Rx,0,8,16,00,00,00,40,00,00,00,
14998057,0000076C,false,Rx,0,8,17,04,32,8F,BB,28,00,00,
15008158,0000076C,false,Rx,0,8,18,E0,DB,39,97,02,00,00,
15017924,0000076C,false,Rx,0,8,1E,22,20,00,64,00,80,00,
15027932,0000076C,false,Rx,0,8,1F,01,00,D0,20,00,00,00,
15037933,0000076C,false,Rx,0,8,20,00,00,00,40,00,00,00,
15048037,0000076C,false,Rx,0,8,21,04,32,8F,BB,28,00,00,
15058156,0000076C,false,Rx,0,8,22,E0,DB,39,97,02,00,00,
15067932,0000076C,false,Rx,0,8,33,00,00,00,00,00,20,84,
15069928,000002C4,false,Rx,0,8,12,00,00,00,00,00,00,00,
15070183,00000204,false,Rx,0,8,01,00,00,00,00,00,00,00,
15070397,00000264,false,Rx,0,6,45,00,00,00,E0,01,00,00,
15070927,00000224,false,Rx,0,8,00,04,00,00,00,00,10,08,
15077933,0000076C,false,Rx,0,8,34,00,00,00,00,00,00,00,
15087933,0000076C,false,Rx,0,8,35,2A,00,00,00,00,00,00,
15098055,0000076C,false,Rx,0,8,64,00,00,41,70,4A,00,00,
15108156,0000076C,false,Rx,0,8,66,00,00,00,00,00,00,00,
15117930,0000076C,false,Rx,0,8,67,00,00,00,00,00,00,00,
15127929,0000076C,false,Rx,0,8,68,00,00,00,00,00,00,00,
15137919,0000076C,false,Rx,0,8,69,00,00,00,00,00,9D,FF,
15148044,0000076C,false,Rx,0,8,6A,00,00,00,00,00,00,00,
15158156,0000076C,false,Rx,0,8,6B,CD,06,00,00,00,00,00,
15167932,0000076C,false,Rx,0,8,6C,00,00,00,00,00,1C,00,
15169922,000002C4,false,Rx,0,8,13,00,00,00,00,00,00,00,
15170187,00000204,false,Rx,0,8,01,00,00,00,00,00,00,00,
15170401,00000264,false,Rx,0,6,45,00,00,00,E0,01,00,00,
15170920,00000224,false,Rx,0,8,00,04,00,00,00,00,10,08,
15177927,0000076C,false,Rx,0,8,6D,00,00,00,00,00,00,00,
15187926,0000076C,false,Rx,0,8,6E,00,00,00,00,00,00,00,
15198056,0000076C,false,Rx,0,8,6F,00,00,00,00,00,00,00,
15208159,0000076C,false,Rx,0,8,70,00,00,00,00,00,00,00,
15217914,0000076C,false,Rx,0,8,71,2C,30,00,2C,38,80,00,
15227912,0000076C,false,Rx,0,8,77,00,00,5F,80,0E,00,00,
15237915,0000076C,false,Rx,0,8,78,00,00,5E,80,0E,00,00,
15248040,0000076C,false,Rx,0,8,79,00,00,00,00,00,00,00,
15258150,0000076C,false,Rx,0,8,7A,01,09,00,00,00,00,00,
15267909,0000076C,false,Rx,0,8,01,10,10,15,20,17,24,00,
15269918,000002C4,false,Rx,0,8,14,00,00,00,00,00,00,00,
15270206,00000204,false,Rx,0,8,01,00,00,00,00,00,00,00,
15270411,00000264,false,Rx,0,6,45,00,00,00,E0,01,00,00,
15270665,00000224,false,Rx,0,8,00,04,00,00,00,00,10,08,
15277912,0000076C,false,Rx,0,8,02,02,03,02,02,00,01,00,
15287902,0000076C,false,Rx,0,8,03,60,60,4A,4A,66,68,00,
15298037,0000076C,false,Rx,0,8,04,0C,17,00,07,00,03,00,
15308129,0000076C,false,Rx,0,8,05,AC,84,36,36,DC,2E,00,
15317917,0000076C,false,Rx,0,8,0A,22,40,00,64,00,80,00,
15327905,0000076C,false,Rx,0,8,0B,11,00,D0,20,FF,0F,00,
15337919,0000076C,false,Rx,0,8,0C,00,00,00,40,20,40,00,
15348022,0000076C,false,Rx,0,8,0D,04,32,8F,BB,28,00,00,
15358136,0000076C,false,Rx,0,8,0E,E0,DB,39,97,02,00,00,
15367913,0000076C,false,Rx,0,8,14,22,40,00,64,00,80,00,
15369910,000002C4,false,Rx,0,8,55,00,02,08,00,C0,FE,00,
15370197,00000204,false,Rx,0,8,01,00,00,00,00,00,00,00,
15370411,00000264,false,Rx,0,6,45,00,00,00,E0,01,00,00,
15370665,00000224,false,Rx,0,8,00,04,00,00,00,00,10,08,
15371152,000003C4,false,Rx,0,8,1B,00,00,00,00,00,00,00,
15377912,0000076C,false,Rx,0,8,15,00,00,D0,20,00,00,00,
15387920,0000076C,false,Rx,0,8,16,00,00,00,40,00,00,00,
15398032,0000076C,false,Rx,0,8,17,04,32,8F,BB,28,00,00,
15408132,0000076C,false,Rx,0,8,18,E0,DB,39,97,02,00,00,
15417903,0000076C,false,Rx,0,8,9E,22,20,00,64,00,80,00,
15427913,0000076C,false,Rx,0,8,1F,03,00,D0,20,00,00,00,
15437913,0000076C,false,Rx,0,8,20,00,00,00,40,00,00,00,
15448017,0000076C,false,Rx,0,8,21,04,32,8F,BB,28,00,00,
15458137,0000076C,false,Rx,0,8,22,E0,DB,39,97,02,00,00,
15467908,0000076C,false,Rx,0,8,33,00,00,00,00,00,20,84,
15469895,000002C4,false,Rx,0,8,16,81,0B,00,00,00,00,00,
15470174,00000204,false,Rx,0,8,01,00,00,00,00,00,00,00,
15470398,00000264,false,Rx,0,6,46,00,00,00,E0,01,00,00,
15470652,00000224,false,Rx,0,8,00,04,00,00,00,00,10,08,
15472128,000002A4,false,Rx,0,8,25,D7,39,CF,87,BE,F5,FF,
15472280,00000364,false,Rx,0,2,00,78,00,00,00,00,00,00,
15472534,000003A4,false,Rx,0,8,01,00,00,00,00,00,00,00,
15477911,0000076C,false,Rx,0,8,34,00,00,00,00,00,00,00,
15487912,0000076C,false,Rx,0,8,35,2A,00,00,00,00,00,00,
15498025,0000076C,false,Rx,0,8,64,00,00,41,70,4A,0E,00,
15508137,0000076C,false,Rx,0,8,66,00,00,00,00,00,00,00,
15517902,0000076C,false,Rx,0,8,67,00,00,00,00,00,00,00,
15527913,0000076C,false,Rx,0,8,68,00,00,00,00,00,00,00,
15537904,0000076C,false,Rx,0,8,69,00,00,00,00,00,9D,FF,
15548028,0000076C,false,Rx,0,8,6A,00,00,00,00,00,00,00,
15558131,0000076C,false,Rx,0,8,6B,CD,06,00,00,00,00,00,
15567907,0000076C,false,Rx,0,8,6C,00,00,00,00,00,1C,00,
15569894,000002C4,false,Rx,0,8,00,40,00,D2,00,00,00,00,
15570170,00000204,false,Rx,0,8,01,00,00,00,00,00,00,00,
15570383,00000264,false,Rx,0,6,47,00,00,00,E0,01,00,00,
15570639,00000224,false,Rx,0,8,00,04,00,00,00,00,10,08,
15577903,0000076C,false,Rx,0,8,6D,00,00,00,00,00,00,00,
15587901,0000076C,false,Rx,0,8,6E,00,00,00,00,00,00,00,
15598034,0000076C,false,Rx,0,8,6F,00,00,00,00,00,00,00,
15608132,0000076C,false,Rx,0,8,70,00,00,00,00,00,00,00,
15617891,0000076C,false,Rx,0,8,71,2C,30,00,2C,38,80,00,
15627898,0000076C,false,Rx,0,8,77,00,00,5F,80,0E,00,00,
15637901,0000076C,false,Rx,0,8,78,00,00,5E,80,0E,00,00,
15648017,0000076C,false,Rx,0,8,79,00,00,00,00,00,00,00,
15658128,0000076C,false,Rx,0,8,7A,01,09,00,00,00,00,00,
15667893,0000076C,false,Rx,0,8,01,10,10,15,20,17,24,00,
15669891,000002C4,false,Rx,0,8,01,00,00,D2,00,00,00,00,
15670167,00000204,false,Rx,0,8,01,00,00,00,00,00,00,00,
15670386,00000264,false,Rx,0,6,46,00,00,00,E0,01,00,00,
15670631,00000224,false,Rx,0,8,00,04,00,00,00,00,10,08,
15677888,0000076C,false,Rx,0,8,02,02,03,02,02,01,01,00,
15687887,0000076C,false,Rx,0,8,03,60,60,4A,4A,66,68,00,
15698020,0000076C,false,Rx,0,8,04,0C,17,00,07,00,03,00,
15708112,0000076C,false,Rx,0,8,05,AD,84,36,37,D4,2E,00,
15717891,0000076C,false,Rx,0,8,8A,23,40,00,64,00,80,00,
15727891,0000076C,false,Rx,0,8,0B,11,00,D0,20,FF,0F,00,
15737891,0000076C,false,Rx,0,8,0C,00,00,00,40,20,40,00,
15747997,0000076C,false,Rx,0,8,0D,04,32,8F,BB,28,00,00,
15758119,0000076C,false,Rx,0,8,0E,E0,DB,39,97,02,00,00,
15767885,0000076C,false,Rx,0,8,14,22,40,00,64,00,80,00,
15769880,000002C4,false,Rx,0,8,02,00,00,D2,00,00,00,00,
15770156,00000204,false,Rx,0,8,01,00,00,00,00,00,00,00,
15770371,00000264,false,Rx,0,6,47,00,00,00,E0,01,00,00,
15770625,00000224,false,Rx,0,8,00,04,00,00,00,00,10,08,
15777888,0000076C,false,Rx,0,8,15,00,00,D0,20,00,00,00,
15787896,0000076C,false,Rx,0,8,16,00,00,00,40,00,00,00,
15798012,0000076C,false,Rx,0,8,17,04,32,8F,BB,28,00,00,
15808112,0000076C,false,Rx,0,8,18,E0,DB,39,97,02,00,00,
15817889,0000076C,false,Rx,0,8,9E,22,40,00,64,00,80,00,
15827892,0000076C,false,Rx,0,8,1F,02,00,D0,20,00,00,00,
15837892,0000076C,false,Rx,0,8,20,00,00,00,40,00,00,00,
15847997,0000076C,false,Rx,0,8,21,04,32,8F,BB,28,00,00,
15858108,0000076C,false,Rx,0,8,22,DF,DB,39,97,02,00,00,
15867883,0000076C,false,Rx,0,8,33,00,00,00,00,00,20,84,
15869870,000002C4,false,Rx,0,8,83,01,16,80,01,00,C0,00,
15870135,00000204,false,Rx,0,8,01,00,00,00,00,00,00,00,
15870351,00000264,false,Rx,0,6,47,00,00,00,E0,01,00,00,
15870601,00000224,false,Rx,0,8,00,04,00,00,00,00,10,08,
15871072,000003C4,false,Rx,0,8,1D,41,4E,4E,31,38,32,39,
15877892,0000076C,false,Rx,0,8,34,00,00,00,00,00,00,00,
15887890,0000076C,false,Rx,0,8,35,2A,00,00,00,00,00,00,
15898005,0000076C,false,Rx,0,8,64,00,00,41,70,4A,00,00,
15907636,0000076C,false,Rx,0,8,66,00,00,00,00,00,00,00,
15917887,0000076C,false,Rx,0,8,67,00,00,00,00,00,00,00,
15927885,0000076C,false,Rx,0,8,68,00,00,00,00,00,00,00,
15937878,0000076C,false,Rx,0,8,69,00,00,00,00,00,9D,FF,
15948000,0000076C,false,Rx,0,8,6A,00,00,00,00,00,00,00,
15957620,0000076C,false,Rx,0,8,6B,CD,06,00,00,00,00,00,
15967889,0000076C,false,Rx,0,8,6C,00,00,00,00,00,1C,00,
15969872,000002C4,false,Rx,0,8,04,00,00,00,00,00,41,00,
15970139,00000204,false,Rx,0,8,01,00,00,00,00,00,00,00,
15970353,00000264,false,Rx,0,6,47,00,00,00,E0,01,00,00,
15970607,00000224,false,Rx,0,8,00,04,00,00,00,00,10,08,
15975610,00000424,false,Rx,0,8,1F,80,01,00,00,00,00,00,
15977885,0000076C,false,Rx,0,8,6D,00,00,00,00,00,00,00,
15987876,0000076C,false,Rx,0,8,6E,00,00,00,00,00,00,00,
15998007,0000076C,false,Rx,0,8,6F,00,00,00,00,00,00,00,
16007625,0000076C,false,Rx,0,8,70,00,00,00,00,00,00,00,
16017861,0000076C,false,Rx,0,8,71,2C,30,00,2C,38,80,00,
16027868,0000076C,false,Rx,0,8,77,00,00,5F,80,0E,00,00,
16037635,0000076C,false,Rx,0,8,78,00,00,5E,80,0E,00,00,
16047991,0000076C,false,Rx,0,8,79,00,00,00,00,00,00,00,
16057612,0000076C,false,Rx,0,8,7A,01,09,00,00,00,00,00,
16067867,0000076C,false,Rx,0,8,01,10,10,16,20,17,24,00,
16069865,000002C4,false,Rx,0,8,25,22,00,00,00,00,00,20,
16070131,00000204,false,Rx,0,8,01,00,00,00,00,00,00,00,
16070345,00000264,false,Rx,0,6,47,00,00,00,E0,01,00,00,
16070607,00000224,false,Rx,0,8,00,04,00,00,00,00,10,08,
16077628,0000076C,false,Rx,0,8,02,02,03,02,02,00,01,00,
16087618,0000076C,false,Rx,0,8,03,60,60,4A,4A,66,68,00,
16097996,0000076C,false,Rx,0,8,04,0C,17,00,07,00,03,00,
16107597,0000076C,false,Rx,0,8,05,AD,84,36,38,DC,2E,00,
16117628,0000076C,false,Rx,0,8,8A,22,40,00,64,00,80,00,
16127617,0000076C,false,Rx,0,8,0B,11,00,D0,20,FF,0F,00,
16137621,0000076C,false,Rx,0,8,0C,00,00,00,30,20,40,00,
16147978,0000076C,false,Rx,0,8,0D,04,32,8F,BB,28,00,00,
16157597,0000076C,false,Rx,0,8,0E,E0,DB,39,97,02,00,00,
16167621,0000076C,false,Rx,0,8,14,23,40,00,64,00,80,00,
16169850,000002C4,false,Rx,0,8,46,25,41,00,00,00,C0,58,
16170116,00000204,false,Rx,0,8,01,00,00,00,00,00,00,00,
16170330,00000264,false,Rx,0,6,46,00,00,00,E0,01,00,00,
16170595,00000224,false,Rx,0,8,00,04,00,00,00,00,10,08,
16177614,0000076C,false,Rx,0,8,15,00,00,D0,20,00,00,00,
16187622,0000076C,false,Rx,0,8,16,00,00,00,40,00,00,00,
16197986,0000076C,false,Rx,0,8,17,04,32,8F,BB,28,00,00,
16207591,0000076C,false,Rx,0,8,18,E0,DB,39,97,02,00,00,
16217608,0000076C,false,Rx,0,8,1E,23,40,00,64,00,80,00,
16227608,0000076C,false,Rx,0,8,1F,01,00,D0,20,00,00,00,
16237618,0000076C,false,Rx,0,8,20,00,00,00,40,00,00,00,
16247977,0000076C,false,Rx,0,8,21,04,32,8F,BB,28,00,00,
16257578,0000076C,false,Rx,0,8,22,DF,DB,39,97,02,00,00,
16267619,0000076C,false,Rx,0,8,33,00,00,00,00,00,20,84,
16269864,000002C4,false,Rx,0,8,07,00,00,00,00,00,00,00,
16270119,00000204,false,Rx,0,8,01,00,00,00,00,00,00,00,
16270334,00000264,false,Rx,0,6,48,00,00,00,E0,01,00,00,
16270598,00000224,false,Rx,0,8,00,04,00,00,00,00,10,08,
16277604,0000076C,false,Rx,0,8,34,00,00,00,00,00,00,00,
16287604,0000076C,false,Rx,0,8,35,2A,00,00,00,00,00,00,
16297982,0000076C,false,Rx,0,8,64,00,00,41,70,4A,00,00,
16307585,0000076C,false,Rx,0,8,66,00,00,00,00,00,00,00,
16317598,0000076C,false,Rx,0,8,67,00,00,00,00,00,00,00,
16327611,0000076C,false,Rx,0,8,68,00,00,00,00,00,00,00,
16337592,0000076C,false,Rx,0,8,69,00,00,00,00,00,9D,FF,
16347982,0000076C,false,Rx,0,8,6A,00,00,00,00,00,00,00,
16357576,0000076C,false,Rx,0,8,6B,CD,06,00,00,00,00,00,
16367595,0000076C,false,Rx,0,8,6C,00,00,00,00,00,1C,00,
16369851,000002C4,false,Rx,0,8,08,00,00,00,1C,00,00,00,
16370117,00000204,false,Rx,0,8,01,00,00,00,00,00,00,00,
16370331,00000264,false,Rx,0,6,47,00,00,00,E0,01,00,00,
16370585,00000224,false,Rx,0,8,00,04,00,00,00,00,10,08,
16371056,000003C4,false,Rx,0,8,1E,30,30,30,30,30,51,5A,
16377595,0000076C,false,Rx,0,8,6D,00,00,00,00,00,00,00,
16387582,0000076C,false,Rx,0,8,6E,00,00,00,00,00,00,00,
16397989,0000076C,false,Rx,0,8,6F,00,00,00,00,00,00,00,
16407580,0000076C,false,Rx,0,8,70,00,00,00,00,00,00,00,
16417575,0000076C,false,Rx,0,8,71,2C,30,00,2C,38,80,00,
16427583,0000076C,false,Rx,0,8,77,00,00,5F,80,0E,00,00,
16437573,0000076C,false,Rx,0,8,78,00,00,5E,80,0E,00,00,
16447973,0000076C,false,Rx,0,8,79,00,00,00,00,00,00,00,
16457565,0000076C,false,Rx,0,8,7A,01,09,00,00,00,00,00,
16467844,0000076C,false,Rx,0,8,01,10,10,17,20,16,24,00,
16469831,000002C4,false,Rx,0,8,49,DC,E5,2E,B0,84,25,03,
16470098,00000204,false,Rx,0,8,01,00,00,00,00,00,00,00,
16470322,00000264,false,Rx,0,6,45,00,00,00,E0,01,00,00,
16470576,00000224,false,Rx,0,8,00,04,00,00,00,00,10,08,
16471559,000002A4,false,Rx,0,8,24,DF,39,CF,87,BE,F5,FF,
16471926,00000364,false,Rx,0,2,00,78,00,00,00,00,00,00,
16472425,000003A4,false,Rx,0,8,00,00,00,0C,04,00,00,00,
16477581,0000076C,false,Rx,0,8,02,02,03,02,02,01,01,00,
16487560,0000076C,false,Rx,0,8,03,5F,60,4A,4A,66,68,00,
16497973,0000076C,false,Rx,0,8,04,0C,17,00,07,00,03,00,
16507542,0000076C,false,Rx,0,8,05,AD,7C,36,36,DC,2E,00,
16517564,0000076C,false,Rx,0,8,8A,22,40,00,64,00,80,00,
16527564,0000076C,false,Rx,0,8,0B,11,00,D0,20,FF,0F,00,
16537569,0000076C,false,Rx,0,8,0C,00,00,00,40,20,40,00,
16547954,0000076C,false,Rx,0,8,0D,04,32,8F,BB,28,00,00,
16557542,0000076C,false,Rx,0,8,0E,E0,DB,39,97,02,00,00,
16567563,0000076C,false,Rx,0,8,94,22,40,00,64,00,80,00,
16569846,000002C4,false,Rx,0,8,0A,00,00,00,00,08,00,00,
16570114,00000204,false,Rx,0,8,01,00,00,00,00,00,00,00,
16570328,00000264,false,Rx,0,6,45,00,00,00,E0,01,00,00,
16570583,00000224,false,Rx,0,8,00,04,00,00,00,00,10,08,
16577567,0000076C,false,Rx,0,8,15,00,00,D0,20,00,00,00,
16587567,0000076C,false,Rx,0,8,16,00,00,00,40,00,00,00,
16597963,0000076C,false,Rx,0,8,17,04,32,8F,BB,28,00,00,
16607545,0000076C,false,Rx,0,8,18,DF,DB,39,97,02,00,00,
16617556,0000076C,false,Rx,0,8,9E,22,40,00,64,00,80,00,
16627555,0000076C,false,Rx,0,8,1F,03,00,D0,20,00,00,00,
16637555,0000076C,false,Rx,0,8,20,00,00,00,40,00,40,00,
16647952,0000076C,false,Rx,0,8,21,04,32,8F,BB,28,00,00,
16657536,0000076C,false,Rx,0,8,22,E0,DB,39,97,02,00,00,
16667557,0000076C,false,Rx,0,8,33,00,00,00,00,00,20,84,
16669841,000002C4,false,Rx,0,8,0B,00,00,00,0E,08,00,00,
16670096,00000204,false,Rx,0,8,01,00,00,00,00,00,00,00,
16670310,00000264,false,Rx,0,6,45,00,00,00,E0,01,00,00,
16670576,00000224,false,Rx,0,8,00,04,00,00,00,00,10,08,
16677551,0000076C,false,Rx,0,8,34,00,00,00,00,00,00,00,
16687551,0000076C,false,Rx,0,8,35,2A,00,00,00,00,00,00,
16697968,0000076C,false,Rx,0,8,64,00,00,41,70,4A,00,00,
16707539,0000076C,false,Rx,0,8,66,00,00,00,00,00,00,00,
16717545,0000076C,false,Rx,0,8,67,00,00,00,00,00,00,00,
16727539,0000076C,false,Rx,0,8,68,00,00,00,00,00,00,00,
16737541,0000076C,false,Rx,0,8,69,00,00,00,00,00,9D,FF,
16747955,0000076C,false,Rx,0,8,6A,00,00,00,00,00,00,00,
16757531,0000076C,false,Rx,0,8,6B,CD,06,00,00,00,00,00,
16767542,0000076C,false,Rx,0,8,6C,00,00,00,00,00,1C,00,
16769835,000002C4,false,Rx,0,8,0C,00,00,80,FF,07,00,00,
16770093,00000204,false,Rx,0,8,01,00,00,00,00,00,00,00,
16770308,00000264,false,Rx,0,6,46,00,00,00,E0,01,00,00,
16770562,00000224,false,Rx,0,8,00,04,00,00,00,00,10,08,
16777536,0000076C,false,Rx,0,8,6D,00,00,00,00,00,00,00,
16787545,0000076C,false,Rx,0,8,6E,00,00,00,00,00,00,00,
16797964,0000076C,false,Rx,0,8,6F,00,00,00,00,00,00,00,
16807523,0000076C,false,Rx,0,8,70,00,00,00,00,00,00,00,
16817523,0000076C,false,Rx,0,8,71,2C,30,00,2C,38,80,00,
16827533,0000076C,false,Rx,0,8,77,00,00,5F,80,0E,00,00,
16837533,0000076C,false,Rx,0,8,78,00,00,5E,80,0E,00,00,
16847952,0000076C,false,Rx,0,8,79,00,00,00,00,00,00,00,
16857516,0000076C,false,Rx,0,8,7A,01,09,00,00,00,00,00,
16867822,0000076C,false,Rx,0,8,01,10,10,15,20,16,24,00,
16869827,000002C4,false,Rx,0,8,0D,00,00,00,00,00,00,00,
16870094,00000204,false,Rx,0,8,01,00,00,00,00,00,00,00,
16870308,00000264,false,Rx,0,6,46,00,00,00,E0,01,00,00,
16870561,00000224,false,Rx,0,8,00,04,00,00,00,00,10,08,
16877529,0000076C,false,Rx,0,8,02,02,03,04,04,00,01,00,
16887520,0000076C,false,Rx,0,8,03,60,60,4A,4A,65,68,00,
16897947,0000076C,false,Rx,0,8,04,0C,17,00,07,00,03,00,
16907506,0000076C,false,Rx,0,8,05,AD,8C,36,38,DC,2E,00,
16917526,0000076C,false,Rx,0,8,0A,23,40,00,64,00,80,00,
16927519,0000076C,false,Rx,0,8,0B,12,00,D0,20,FF,0F,00,
16937527,0000076C,false,Rx,0,8,0C,00,00,00,40,20,40,00,
16947933,0000076C,false,Rx,0,8,0D,04,32,8F,BB,28,00,00,
16957499,0000076C,false,Rx,0,8,0E,E0,DB,39,97,02,00,00,
16967520,0000076C,false,Rx,0,8,14,22,40,00,64,00,80,00,
16969823,000002C4,false,Rx,0,8,12,00,00,00,00,00,00,00,
16970090,00000204,false,Rx,0,8,01,00,00,00,00,00,00,00,
16970298,00000264,false,Rx,0,6,45,00,00,00,E0,01,00,00,
16970552,00000224,false,Rx,0,8,00,04,00,00,00,00,10,08,
16977513,0000076C,false,Rx,0,8,15,00,00,D0,20,00,00,00,
16987512,0000076C,false,Rx,0,8,16,00,00,00,30,00,00,00,
16997948,0000076C,false,Rx,0,8,17,04,32,8F,BB,28,00,00,
17007499,0000076C,false,Rx,0,8,18,DF,DB,39,97,02,00,00,
17017510,0000076C,false,Rx,0,8,9E,22,40,00,64,00,80,00,
17027509,0000076C,false,Rx,0,8,1F,02,00,D0,20,00,00,00,
17037515,0000076C,false,Rx,0,8,20,00,00,00,40,00,40,00,
17047932,0000076C,false,Rx,0,8,21,04,32,8F,BB,28,00,00,
17057486,0000076C,false,Rx,0,8,22,E0,DB,39,97,02,00,00,
17067516,0000076C,false,Rx,0,8,33,00,00,00,00,00,20,84,
17069817,000002C4,false,Rx,0,8,13,00,00,00,00,00,00,00,
17070083,00000204,false,Rx,0,8,01,00,00,00,00,00,00,00,
17070307,00000264,false,Rx,0,6,46,00,00,00,E0,01,00,00,
17070816,00000224,false,Rx,0,8,00,04,00,00,00,00,10,08,
17077501,0000076C,false,Rx,0,8,34,00,00,00,00,00,00,00,
17087512,0000076C,false,Rx,0,8,35,2A,00,00,00,00,00,00,
17097947,0000076C,false,Rx,0,8,64,00,00,41,70,4A,00,00,
17107485,0000076C,false,Rx,0,8,66,00,00,00,00,00,00,00,
17117496,0000076C,false,Rx,0,8,67,00,00,00,00,00,00,00,
17127506,0000076C,false,Rx,0,8,68,00,00,00,00,00,00,00,
17137494,0000076C,false,Rx,0,8,69,00,00,00,00,00,9D,FF,
17147933,0000076C,false,Rx,0,8,6A,00,00,00,00,00,00,00,
17157475,0000076C,false,Rx,0,8,6B,CD,06,00,00,00,00,00,
17167496,0000076C,false,Rx,0,8,6C,00,00,00,00,00,1C,00,
17169810,000002C4,false,Rx,0,8,14,00,00,00,00,00,00,00,
17170076,00000204,false,Rx,0,8,01,00,00,00,00,00,00,00,
17170294,00000264,false,Rx,0,6,45,00,00,00,E0,01,00,00,
17170804,00000224,false,Rx,0,8,00,04,00,00,00,00,10,08,
17177491,0000076C,false,Rx,0,8,6D,00,00,00,00,00,00,00,
17187489,0000076C,false,Rx,0,8,6E,00,00,00,00,00,00,00,
17197943,0000076C,false,Rx,0,8,6F,00,00,00,00,00,00,00,
17207487,0000076C,false,Rx,0,8,70,00,00,00,00,00,00,00,
17217474,0000076C,false,Rx,0,8,71,2C,30,00,2C,38,80,00,
17227484,0000076C,false,Rx,0,8,77,00,00,5F,80,0E,00,00,
17237486,0000076C,false,Rx,0,8,78,00,00,5E,80,0E,00,00,
17247926,0000076C,false,Rx,0,8,79,00,00,00,00,00,00,00,
17257477,0000076C,false,Rx,0,8,7A,01,09,00,00,00,00,00,
17267804,0000076C,false,Rx,0,8,01,10,10,16,20,17,24,00,
17269798,000002C4,false,Rx,0,8,55,00,02,08,00,C0,FE,00,
17270064,00000204,false,Rx,0,8,01,00,00,00,00,00,00,00,
17270279,00000264,false,Rx,0,6,46,00,00,00,E0,01,00,00,
17270563,00000224,false,Rx,0,8,00,04,00,00,00,00,10,08,
17277483,0000076C,false,Rx,0,8,02,02,03,02,04,00,01,00,
17287465,0000076C,false,Rx,0,8,03,60,60,4A,4A,66,68,00,
17297932,0000076C,false,Rx,0,8,04,0C,17,00,07,00,03,00,
17307449,0000076C,false,Rx,0,8,05,AE,8C,36,38,DC,2E,00,
17317481,0000076C,false,Rx,0,8,0A,23,40,00,64,00,80,00,
17327461,0000076C,false,Rx,0,8,0B,11,00,D0,20,FF,0F,00,
17337473,0000076C,false,Rx,0,8,0C,00,00,00,40,20,40,00,
17347910,0000076C,false,Rx,0,8,0D,04,32,8F,BB,28,00,00,
17357452,0000076C,false,Rx,0,8,0E,DF,DB,39,97,02,00,00,
17367472,0000076C,false,Rx,0,8,14,23,40,00,64,00,80,00,
17369795,000002C4,false,Rx,0,8,16,81,0B,00,00,00,00,00,
17370062,00000204,false,Rx,0,8,01,00,00,00,00,00,00,00,
17370276,00000264,false,Rx,0,6,47,00,00,00,E0,01,00,00,
17370556,00000224,false,Rx,0,8,00,04,00,00,00,00,10,08,
17377466,0000076C,false,Rx,0,8,15,00,00,D0,20,00,00,00,
17387474,0000076C,false,Rx,0,8,16,00,00,00,40,00,00,00,
17397924,0000076C,false,Rx,0,8,17,04,32,8F,BB,28,00,00,
17407444,0000076C,false,Rx,0,8,18,E2,DB,38,97,02,00,00,
17417460,0000076C,false,Rx,0,8,9E,23,40,00,64,00,80,00,
17427468,0000076C,false,Rx,0,8,1F,02,00,D0,20,00,00,00,
17437471,0000076C,false,Rx,0,8,20,00,00,00,30,00,00,00,
17447908,0000076C,false,Rx,0,8,21,04,32,8F,BB,28,00,00,
17457439,0000076C,false,Rx,0,8,22,E0,DB,39,97,02,00,00,
17467461,0000076C,false,Rx,0,8,33,00,00,00,00,00,20,84,
17469791,000002C4,false,Rx,0,8,00,40,00,D2,00,00,00,00,
17470057,00000204,false,Rx,0,8,01,00,00,00,00,00,00,00,
17470352,00000264,false,Rx,0,6,46,00,00,00,E0,01,00,00,
17470841,00000224,false,Rx,0,8,00,04,00,00,00,00,10,08,
17471448,000002A4,false,Rx,0,8,25,DF,39,CF,87,BE,F5,FF,
17471816,00000364,false,Rx,0,2,00,78,00,00,00,00,00,00,
17472315,000003A4,false,Rx,0,8,01,00,00,00,00,00,00,00,
17477461,0000076C,false,Rx,0,8,34,00,00,00,00,00,00,00,
17487461,0000076C,false,Rx,0,8,35,2A,00,00,00,00,00,00,
17497917,0000076C,false,Rx,0,8,64,00,00,41,70,4A,00,00,
17507443,0000076C,false,Rx,0,8,66,00,00,00,00,00,00,00,
17517454,0000076C,false,Rx,0,8,67,00,00,00,00,00,00,00,
17527453,0000076C,false,Rx,0,8,68,00,00,00,00,00,00,00,
17537443,0000076C,false,Rx,0,8,69,00,00,00,00,00,9D,FF,
17547921,0000076C,false,Rx,0,8,6A,00,00,00,00,00,00,00,
17557434,0000076C,false,Rx,0,8,6B,CD,06,00,00,00,00,00,
17567454,0000076C,false,Rx,0,8,6C,00,00,00,00,00,1C,00,
17569787,000002C4,false,Rx,0,8,01,00,00,D2,00,00,00,00,
17570052,00000204,false,Rx,0,8,01,00,00,00,00,00,00,00,
17570357,00000264,false,Rx,0,6,45,00,00,00,E0,01,00,00,
17570843,00000224,false,Rx,0,8,00,04,00,00,00,00,10,08,
17577448,0000076C,false,Rx,0,8,6D,00,00,00,00,00,00,00,
17587437,0000076C,false,Rx,0,8,6E,00,00,00,00,00,00,00,
17597924,0000076C,false,Rx,0,8,6F,00,00,00,00,00,00,00,
17607436,0000076C,false,Rx,0,8,70,00,00,00,00,00,00,00,
17617428,0000076C,false,Rx,0,8,71,2C,30,00,2C,38,80,00,
17627437,0000076C,false,Rx,0,8,77,00,00,5F,80,0E,00,00,
17637437,0000076C,false,Rx,0,8,78,00,00,5E,80,0E,00,00,
17647904,0000076C,false,Rx,0,8,79,00,00,00,00,00,00,00,
17657422,0000076C,false,Rx,0,8,7A,01,09,00,00,00,00,00,
17667503,0000076C,false,Rx,0,8,01,10,10,15,20,17,24,00,
17669540,000002C4,false,Rx,0,8,02,00,00,D2,00,00,00,00,
17670033,00000204,false,Rx,0,8,01,00,00,00,00,00,00,00,
17670247,00000264,false,Rx,0,6,46,00,00,00,E0,01,00,00,
17670523,00000224,false,Rx,0,8,00,04,00,00,00,00,10,08,
17677427,0000076C,false,Rx,0,8,02,02,03,02,04,01,01,00,
17687426,0000076C,false,Rx,0,8,03,60,60,4A,4A,63,68,00,
17697903,0000076C,false,Rx,0,8,04,0C,17,00,07,00,03,00,
17707405,0000076C,false,Rx,0,8,05,AC,8C,36,35,DC,2E,00,
17717418,0000076C,false,Rx,0,8,0A,22,40,00,64,00,80,00,
17727416,0000076C,false,Rx,0,8,0B,12,00,D0,20,FF,0F,00,
17737426,0000076C,false,Rx,0,8,0C,00,00,00,40,20,40,00,
17747891,0000076C,false,Rx,0,8,0D,04,32,8F,BB,28,00,00,
17757407,0000076C,false,Rx,0,8,0E,E0,DB,39,97,02,00,00,
17767426,0000076C,false,Rx,0,8,14,24,40,00,64,00,80,00,
17769525,000002C4,false,Rx,0,8,83,01,18,60,01,00,C0,00,
17770015,00000204,false,Rx,0,8,01,00,00,00,00,00,00,00,
17770311,00000264,false,Rx,0,6,47,00,00,00,E0,01,00,00,
17770805,00000224,false,Rx,0,8,00,04,00,00,00,00,10,08,
17777421,0000076C,false,Rx,0,8,15,00,00,D0,20,00,00,00,
17787420,0000076C,false,Rx,0,8,16,00,00,00,30,00,00,00,
17797896,0000076C,false,Rx,0,8,17,04,32,8F,BB,28,00,00,
17807400,0000076C,false,Rx,0,8,18,E0,DB,39,97,02,00,00,
17817422,0000076C,false,Rx,0,8,1E,22,40,00,64,00,80,00,
17827412,0000076C,false,Rx,0,8,1F,02,00,D0,20,00,00,00,
17837416,0000076C,false,Rx,0,8,20,00,00,00,40,00,00,00,
17847883,0000076C,false,Rx,0,8,21,04,32,8F,BB,28,00,00,
17857391,0000076C,false,Rx,0,8,22,E0,DB,39,97,02,00,00,
17867420,0000076C,false,Rx,0,8,33,00,00,00,00,00,20,84,
17869521,000002C4,false,Rx,0,8,04,00,00,00,00,00,41,00,
17870015,00000204,false,Rx,0,8,01,00,00,00,00,00,00,00,
17870319,00000264,false,Rx,0,6,46,00,00,00,E0,01,00,00,
17870799,00000224,false,Rx,0,8,00,04,00,00,00,00,10,08,
17877406,0000076C,false,Rx,0,8,34,00,00,00,00,00,00,00,
17887414,0000076C,false,Rx,0,8,35,2A,00,00,00,00,00,00,
17897901,0000076C,false,Rx,0,8,64,00,00,40,70,4A,00,00,
17907402,0000076C,false,Rx,0,8,66,00,00,00,00,00,00,00,
17917415,0000076C,false,Rx,0,8,67,00,00,00,00,00,00,00,
17927405,0000076C,false,Rx,0,8,68,00,00,00,00,00,00,00,
17937406,0000076C,false,Rx,0,8,69,00,00,00,00,00,9D,FF,
17947895,0000076C,false,Rx,0,8,6A,00,00,00,00,00,00,00,
17957387,0000076C,false,Rx,0,8,6B,CD,06,00,00,00,00,00,
17967408,0000076C,false,Rx,0,8,6C,00,00,00,00,00,1C,00,
17969497,000002C4,false,Rx,0,8,25,22,00,00,00,00,00,20,
17969998,00000204,false,Rx,0,8,01,00,00,00,00,00,00,00,
17970212,00000264,false,Rx,0,6,47,00,00,00,E0,01,00,00,
17970476,00000224,false,Rx,0,8,00,04,00,00,00,00,10,08,
17977401,0000076C,false,Rx,0,8,6D,00,00,00,00,00,00,00,
17987411,0000076C,false,Rx,0,8,6E,00,00,00,00,00,00,00,
17997898,0000076C,false,Rx,0,8,6F,00,00,00,00,00,00,00,
18007380,0000076C,false,Rx,0,8,70,00,00,00,00,00,00,00,
18017402,0000076C,false,Rx,0,8,71,2C,30,00,2C,38,80,00,
18027397,0000076C,false,Rx,0,8,77,00,00,5F,80,0E,00,00,
18037404,0000076C,false,Rx,0,8,78,00,00,5E,80,0E,00,00,
18047882,0000076C,false,Rx,0,8,79,00,00,00,00,00,00,00,
18057377,0000076C,false,Rx,0,8,7A,01,09,00,00,00,00,00,
18067468,0000076C,false,Rx,0,8,01,10,10,17,20,17,24,00,
18069486,000002C4,false,Rx,0,8,46,25,41,00,00,00,C0,58,
18069980,00000204,false,Rx,0,8,01,00,00,00,00,00,00,00,
18070194,00000264,false,Rx,0,6,46,00,00,00,E0,01,00,00,
18070469,00000224,false,Rx,0,8,00,04,00,00,00,00,10,08,
18077392,0000076C,false,Rx,0,8,02,02,03,02,04,00,01,00,
18087391,0000076C,false,Rx,0,8,03,60,60,4A,4A,65,68,00,
18097888,0000076C,false,Rx,0,8,04,0C,17,00,07,00,03,00,
18107370,0000076C,false,Rx,0,8,05,AD,8C,36,37,E4,2E,00,
18117400,0000076C,false,Rx,0,8,0A,23,40,00,64,00,80,00,
18127380,0000076C,false,Rx,0,8,0B,12,00,D0,20,FF,0F,00,
18137404,0000076C,false,Rx,0,8,0C,00,00,00,40,20,40,00,
18147870,0000076C,false,Rx,0,8,0D,04,32,8F,BB,28,00,00,
18157363,0000076C,false,Rx,0,8,0E,E0,DB,39,97,02,00,00,
18167392,0000076C,false,Rx,0,8,94,21,40,00,64,00,80,00,
18169491,000002C4,false,Rx,0,8,07,00,00,00,00,00,00,00,
18169982,00000204,false,Rx,0,8,01,00,00,00,00,00,00,00,
18170277,00000264,false,Rx,0,6,46,00,00,00,E0,01,00,00,
18170766,00000224,false,Rx,0,8,00,04,00,00,00,00,10,08,
18177388,0000076C,false,Rx,0,8,15,00,00,D0,20,00,00,00,
18187399,0000076C,false,Rx,0,8,16,00,00,00,40,00,00,00,
18197874,0000076C,false,Rx,0,8,17,04,32,8F,BB,28,00,00,
18207351,0000076C,false,Rx,0,8,18,E2,DB,38,97,02,00,00,
18217394,0000076C,false,Rx,0,8,9E,22,40,00,64,00,80,00,
18227388,0000076C,false,Rx,0,8,1F,02,00,D0,20,00,00,00,
18237396,0000076C,false,Rx,0,8,20,00,00,00,40,00,00,00,
18247863,0000076C,false,Rx,0,8,21,04,32,8F,BB,28,00,00,
18257339,0000076C,false,Rx,0,8,22,E0,DB,39,97,02,00,00,
18267389,0000076C,false,Rx,0,8,33,00,00,00,00,00,20,84,
18269468,000002C4,false,Rx,0,8,08,00,00,00,1C,00,00,00,
18269968,00000204,false,Rx,0,8,01,00,00,00,00,00,00,00,
18270268,00000264,false,Rx,0,6,46,00,00,00,E0,01,00,00,
18270756,00000224,false,Rx,0,8,00,04,00,00,00,00,10,08,
18277383,0000076C,false,Rx,0,8,34,00,00,00,00,00,00,00,
18287391,0000076C,false,Rx,0,8,35,2A,00,00,00,00,00,00,
18297879,0000076C,false,Rx,0,8,64,00,00,41,70,4A,0E,00,
18307348,0000076C,false,Rx,0,8,66,00,00,00,00,00,00,00,
18317394,0000076C,false,Rx,0,8,67,00,00,00,00,00,00,00,
18327383,0000076C,false,Rx,0,8,68,00,00,00,00,00,00,00,
18337385,0000076C,false,Rx,0,8,69,00,00,00,00,00,9D,FF,
18347873,0000076C,false,Rx,0,8,6A,00,00,00,00,00,00,00,
18357345,0000076C,false,Rx,0,8,6B,CD,06,00,00,00,00,00,
18367387,0000076C,false,Rx,0,8,6C,00,00,00,00,00,1C,00,
18369444,000002C4,false,Rx,0,8,49,DC,E5,2E,B0,84,25,04,
18369933,00000204,false,Rx,0,8,01,00,00,00,00,00,00,00,
18370149,00000264,false,Rx,0,6,46,00,00,00,E0,01,00,00,
18370433,00000224,false,Rx,0,8,00,04,00,00,00,00,10,08,
18377372,0000076C,false,Rx,0,8,6D,00,00,00,00,00,00,00,
18387391,0000076C,false,Rx,0,8,6E,00,00,00,00,00,00,00,
18397879,0000076C,false,Rx,0,8,6F,00,00,00,00,00,00,00,
18407347,0000076C,false,Rx,0,8,70,00,00,00,00,00,00,00,
18417372,0000076C,false,Rx,0,8,71,2C,30,00,2C,38,80,00,
18427372,0000076C,false,Rx,0,8,77,00,00,5F,80,0E,00,00,
18437381,0000076C,false,Rx,0,8,78,00,00,5E,80,0E,00,00,
18447861,0000076C,false,Rx,0,8,79,00,00,00,00,00,00,00,
18457331,0000076C,false,Rx,0,8,7A,01,09,00,00,00,00,00,
18467421,0000076C,false,Rx,0,8,01,0D,10,16,20,17,24,00,
18469450,000002C4,false,Rx,0,8,0A,00,00,00,00,08,00,00,
18469939,00000204,false,Rx,0,8,01,00,00,00,00,00,00,00,
18470240,00000264,false,Rx,0,6,45,00,00,00,E0,01,00,00,
18470494,00000224,false,Rx,0,8,00,04,00,00,00,00,10,08,
18471328,000002A4,false,Rx,0,8,25,DF,79,CF,87,AE,F5,FF,
18471930,00000364,false,Rx,0,2,00,78,00,00,00,00,00,00,
18472194,000003A4,false,Rx,0,8,00,00,00,0C,04,00,00,00,
18477365,0000076C,false,Rx,0,8,02,02,03,02,04,01,01,00,
18487372,0000076C,false,Rx,0,8,03,60,60,4A,4A,65,68,00,
18497861,0000076C,false,Rx,0,8,04,0C,17,00,07,00,03,00,
18507312,0000076C,false,Rx,0,8,05,AD,84,36,38,E4,2E,00,
18517383,0000076C,false,Rx,0,8,0A,23,40,00,64,00,80,00,
18527363,0000076C,false,Rx,0,8,0B,12,00,D0,20,FF,0F,00,
18537374,0000076C,false,Rx,0,8,0C,00,00,00,40,20,40,00,
18547853,0000076C,false,Rx,0,8,0D,04,32,8F,BB,28,00,00,
18557303,0000076C,false,Rx,0,8,0E,E2,DB,37,97,02,00,00,
18567376,0000076C,false,Rx,0,8,14,23,40,00,64,00,80,00,
18569430,000002C4,false,Rx,0,8,0B,00,00,00,0E,08,00,00,
18569930,00000204,false,Rx,0,8,01,00,00,00,00,00,00,00,
18570216,00000264,false,Rx,0,6,47,00,00,00,E0,01,00,00,
18570481,00000224,false,Rx,0,8,00,04,00,00,00,00,10,08,
18577369,0000076C,false,Rx,0,8,15,00,00,D0,20,00,00,00,
18587382,0000076C,false,Rx,0,8,16,00,00,00,40,00,00,00,
18597857,0000076C,false,Rx,0,8,17,04,32,8F,BB,28,00,00,
18607305,0000076C,false,Rx,0,8,18,E0,DB,39,97,02,00,00,
18617372,0000076C,false,Rx,0,8,1E,23,40,00,64,00,80,00,
18627361,0000076C,false,Rx,0,8,1F,02,00,D0,20,00,00,00,
18637373,0000076C,false,Rx,0,8,20,00,00,00,40,00,40,00,
18647839,0000076C,false,Rx,0,8,21,04,32,8F,BB,28,00,00,
18657301,0000076C,false,Rx,0,8,22,E0,DB,39,97,02,00,00,
18667371,0000076C,false,Rx,0,8,33,00,00,00,00,00,20,84,
18669428,000002C4,false,Rx,0,8,0C,00,00,80,FF,07,00,00,
18669918,00000204,false,Rx,0,8,01,00,00,00,00,00,00,00,
18670214,00000264,false,Rx,0,6,46,00,00,00,E0,01,00,00,
18670475,00000224,false,Rx,0,8,00,04,00,00,00,00,10,08,
18677363,0000076C,false,Rx,0,8,34,00,00,00,00,00,00,00,
18687370,0000076C,false,Rx,0,8,35,2A,00,00,00,00,00,00,
18697859,0000076C,false,Rx,0,8,64,00,00,41,70,4A,00,00,
18707311,0000076C,false,Rx,0,8,66,00,00,00,00,00,00,00,
18717367,0000076C,false,Rx,0,8,67,00,00,00,00,00,00,00,
18727365,0000076C,false,Rx,0,8,68,00,00,00,00,00,00,00,
18737366,0000076C,false,Rx,0,8,69,00,00,00,00,00,9D,FF,
18747855,0000076C,false,Rx,0,8,6A,00,00,00,00,00,00,00,
18757295,0000076C,false,Rx,0,8,6B,CD,06,00,00,00,00,00,
18767368,0000076C,false,Rx,0,8,6C,00,00,00,00,00,1C,00,
18769414,000002C4,false,Rx,0,8,0D,00,00,00,00,00,00,00,
18769913,00000204,false,Rx,0,8,01,00,00,00,00,00,00,00,
18770210,00000264,false,Rx,0,6,46,00,00,00,E0,01,00,00,
18770464,00000224,false,Rx,0,8,00,04,00,00,00,00,10,08,
18777353,0000076C,false,Rx,0,8,6D,00,00,00,00,00,00,00,
18787365,0000076C,false,Rx,0,8,6E,00,00,00,00,00,00,00,
18797853,0000076C,false,Rx,0,8,6F,00,00,00,00,00,00,00,
18807299,0000076C,false,Rx,0,8,70,00,00,00,00,00,00,00,
18817347,0000076C,false,Rx,0,8,71,2C,30,00,2C,38,80,00,
18827347,0000076C,false,Rx,0,8,77,00,00,5F,80,0E,00,00,
18837358,0000076C,false,Rx,0,8,78,00,00,5E,80,0E,00,00,
18847835,0000076C,false,Rx,0,8,79,00,00,00,00,00,00,00,
18857275,0000076C,false,Rx,0,8,7A,01,09,00,00,00,00,00,
18867378,0000076C,false,Rx,0,8,01,10,10,17,20,16,24,00,
18869407,000002C4,false,Rx,0,8,12,00,00,00,00,00,00,00,
18869895,00000204,false,Rx,0,8,01,00,00,00,00,00,00,00,
18870202,00000264,false,Rx,0,6,46,00,00,00,E0,01,00,00,
18870452,00000224,false,Rx,0,8,00,04,00,00,00,00,10,08,
18877351,0000076C,false,Rx,0,8,02,02,03,02,04,00,01,00,
18887350,0000076C,false,Rx,0,8,03,5F,60,4A,4A,65,68,00,
18897839,0000076C,false,Rx,0,8,04,0C,17,00,07,00,03,00,
18907259,0000076C,false,Rx,0,8,05,AC,8C,36,38,E4,2E,00,
18917356,0000076C,false,Rx,0,8,0A,23,40,00,64,00,80,00,
18927334,0000076C,false,Rx,0,8,0B,12,00,D0,20,FF,0F,00,
18937357,0000076C,false,Rx,0,8,0C,00,00,00,40,20,40,00,
18947824,0000076C,false,Rx,0,8,0D,04,32,8F,BB,28,00,00,
18957264,0000076C,false,Rx,0,8,0E,E0,DB,39,97,02,00,00,
18967349,0000076C,false,Rx,0,8,94,22,40,00,64,00,80,00,
18969394,000002C4,false,Rx,0,8,13,00,00,00,00,00,00,00,
18969884,00000204,false,Rx,0,8,01,00,00,00,00,00,00,00,
18970179,00000264,false,Rx,0,6,47,00,00,00,E0,01,00,00,
18970443,00000224,false,Rx,0,8,00,04,00,00,00,00,10,08,
18977338,0000076C,false,Rx,0,8,15,00,00,D0,20,00,00,00,
18987356,0000076C,false,Rx,0,8,16,00,00,00,30,00,00,00,
18997838,0000076C,false,Rx,0,8,17,04,32,8F,BB,28,00,00,
19007264,0000076C,false,Rx,0,8,18,E0,DB,39,97,02,00,00,
19017344,0000076C,false,Rx,0,8,9E,22,40,00,64,00,80,00,
19027342,0000076C,false,Rx,0,8,1F,01,00,D0,20,00,00,00,
19037353,0000076C,false,Rx,0,8,20,00,00,00,40,00,00,00,
19047820,0000076C,false,Rx,0,8,21,04,32,8F,BB,28,00,00,
19057261,0000076C,false,Rx,0,8,22,DF,DB,39,97,02,00,00,
19067353,0000076C,false,Rx,0,8,33,00,00,00,00,00,20,84,
19069380,000002C4,false,Rx,0,8,14,00,00,00,00,00,00,00,
19069870,00000204,false,Rx,0,8,01,00,00,00,00,00,00,00,
19070176,00000264,false,Rx,0,6,46,00,00,00,E0,01,00,00,
19070427,00000224,false,Rx,0,8,00,04,00,00,00,00,10,08,
19077335,0000076C,false,Rx,0,8,34,00,00,00,00,00,00,00,
19087355,0000076C,false,Rx,0,8,35,2A,00,00,00,00,00,00,
19097832,0000076C,false,Rx,0,8,64,00,00,41,70,4A,00,00,
19107254,0000076C,false,Rx,0,8,66,00,00,00,00,00,00,00,
19117347,0000076C,false,Rx,0,8,67,00,00,00,00,00,00,00,
19127337,0000076C,false,Rx,0,8,68,00,00,00,00,00,00,00,
19137341,0000076C,false,Rx,0,8,69,00,00,00,00,00,9D,FF,
19147829,0000076C,false,Rx,0,8,6A,00,00,00,00,00,00,00,
19157245,0000076C,false,Rx,0,8,6B,CD,06,00,00,00,00,00,
19167342,0000076C,false,Rx,0,8,6C,00,00,00,00,00,1C,00,
19169362,000002C4,false,Rx,0,8,55,00,02,08,00,C0,FE,00,
19169854,00000204,false,Rx,0,8,01,00,00,00,00,00,00,00,
19170059,00000264,false,Rx,0,6,45,00,00,00,E0,01,00,00,
19170334,00000224,false,Rx,0,8,00,04,00,00,00,00,10,08,
19177330,0000076C,false,Rx,0,8,6D,00,00,00,00,00,00,00,
19187347,0000076C,false,Rx,0,8,6E,00,00,00,00,00,00,00,
19197839,0000076C,false,Rx,0,8,6F,00,00,00,00,00,00,00,
19207244,0000076C,false,Rx,0,8,70,00,00,00,00,00,00,00,
19217332,0000076C,false,Rx,0,8,71,2C,30,00,2C,38,80,00,
19227322,0000076C,false,Rx,0,8,77,00,00,5F,80,0E,00,00,
19237361,0000076C,false,Rx,0,8,78,00,00,5E,80,0E,00,00,
19247820,0000076C,false,Rx,0,8,79,00,00,00,00,00,00,00,
19257230,0000076C,false,Rx,0,8,7A,01,09,00,00,00,00,00,
19267333,0000076C,false,Rx,0,8,01,10,10,17,20,17,24,00,
19269351,000002C4,false,Rx,0,8,16,81,0B,00,00,00,00,00,
19269840,00000204,false,Rx,0,8,01,00,00,00,00,00,00,00,
19270147,00000264,false,Rx,0,6,46,00,00,00,E0,01,00,00,
19270411,00000224,false,Rx,0,8,00,04,00,00,00,00,10,08,
19277327,0000076C,false,Rx,0,8,02,02,03,02,04,00,01,00,
19287327,0000076C,false,Rx,0,8,03,60,60,4A,4A,65,68,00,
19297825,0000076C,false,Rx,0,8,04,0C,17,00,07,00,03,00,
19307229,0000076C,false,Rx,0,8,05,AD,8C,36,37,DC,2E,00,
19317333,0000076C,false,Rx,0,8,0A,23,40,00,64,00,80,00,
19327313,0000076C,false,Rx,0,8,0B,11,00,D0,20,FF,0F,00,
19337364,0000076C,false,Rx,0,8,0C,00,00,00,40,20,40,00,
19347803,0000076C,false,Rx,0,8,0D,04,32,8F,BB,28,00,00,
19357229,0000076C,false,Rx,0,8,0E,E0,DB,39,97,02,00,00,
19367328,0000076C,false,Rx,0,8,94,22,40,00,64,00,80,00,
19369338,000002C4,false,Rx,0,8,00,40,00,D2,00,00,00,00,
19369839,00000204,false,Rx,0,8,01,00,00,00,00,00,00,00,
19370136,00000264,false,Rx,0,6,45,00,00,00,E0,01,00,00,
19370390,00000224,false,Rx,0,8,00,04,00,00,00,00,10,08,
19377323,0000076C,false,Rx,0,8,15,00,00,D0,20,00,00,00,
19387332,0000076C,false,Rx,0,8,16,00,00,00,40,00,00,00,
19397810,0000076C,false,Rx,0,8,17,04,32,8F,BB,28,00,00,
19407221,0000076C,false,Rx,0,8,18,E0,DB,39,97,02,00,00,
19417326,0000076C,false,Rx,0,8,9E,22,40,00,64,00,80,00,
19427324,0000076C,false,Rx,0,8,1F,02,00,D0,20,00,00,00,
19437366,0000076C,false,Rx,0,8,20,00,00,00,40,00,40,00,
19447802,0000076C,false,Rx,0,8,21,04,32,8F,BB,28,00,00,
19457213,0000076C,false,Rx,0,8,22,E0,DB,39,97,02,00,00,
19467324,0000076C,false,Rx,0,8,33,00,00,00,00,00,20,84,
19469332,000002C4,false,Rx,0,8,01,00,00,D2,00,00,00,00,
19469822,00000204,false,Rx,0,8,01,00,00,00,00,00,00,00,
19470117,00000264,false,Rx,0,6,46,00,00,00,E0,01,00,00,
19470381,00000224,false,Rx,0,8,00,04,00,00,00,00,10,08,
19471204,000002A4,false,Rx,0,8,25,DF,39,CF,87,BE,F5,FF,
19471817,00000364,false,Rx,0,2,00,78,00,00,00,00,00,00,
19472072,000003A4,false,Rx,0,8,01,00,00,00,00,00,00,00,
19477318,0000076C,false,Rx,0,8,34,00,00,00,00,00,00,00,
19487327,0000076C,false,Rx,0,8,35,2A,00,00,00,00,00,00,
19497807,0000076C,false,Rx,0,8,64,00,00,41,70,4A,0E,00,
19507216,0000076C,false,Rx,0,8,66,00,00,00,00,00,00,00,
19517329,0000076C,false,Rx,0,8,67,00,00,00,00,00,00,00,
19527317,0000076C,false,Rx,0,8,68,00,00,00,00,00,00,00,
19537380,0000076C,false,Rx,0,8,69,00,00,00,00,00,9D,FF,
19547808,0000076C,false,Rx,0,8,6A,00,00,00,00,00,00,00,
19557205,0000076C,false,Rx,0,8,6B,CD,06,00,00,00,00,00,
19567327,0000076C,false,Rx,0,8,6C,00,00,00,00,00,1C,00,
19569316,000002C4,false,Rx,0,8,02,00,00,D2,00,00,00,00,
19569808,00000204,false,Rx,0,8,01,00,00,00,00,00,00,00,
19570023,00000264,false,Rx,0,6,46,00,00,00,E0,01,00,00,
19570287,00000224,false,Rx,0,8,00,04,00,00,00,00,10,08,
19577313,0000076C,false,Rx,0,8,6D,00,00,00,00,00,00,00,
19587322,0000076C,false,Rx,0,8,6E,00,00,00,00,00,00,00,
19597809,0000076C,false,Rx,0,8,6F,00,00,00,00,00,00,00,
19607209,0000076C,false,Rx,0,8,70,00,00,00,00,00,00,00,
19617310,0000076C,false,Rx,0,8,71,2C,30,00,2C,38,80,00,
19627308,0000076C,false,Rx,0,8,77,00,00,5F,80,0E,00,00,
19637350,0000076C,false,Rx,0,8,78,00,00,5E,80,0E,00,00,
19647799,0000076C,false,Rx,0,8,79,00,00,00,00,00,00,00,
19657191,0000076C,false,Rx,0,8,7A,01,09,00,00,00,00,00,
19667314,0000076C,false,Rx,0,8,01,10,10,16,20,18,24,00,
19669292,000002C4,false,Rx,0,8,63,01,18,80,01,00,C0,00,
19669791,00000204,false,Rx,0,8,01,00,00,00,00,00,00,00,
19670006,00000264,false,Rx,0,6,46,00,00,00,E0,01,00,00,
19670282,00000224,false,Rx,0,8,00,04,00,00,00,00,10,08,
19677298,0000076C,false,Rx,0,8,02,02,03,02,04,01,01,00,
19687307,0000076C,false,Rx,0,8,03,60,60,4A,4A,65,68,00,
19697795,0000076C,false,Rx,0,8,04,0C,17,00,07,00,03,00,
19707185,0000076C,false,Rx,0,8,05,AB,84,36,37,DC,2E,00,
19717311,0000076C,false,Rx,0,8,0A,22,40,00,64,00,80,00,
19727295,0000076C,false,Rx,0,8,0B,12,00,D0,20,FF,0F,00,
19737350,0000076C,false,Rx,0,8,0C,00,00,00,40,20,40,00,
19747789,0000076C,false,Rx,0,8,0D,04,32,8F,BB,28,00,00,
19757186,0000076C,false,Rx,0,8,0E,E0,DB,39,97,02,00,00,
19767306,0000076C,false,Rx,0,8,94,23,40,00,64,00,80,00,
19769295,000002C4,false,Rx,0,8,04,00,00,00,00,00,41,00,
19769786,00000204,false,Rx,0,8,01,00,00,00,00,00,00,00,
19770093,00000264,false,Rx,0,6,47,00,00,00,E0,01,00,00,
19770347,00000224,false,Rx,0,8,00,04,00,00,00,00,10,08,
19777301,0000076C,false,Rx,0,8,15,00,00,D0,20,00,00,00,
19787319,0000076C,false,Rx,0,8,16,00,00,00,40,00,00,00,
19797797,0000076C,false,Rx,0,8,17,04,32,8F,BB,28,00,00,
19807177,0000076C,false,Rx,0,8,18,E0,DB,39,97,02,00,00,
19817308,0000076C,false,Rx,0,8,1E,23,40,00,64,00,80,00,
19827297,0000076C,false,Rx,0,8,1F,01,00,D0,20,00,00,00,
19837311,0000076C,false,Rx,0,8,20,00,00,00,40,00,00,00,
19847779,0000076C,false,Rx,0,8,21,04,32,8F,BB,28,00,00,
19857169,0000076C,false,Rx,0,8,22,E0,DB,39,97,02,00,00,
19867311,0000076C,false,Rx,0,8,33,00,00,00,00,00,20,84,
19869279,000002C4,false,Rx,0,8,25,22,00,00,00,00,00,20,
19869767,00000204,false,Rx,0,8,01,00,00,00,00,00,00,00,
19869983,00000264,false,Rx,0,6,46,00,00,00,E0,01,00,00,
19870257,00000224,false,Rx,0,8,00,04,00,00,00,00,10,08,
19877295,0000076C,false,Rx,0,8,34,00,00,00,00,00,00,00,
19887303,0000076C,false,Rx,0,8,35,2A,00,00,00,00,00,00,
19897793,0000076C,false,Rx,0,8,64,00,00,41,70,4A,00,00,
19907171,0000076C,false,Rx,0,8,66,00,00,00,00,00,00,00,
19917304,0000076C,false,Rx,0,8,67,00,00,00,00,00,00,00,
19927296,0000076C,false,Rx,0,8,68,00,00,00,00,00,00,00,
19937295,0000076C,false,Rx,0,8,69,00,00,00,00,00,9D,FF,
19947781,0000076C,false,Rx,0,8,6A,00,00,00,00,00,00,00,
19957165,0000076C,false,Rx,0,8,6B,CD,06,00,00,00,00,00,
19967306,0000076C,false,Rx,0,8,6C,00,00,00,00,00,1C,00,
19969264,000002C4,false,Rx,0,8,46,25,41,00,00,00,C0,58,
19969753,00000204,false,Rx,0,8,01,00,00,00,00,00,00,00,
19969973,00000264,false,Rx,0,6,47,00,00,00,E0,01,00,00,
19970247,00000224,false,Rx,0,8,00,04,00,00,00,00,10,08,
19977288,0000076C,false,Rx,0,8,6D,00,00,00,00,00,00,00,
19987296,0000076C,false,Rx,0,8,6E,00,00,00,00,00,00,00,
19997794,0000076C,false,Rx,0,8,6F,00,00,00,00,00,00,00,
20007165,0000076C,false,Rx,0,8,70,00,00,00,00,00,00,00,
20017287,0000076C,false,Rx,0,8,71,2C,30,00,2C,38,80,00,
20027287,0000076C,false,Rx,0,8,77,00,00,5F,80,0E,00,00,
20037330,0000076C,false,Rx,0,8,78,00,00,5E,80,0E,00,00,
20047778,0000076C,false,Rx,0,8,79,00,00,00,00,00,00,00,
20057149,0000076C,false,Rx,0,8,7A,01,09,00,00,00,00,00,
20067284,0000076C,false,Rx,0,8,01,10,10,17,20,16,24,00,
20069269,000002C4,false,Rx,0,8,07,00,00,00,00,00,00,00,
20069758,00000204,false,Rx,0,8,01,00,00,00,00,00,00,00,
20070054,00000264,false,Rx,0,6,46,00,00,00,E0,01,00,00,
20070308,00000224,false,Rx,0,8,00,04,00,00,00,00,10,08,
20077277,0000076C,false,Rx,0,8,02,02,03,02,04,00,01,00,
20087288,0000076C,false,Rx,0,8,03,60,60,4A,4A,65,68,00,
20097774,0000076C,false,Rx,0,8,04,0C,17,00,07,00,03,00,
20107129,0000076C,false,Rx,0,8,05,AC,5C,36,38,DC,2E,00,
20117289,0000076C,false,Rx,0,8,8A,22,40,00,64,00,80,00,
20127272,0000076C,false,Rx,0,8,0B,12,00,D0,20,FF,0F,00,
20137316,0000076C,false,Rx,0,8,0C,00,00,00,30,20,40,00,
20147765,0000076C,false,Rx,0,8,0D,04,32,8F,BB,28,00,00,
20157130,0000076C,false,Rx,0,8,0E,E0,DB,39,97,02,00,00,
20167281,0000076C,false,Rx,0,8,14,23,40,00,64,00,80,00,
20169238,000002C4,false,Rx,0,8,08,00,00,00,1C,00,00,00,
20169738,00000204,false,Rx,0,8,01,00,00,00,00,00,00,00,
20169956,00000264,false,Rx,0,6,46,00,00,00,E0,01,00,00,
20170233,00000224,false,Rx,0,8,00,04,00,00,00,00,10,08,
20177274,0000076C,false,Rx,0,8,15,00,00,D0,20,00,00,00,
20187292,0000076C,false,Rx,0,8,16,00,00,00,40,00,00,00,
20197766,0000076C,false,Rx,0,8,17,04,32,8F,BB,28,00,00,
20207115,0000076C,false,Rx,0,8,18,DF,DB,39,97,02,00,00,
20217287,0000076C,false,Rx,0,8,1E,23,40,00,64,00,80,00,
20227274,0000076C,false,Rx,0,8,1F,02,00,D0,20,00,00,00,
20237327,0000076C,false,Rx,0,8,20,00,00,00,40,00,00,00,
20247753,0000076C,false,Rx,0,8,21,04,32,8F,BB,28,00,00,
20257115,0000076C,false,Rx,0,8,22,E0,DB,39,97,02,00,00,
20267286,0000076C,false,Rx,0,8,33,00,00,00,00,00,20,84,
20269221,000002C4,false,Rx,0,8,49,DC,E5,2E,B0,84,25,04,
20269711,00000204,false,Rx,0,8,01,00,00,00,00,00,00,00,
20269925,00000264,false,Rx,0,6,46,00,00,00,E0,01,00,00,
20270211,00000224,false,Rx,0,8,00,04,00,00,00,00,10,08,
20277271,0000076C,false,Rx,0,8,34,00,00,00,00,00,00,00,
20287288,0000076C,false,Rx,0,8,35,2A,00,00,00,00,00,00,
20297768,0000076C,false,Rx,0,8,64,00,00,41,70,4A,00,00,
20307124,0000076C,false,Rx,0,8,66,00,00,00,00,00,00,00,
20317287,0000076C,false,Rx,0,8,67,00,00,00,00,00,00,00,
20327277,0000076C,false,Rx,0,8,68,00,00,00,00,00,00,00,
20337311,0000076C,false,Rx,0,8,69,00,00,00,00,00,9D,FF,
20347764,0000076C,false,Rx,0,8,6A,00,00,00,00,00,00,00,
20357113,0000076C,false,Rx,0,8,6B,CD,06,00,00,00,00,00,
20367283,0000076C,false,Rx,0,8,6C,00,00,00,00,00,1C,00,
20369221,000002C4,false,Rx,0,8,0A,00,00,00,00,08,00,00,
20369720,00000204,false,Rx,0,8,01,00,00,00,00,00,00,00,
20370017,00000264,false,Rx,0,6,47,00,00,00,E0,01,00,00,
20370267,00000224,false,Rx,0,8,00,04,00,00,00,00,10,08,
20377267,0000076C,false,Rx,0,8,6D,00,00,00,00,00,00,00,
20387275,0000076C,false,Rx,0,8,6E,00,00,00,00,00,00,00,
20397774,0000076C,false,Rx,0,8,6F,00,00,00,00,00,00,00,
20407114,0000076C,false,Rx,0,8,70,00,00,00,00,00,00,00,
20417263,0000076C,false,Rx,0,8,71,2C,30,00,2C,38,80,00,
20427262,0000076C,false,Rx,0,8,77,00,00,5F,80,0E,00,00,
20437304,0000076C,false,Rx,0,8,78,00,00,5E,80,0E,00,00,
20447753,0000076C,false,Rx,0,8,79,00,00,00,00,00,00,00,
20457092,0000076C,false,Rx,0,8,7A,01,09,00,00,00,00,00,
20467266,0000076C,false,Rx,0,8,01,10,10,17,20,17,24,00,
20469211,000002C4,false,Rx,0,8,0B,00,00,00,0E,08,00,00,
20469701,00000204,false,Rx,0,8,01,00,00,00,00,00,00,00,
20469915,00000264,false,Rx,0,6,46,00,00,00,E0,01,00,00,
20470190,00000224,false,Rx,0,8,00,04,00,00,00,00,10,08,
20471095,000002A4,false,Rx,0,8,25,DF,79,CF,87,AE,F5,FF,
20471248,00000364,false,Rx,0,2,00,78,00,00,00,00,00,00,
20471959,000003A4,false,Rx,0,8,00,00,00,0C,04,00,00,00,
20477257,0000076C,false,Rx,0,8,02,02,03,02,04,01,01,00,
20487255,0000076C,false,Rx,0,8,03,60,60,4A,4A,66,68,00,
20497751,0000076C,false,Rx,0,8,04,0C,17,00,07,00,03,00,
20507073,0000076C,false,Rx,0,8,05,AC,84,36,37,E4,2E,00,
20517265,0000076C,false,Rx,0,8,8A,22,40,00,64,00,80,00,
20527253,0000076C,false,Rx,0,8,0B,12,00,D0,20,FF,0F,00,
20537305,0000076C,false,Rx,0,8,0C,00,00,00,30,20,40,00,
20547743,0000076C,false,Rx,0,8,0D,04,32,8F,BB,28,00,00,
20557082,0000076C,false,Rx,0,8,0E,E0,DB,39,97,02,00,00,
20567264,0000076C,false,Rx,0,8,94,22,40,00,64,00,80,00,
20569191,000002C4,false,Rx,0,8,0C,40,00,80,FF,07,00,00,
20569690,00000204,false,Rx,0,8,01,00,00,00,00,00,00,00,
20569986,00000264,false,Rx,0,6,44,00,00,00,E0,01,00,00,
20570250,00000224,false,Rx,0,8,00,04,00,00,00,00,10,08,
20577249,0000076C,false,Rx,0,8,15,00,00,D0,20,00,00,00,
20587267,0000076C,false,Rx,0,8,16,00,00,00,40,00,00,00,
20597747,0000076C,false,Rx,0,8,17,04,32,8F,BB,28,00,00,
20607077,0000076C,false,Rx,0,8,18,E0,DB,39,97,02,00,00,
20617260,0000076C,false,Rx,0,8,1E,22,40,00,64,00,80,00,
20627259,0000076C,false,Rx,0,8,1F,02,00,D0,20,00,00,00,
20637301,0000076C,false,Rx,0,8,20,00,00,00,40,00,00,00,
20647729,0000076C,false,Rx,0,8,21,04,32,8F,BB,28,00,00,
20657074,0000076C,false,Rx,0,8,22,DF,DB,39,97,02,00,00,
20667258,0000076C,false,Rx,0,8,33,00,00,00,00,00,20,84,
20669185,000002C4,false,Rx,0,8,AD,40,81,02,00,00,00,00,
20669679,00000204,false,Rx,0,8,01,00,00,00,00,00,00,00,
20669883,00000264,false,Rx,0,6,45,00,00,00,E0,01,00,00,
20670169,00000224,false,Rx,0,8,00,04,00,00,00,00,10,08,
20677254,0000076C,false,Rx,0,8,34,00,00,00,00,00,00,00,
20687264,0000076C,false,Rx,0,8,35,2A,00,00,00,00,00,00,
20697756,0000076C,false,Rx,0,8,64,00,00,41,70,4A,0E,00,
20707071,0000076C,false,Rx,0,8,66,00,00,00,00,00,00,00,
20717256,0000076C,false,Rx,0,8,67,00,00,00,00,00,00,00,
20727256,0000076C,false,Rx,0,8,68,00,00,00,00,00,00,00,
20737285,0000076C,false,Rx,0,8,69,00,00,00,00,00,9D,FF,
20747736,0000076C,false,Rx,0,8,6A,00,00,00,00,00,00,00,
20757055,0000076C,false,Rx,0,8,6B,CD,06,00,00,00,00,00,
20767259,0000076C,false,Rx,0,8,6C,00,00,00,00,00,1C,00,
20769175,000002C4,false,Rx,0,8,12,00,00,5F,A0,0E,00,00,
20769665,00000204,false,Rx,0,8,01,00,00,00,00,00,00,00,
20769961,00000264,false,Rx,0,6,46,00,00,00,E0,01,00,00,
20770226,00000224,false,Rx,0,8,00,04,00,00,00,00,10,08,
20777242,0000076C,false,Rx,0,8,6D,00,00,00,00,00,00,00,
20787253,0000076C,false,Rx,0,8,6E,00,00,00,00,00,00,00,
20797742,0000076C,false,Rx,0,8,6F,00,00,00,00,00,00,00,
20807062,0000076C,false,Rx,0,8,70,00,00,00,00,00,00,00,
20817245,0000076C,false,Rx,0,8,71,2C,30,00,2C,38,80,00,
20827234,0000076C,false,Rx,0,8,77,00,00,5F,80,0E,00,00,
20837285,0000076C,false,Rx,0,8,78,00,00,5E,80,0E,00,00,
20847736,0000076C,false,Rx,0,8,79,00,00,00,00,00,00,00,
20857052,0000076C,false,Rx,0,8,7A,01,09,00,00,00,00,00,
20867241,0000076C,false,Rx,0,8,01,10,10,15,20,17,24,00,
20869181,000002C4,false,Rx,0,8,13,00,00,00,00,00,00,00,
20869672,00000204,false,Rx,0,8,01,00,00,00,00,00,00,00,
20869969,00000264,false,Rx,0,6,47,00,00,00,E0,01,00,00,
20870233,00000224,false,Rx,0,8,00,04,00,00,00,00,10,08,
20870703,000003C4,false,Rx,0,8,0A,01,9B,01,FC,00,1B,00,
20877232,0000076C,false,Rx,0,8,02,02,03,02,04,00,01,00,
20887242,0000076C,false,Rx,0,8,03,60,60,4A,4A,66,68,00,
20897732,0000076C,false,Rx,0,8,04,0C,17,00,07,00,03,00,
20907040,0000076C,false,Rx,0,8,05,AB,7C,36,38,D4,2E,00,
20917246,0000076C,false,Rx,0,8,0A,23,40,00,64,00,80,00,
20927225,0000076C,false,Rx,0,8,0B,12,00,D0,20,FF,0F,00,
20937287,0000076C,false,Rx,0,8,0C,00,00,00,40,20,40,00,
20947723,0000076C,false,Rx,0,8,0D,04,32,8F,BB,28,00,00,
20957033,0000076C,false,Rx,0,8,0E,E0,DB,39,97,02,00,00,
20967240,0000076C,false,Rx,0,8,14,23,40,00,64,00,80,00,
20969148,000002C4,false,Rx,0,8,14,00,00,00,00,00,00,00,
20969636,00000204,false,Rx,0,8,01,00,00,00,00,00,00,00,
20969851,00000264,false,Rx,0,6,47,00,00,00,E0,01,00,00,
20970127,00000224,false,Rx,0,8,00,04,00,00,00,00,10,08,
20977233,0000076C,false,Rx,0,8,15,00,00,D0,20,00,00,00,
20987253,0000076C,false,Rx,0,8,16,00,00,00,40,00,00,00,
20997722,0000076C,false,Rx,0,8,17,04,32,8F,BB,28,00,00,
21007030,0000076C,false,Rx,0,8,18,E0,DB,39,97,02,00,00,
21017244,0000076C,false,Rx,0,8,1E,23,40,00,64,00,80,00,
21027242,0000076C,false,Rx,0,8,1F,02,00,D0,20,00,00,00,
21037263,0000076C,false,Rx,0,8,20,00,00,00,40,00,00,00,
21047711,0000076C,false,Rx,0,8,21,04,32,8F,BB,28,00,00,
21057017,0000076C,false,Rx,0,8,22,E0,DB,39,97,02,00,00,
21067239,0000076C,false,Rx,0,8,33,00,00,00,00,00,20,84,
21069136,000002C4,false,Rx,0,8,55,00,02,08,00,80,FE,00,
21069625,00000204,false,Rx,0,8,01,00,00,00,00,00,00,00,
21069925,00000264,false,Rx,0,6,47,00,00,00,E0,01,00,00,
21070190,00000224,false,Rx,0,8,00,04,00,00,00,00,10,08,
21077233,0000076C,false,Rx,0,8,34,00,00,00,00,00,00,00,
21087242,0000076C,false,Rx,0,8,35,2A,00,00,00,00,00,00,
21097718,0000076C,false,Rx,0,8,64,00,00,41,70,4A,1C,00,
21107028,0000076C,false,Rx,0,8,66,00,00,00,00,00,00,00,
21117242,0000076C,false,Rx,0,8,67,00,00,00,00,00,00,00,
21127229,0000076C,false,Rx,0,8,68,00,00,00,00,00,00,00,
21137269,0000076C,false,Rx,0,8,69,00,00,00,00,00,9D,FF,
21147718,0000076C,false,Rx,0,8,6A,00,00,00,00,00,00,00,
21157018,0000076C,false,Rx,0,8,6B,CD,06,00,00,00,00,00,
21167233,0000076C,false,Rx,0,8,6C,00,00,00,00,00,1C,00,
21169130,000002C4,false,Rx,0,8,16,81,0B,00,00,00,00,00,
21169620,00000204,false,Rx,0,8,01,00,00,00,00,00,00,00,
21169914,00000264,false,Rx,0,6,45,00,00,00,E0,01,00,00,
21170171,00000224,false,Rx,0,8,00,04,00,00,00,00,10,08,
21177227,0000076C,false,Rx,0,8,6D,00,00,00,00,00,00,00,
21187237,0000076C,false,Rx,0,8,6E,00,00,00,00,00,00,00,
21197724,0000076C,false,Rx,0,8,6F,00,00,00,00,00,00,00,
21207011,0000076C,false,Rx,0,8,70,00,00,00,00,00,00,00,
21217224,0000076C,false,Rx,0,8,71,2C,30,00,2C,38,80,00,
21227218,0000076C,false,Rx,0,8,77,00,00,5F,80,0E,00,00,
21237262,0000076C,false,Rx,0,8,78,00,00,5E,80,0E,00,00,
21247715,0000076C,false,Rx,0,8,79,00,00,00,00,00,00,00,
21256998,0000076C,false,Rx,0,8,7A,01,09,00,00,00,00,00,
21267219,0000076C,false,Rx,0,8,01,10,10,15,20,18,24,00,
21269116,000002C4,false,Rx,0,8,00,40,00,D2,00,00,00,00,
21269605,00000204,false,Rx,0,8,01,00,00,00,00,00,00,00,
21269915,00000264,false,Rx,0,6,46,00,00,00,E0,01,00,00,
21270171,00000224,false,Rx,0,8,00,04,00,00,00,00,10,08,
21277213,0000076C,false,Rx,0,8,02,02,03,02,04,00,01,00,
21287211,0000076C,false,Rx,0,8,03,60,60,4A,4A,66,68,00,
21297709,0000076C,false,Rx,0,8,04,0C,17,00,07,00,03,00,
21306978,0000076C,false,Rx,0,8,05,AD,8C,36,39,D4,2E,00,
21317223,0000076C,false,Rx,0,8,0A,22,40,00,64,00,80,00,
21327201,0000076C,false,Rx,0,8,0B,12,00,D0,20,FF,0F,00,
21337323,0000076C,false,Rx,0,8,0C,00,00,00,40,20,40,00,
21347701,0000076C,false,Rx,0,8,0D,04,32,8F,BB,28,00,00,
21356993,0000076C,false,Rx,0,8,0E,E0,DB,39,97,02,00,00,
21367216,0000076C,false,Rx,0,8,14,23,40,00,64,00,80,00,
21369113,000002C4,false,Rx,0,8,01,00,00,D2,00,00,00,00,
21369602,00000204,false,Rx,0,8,01,00,00,00,00,00,00,00,
21369908,00000264,false,Rx,0,6,46,00,00,00,E0,01,00,00,
21370173,00000224,false,Rx,0,8,00,04,00,00,00,00,10,08,
21370652,000003C4,false,Rx,0,8,0B,00,04,01,01,00,FF,FF,
21377215,0000076C,false,Rx,0,8,15,00,00,D0,20,00,00,00,
21387223,0000076C,false,Rx,0,8,16,00,00,00,40,00,00,00,
21397702,0000076C,false,Rx,0,8,17,04,32,8F,BB,28,00,00,
21406977,0000076C,false,Rx,0,8,18,E0,DB,39,97,02,00,00,
21417221,0000076C,false,Rx,0,8,1E,23,40,00,64,00,80,00,
21427203,0000076C,false,Rx,0,8,1F,01,00,D0,20,00,00,00,
21437316,0000076C,false,Rx,0,8,20,00,00,00,40,00,00,00,
21447687,0000076C,false,Rx,0,8,21,04,32,8F,BB,28,00,00,
21456971,0000076C,false,Rx,0,8,22,E0,DB,39,97,02,00,00,
21467214,0000076C,false,Rx,0,8,33,00,00,00,00,00,20,84,
21469092,000002C4,false,Rx,0,8,02,00,00,D2,00,00,00,00,
21469581,00000204,false,Rx,0,8,01,00,00,00,00,00,00,00,
21469881,00000264,false,Rx,0,6,47,00,00,00,E0,01,00,00,
21470136,00000224,false,Rx,0,8,00,04,00,00,00,00,10,08,
21470970,000002A4,false,Rx,0,8,25,DF,39,CF,87,AE,F5,FF,
21471113,00000364,false,Rx,0,2,00,78,00,00,00,00,00,00,
21471834,000003A4,false,Rx,0,8,01,00,00,00,00,00,00,00,
21477208,0000076C,false,Rx,0,8,34,00,00,00,00,00,00,00,
21487217,0000076C,false,Rx,0,8,35,2A,00,00,00,00,00,00,
21497704,0000076C,false,Rx,0,8,64,00,00,41,70,4A,0E,00,
21506973,0000076C,false,Rx,0,8,66,00,00,00,00,00,00,00,
21517216,0000076C,false,Rx,0,8,67,00,00,00,00,00,00,00,
21527206,0000076C,false,Rx,0,8,68,00,00,00,00,00,00,00,
21537300,0000076C,false,Rx,0,8,69,00,00,00,00,00,9D,FF,
21547698,0000076C,false,Rx,0,8,6A,00,00,00,00,00,00,00,
21556958,0000076C,false,Rx,0,8,6B,CD,06,00,00,00,00,00,
21567213,0000076C,false,Rx,0,8,6C,00,00,00,00,00,1C,00,
21569067,000002C4,false,Rx,0,8,63,01,18,80,01,00,C0,00,
21569332,00000204,false,Rx,0,8,01,00,00,00,00,00,00,00,
21569781,00000264,false,Rx,0,6,47,00,00,00,E0,01,00,00,
21570046,00000224,false,Rx,0,8,00,04,00,00,00,00,10,08,
21577207,0000076C,false,Rx,0,8,6D,00,00,00,00,00,00,00,
21587208,0000076C,false,Rx,0,8,6E,00,00,00,00,00,00,00,
21597705,0000076C,false,Rx,0,8,6F,00,00,00,00,00,00,00,
21606978,0000076C,false,Rx,0,8,70,00,00,00,00,00,00,00,
21617202,0000076C,false,Rx,0,8,71,2C,30,00,2C,38,80,00,
21627193,0000076C,false,Rx,0,8,77,00,00,5F,80,0E,00,00,
21637298,0000076C,false,Rx,0,8,78,00,00,5E,80,0E,00,00,
21647707,0000076C,false,Rx,0,8,79,00,00,00,00,00,00,00,
21656958,0000076C,false,Rx,0,8,7A,01,09,00,00,00,00,00,
21667203,0000076C,false,Rx,0,8,01,10,10,15,20,18,24,00,
21669069,000002C4,false,Rx,0,8,04,00,00,00,00,00,41,00,
21669569,00000204,false,Rx,0,8,01,00,00,00,00,00,00,00,
21669864,00000264,false,Rx,0,6,47,00,00,00,E0,01,00,00,
21670127,00000224,false,Rx,0,8,00,04,00,00,00,00,10,08,
21677198,0000076C,false,Rx,0,8,02,02,03,02,04,01,01,00,
21687195,0000076C,false,Rx,0,8,03,60,60,4A,4A,66,68,00,
21697693,0000076C,false,Rx,0,8,04,0C,17,00,07,00,03,00,
21706951,0000076C,false,Rx,0,8,05,AC,8C,36,38,D4,2E,00,
21717202,0000076C,false,Rx,0,8,0A,23,40,00,64,00,80,00,
21727181,0000076C,false,Rx,0,8,0B,12,00,D0,20,FF,0F,00,
21737296,0000076C,false,Rx,0,8,0C,00,00,00,40,20,40,00,
21747674,0000076C,false,Rx,0,8,0D,04,32,8F,BB,28,00,00,
21756943,0000076C,false,Rx,0,8,0E,E0,DB,39,97,02,00,00,
21767199,0000076C,false,Rx,0,8,14,23,40,00,64,00,80,00,
21769062,000002C4,false,Rx,0,8,25,22,00,00,00,00,00,20,
21769562,00000204,false,Rx,0,8,01,00,00,00,00,00,00,00,
21769866,00000264,false,Rx,0,6,47,00,00,00,E0,01,00,00,
21770112,00000224,false,Rx,0,8,00,04,00,00,00,00,10,08,
21777193,0000076C,false,Rx,0,8,15,00,00,D0,20,00,00,00,
21787221,0000076C,false,Rx,0,8,16,00,00,00,30,00,00,00,
21797680,0000076C,false,Rx,0,8,17,04,32,8F,BB,28,00,00,
21806956,0000076C,false,Rx,0,8,18,E0,DB,39,97,02,00,00,
21817199,0000076C,false,Rx,0,8,9E,23,40,00,64,00,80,00,
21827190,0000076C,false,Rx,0,8,1F,02,00,D0,20,00,00,00,
21837225,0000076C,false,Rx,0,8,20,00,00,00,50,00,40,00,
21847669,0000076C,false,Rx,0,8,21,04,32,8F,BB,28,00,00,
21856936,0000076C,false,Rx,0,8,22,E2,DB,38,97,02,00,00,
21867199,0000076C,false,Rx,0,8,33,00,00,00,00,00,20,84,
21869045,000002C4,false,Rx,0,8,46,25,41,00,00,00,C0,58,
21869300,00000204,false,Rx,0,8,01,00,00,00,00,00,00,00,
21869748,00000264,false,Rx,0,6,47,00,00,00,E0,01,00,00,
21870024,00000224,false,Rx,0,8,00,04,00,00,00,00,10,08,
21870267,000003C4,false,Rx,0,8,0D,03,00,00,72,F2,7C,0A,
21877187,0000076C,false,Rx,0,8,34,00,00,00,00,00,00,00,
21887195,0000076C,false,Rx,0,8,35,2A,00,00,00,00,00,00,
21897676,0000076C,false,Rx,0,8,64,00,00,40,70,4A,00,00,
21906952,0000076C,false,Rx,0,8,66,00,00,00,00,00,00,00,
21917190,0000076C,false,Rx,0,8,67,00,00,00,00,00,00,00,
21927187,0000076C,false,Rx,0,8,68,00,00,00,00,00,00,00,
21937211,0000076C,false,Rx,0,8,69,00,00,00,00,00,9D,FF,
21947679,0000076C,false,Rx,0,8,6A,00,00,00,00,00,00,00,
21956946,0000076C,false,Rx,0,8,6B,CD,06,00,00,00,00,00,
21967194,0000076C,false,Rx,0,8,6C,00,00,00,00,00,1C,00,
21969045,000002C4,false,Rx,0,8,07,00,00,00,00,00,00,00,
21969304,00000204,false,Rx,0,8,01,00,00,00,00,00,00,00,
21969753,00000264,false,Rx,0,6,47,00,00,00,E0,01,00,00,
21970018,00000224,false,Rx,0,8,00,04,00,00,00,00,10,08,
21977185,0000076C,false,Rx,0,8,6D,00,00,00,00,00,00,00,
21987192,0000076C,false,Rx,0,8,6E,00,00,00,00,00,00,00,
21997685,0000076C,false,Rx,0,8,6F,00,00,00,00,00,00,00,
22006948,0000076C,false,Rx,0,8,70,00,00,00,00,00,00,00,
22017182,0000076C,false,Rx,0,8,71,2C,30,00,2C,38,80,00,
22027169,0000076C,false,Rx,0,8,77,00,00,5F,80,0E,00,00,
22037217,0000076C,false,Rx,0,8,78,00,00,5E,80,0E,00,00,
22047667,0000076C,false,Rx,0,8,79,00,00,00,00,00,00,00,
22056936,0000076C,false,Rx,0,8,7A,01,09,00,00,00,00,00,
22067181,0000076C,false,Rx,0,8,01,10,10,16,20,18,24,00,
22069037,000002C4,false,Rx,0,8,08,00,00,00,1C,00,00,00,
22069291,00000204,false,Rx,0,8,01,00,00,00,00,00,00,00,
22069741,00000264,false,Rx,0,6,46,00,00,00,E0,01,00,00,
22070006,00000224,false,Rx,0,8,00,04,00,00,00,00,10,08,
22077174,0000076C,false,Rx,0,8,02,02,03,02,04,00,01,00,
22087174,0000076C,false,Rx,0,8,03,60,60,4A,4A,62,68,00,
22097670,0000076C,false,Rx,0,8,04,0C,17,00,07,00,03,00,
22106930,0000076C,false,Rx,0,8,05,AC,84,36,38,DC,2E,00,
22117185,0000076C,false,Rx,0,8,8A,22,40,00,64,00,80,00,
22127164,0000076C,false,Rx,0,8,0B,12,00,D0,20,FF,0F,00,
22137215,0000076C,false,Rx,0,8,0C,00,00,00,40,20,40,00,
22147651,0000076C,false,Rx,0,8,0D,04,32,8F,BB,28,00,00,
22156926,0000076C,false,Rx,0,8,0E,E0,DB,39,97,02,00,00,
22167178,0000076C,false,Rx,0,8,94,22,40,00,64,00,80,00,
22169006,000002C4,false,Rx,0,8,49,D9,E5,2E,A6,8C,25,04,
22169262,00000204,false,Rx,0,8,01,00,00,00,00,00,00,00,
22169712,00000264,false,Rx,0,6,45,00,00,00,E0,01,00,00,
22169987,00000224,false,Rx,0,8,00,04,00,00,00,00,10,08,
22177166,0000076C,false,Rx,0,8,15,00,00,D0,20,00,00,00,
22187183,0000076C,false,Rx,0,8,16,00,00,00,40,00,00,00,
22197657,0000076C,false,Rx,0,8,17,04,32,8F,BB,28,00,00,
22206929,0000076C,false,Rx,0,8,18,E2,DB,38,97,02,00,00,
22217178,0000076C,false,Rx,0,8,1E,23,40,00,64,00,80,00,
22227170,0000076C,false,Rx,0,8,1F,02,00,D0,20,00,00,00,
22237277,0000076C,false,Rx,0,8,20,00,00,00,40,00,00,00,
22247648,0000076C,false,Rx,0,8,21,04,32,8F,BB,28,00,00,
22256916,0000076C,false,Rx,0,8,22,E0,DB,39,97,02,00,00,
22267179,0000076C,false,Rx,0,8,33,00,00,00,00,00,20,84,
22269005,000002C4,false,Rx,0,8,0A,40,00,00,00,08,00,00,
22269260,00000204,false,Rx,0,8,01,00,00,00,00,00,00,00,
22269708,00000264,false,Rx,0,6,45,00,00,00,E0,01,00,00,
22269975,00000224,false,Rx,0,8,00,04,00,00,00,00,10,08,
22277165,0000076C,false,Rx,0,8,34,00,00,00,00,00,00,00,
22287177,0000076C,false,Rx,0,8,35,2A,00,00,00,00,00,00,
22297655,0000076C,false,Rx,0,8,64,00,00,40,70,4A,00,00,
22306934,0000076C,false,Rx,0,8,66,00,00,00,00,00,00,00,
22317171,0000076C,false,Rx,0,8,67,00,00,00,00,00,00,00,
22327170,0000076C,false,Rx,0,8,68,00,00,00,00,00,00,00,
22337181,0000076C,false,Rx,0,8,69,00,00,00,00,00,9D,FF,
22347652,0000076C,false,Rx,0,8,6A,00,00,00,00,00,00,00,
22356916,0000076C,false,Rx,0,8,6B,CD,06,00,00,00,00,00,
22367168,0000076C,false,Rx,0,8,6C,00,00,00,00,00,1C,00,
22369007,000002C4,false,Rx,0,8,0B,00,00,00,0E,08,00,00,
22369262,00000204,false,Rx,0,8,01,00,00,00,00,00,00,00,
22369712,00000264,false,Rx,0,6,46,00,00,00,E0,01,00,00,
22369968,00000224,false,Rx,0,8,00,04,00,00,00,00,10,08,
22370212,000003C4,false,Rx,0,8,10,00,00,00,8D,2E,15,C5,
22377158,0000076C,false,Rx,0,8,6D,00,00,00,00,00,00,00,
22387166,0000076C,false,Rx,0,8,6E,00,00,00,00,00,00,00,
22397654,0000076C,false,Rx,0,8,6F,00,00,00,00,00,00,00,
22406930,0000076C,false,Rx,0,8,70,00,00,00,00,00,00,00,
22417156,0000076C,false,Rx,0,8,71,2C,30,00,2C,38,80,00,
22427153,0000076C,false,Rx,0,8,77,00,00,5F,80,0E,00,00,
22437183,0000076C,false,Rx,0,8,78,00,00,5E,80,0E,00,00,
22447642,0000076C,false,Rx,0,8,79,00,00,00,00,00,00,00,
22456919,0000076C,false,Rx,0,8,7A,01,09,00,00,00,00,00,
22467154,0000076C,false,Rx,0,8,01,10,10,17,20,17,24,00,
22468981,000002C4,false,Rx,0,8,0C,40,00,80,FF,07,00,00,
22469245,00000204,false,Rx,0,8,01,00,00,00,00,00,00,00,
22469694,00000264,false,Rx,0,6,45,00,00,00,E0,01,00,00,
22469959,00000224,false,Rx,0,8,00,04,00,00,00,00,10,08,
22470859,000002A4,false,Rx,0,8,25,DF,39,CF,87,AE,F5,FF,
22471004,00000364,false,Rx,0,2,00,78,00,00,00,00,00,00,
22471258,000003A4,false,Rx,0,8,00,00,00,0C,04,00,00,00,
22477147,0000076C,false,Rx,0,8,02,02,03,02,04,01,01,00,
22487147,0000076C,false,Rx,0,8,03,5F,60,4A,4A,65,68,00,
22497649,0000076C,false,Rx,0,8,04,0C,17,00,07,00,03,00,
22506904,0000076C,false,Rx,0,8,05,AC,8C,36,39,E4,2E,00,
22517161,0000076C,false,Rx,0,8,0A,22,40,00,64,00,80,00,
22527159,0000076C,false,Rx,0,8,0B,11,00,D0,20,FF,0F,00,
22537180,0000076C,false,Rx,0,8,0C,00,00,00,40,20,40,00,
22547630,0000076C,false,Rx,0,8,0D,04,32,8F,BB,28,00,00,
22556904,0000076C,false,Rx,0,8,0E,E0,DB,39,97,02,00,00,
22567159,0000076C,false,Rx,0,8,94,21,40,00,64,00,80,00,
