Time Stamp,ID,Extended,Dir,Bus,LEN,D1,D2,D3,D4,D5,D6,D7,D8
4298286990,00000504,false,Rx,0,8,00,1B,04,01,00,01,00,01,
4298987057,0000076C,false,Rx,0,8,01,09,09,20,20,0B,0B,00,
4298989173,000002C4,false,Rx,0,8,26,23,40,00,00,00,00,7D,
4298989427,00000224,false,Rx,0,8,00,00,00,00,00,00,00,08,
4298991063,000002A4,false,Rx,0,8,00,04,20,00,57,BE,F4,FF,
4298991208,00000364,false,Rx,0,2,00,78,00,00,00,00,00,00,
4298991466,000003A4,false,Rx,0,8,00,00,00,00,00,00,00,00,
4298997056,0000076C,false,Rx,0,8,02,01,01,02,02,01,01,00,
4299007050,0000076C,false,Rx,0,8,03,60,60,4A,4A,66,66,00,
4299017072,0000076C,false,Rx,0,8,04,0C,0C,00,06,00,03,00,
4299027044,0000076C,false,Rx,0,8,05,A6,4C,36,3B,DC,2E,00,
4299037057,0000076C,false,Rx,0,8,8A,0F,C0,00,64,00,00,00,
4299047050,0000076C,false,Rx,0,8,0B,10,00,D0,20,00,00,00,
4299057062,0000076C,false,Rx,0,8,0C,00,00,00,40,20,40,00,
4299067044,0000076C,false,Rx,0,8,0D,04,32,8F,BB,28,00,00,
4299077047,0000076C,false,Rx,0,8,0E,E0,DB,39,97,02,00,00,
4299087050,0000076C,false,Rx,0,8,94,17,20,00,64,00,00,00,
4299089176,000002C4,false,Rx,0,8,07,00,00,04,00,00,00,00,
4299089431,00000204,false,Rx,0,8,01,00,00,00,00,00,00,00,
4299089649,00000264,false,Rx,0,6,31,00,00,00,E0,01,00,00,
4299089906,00000224,false,Rx,0,8,00,04,00,00,00,00,00,08,
4299097057,0000076C,false,Rx,0,8,15,00,00,D0,20,00,00,00,
4299105033,00000424,false,Rx,0,8,15,80,01,00,00,00,00,00,
4299107054,0000076C,false,Rx,0,8,16,00,00,00,40,00,00,00,
4299117047,0000076C,false,Rx,0,8,17,04,32,8F,BB,28,00,00,
4299127039,0000076C,false,Rx,0,8,18,E0,DB,39,97,02,00,00,
4299137052,0000076C,false,Rx,0,8,1E,1B,80,00,64,00,00,00,
4299147055,0000076C,false,Rx,0,8,1F,02,00,D0,20,00,00,00,
4299157049,0000076C,false,Rx,0,8,20,00,00,00,40,00,00,00,
4299167031,0000076C,false,Rx,0,8,21,04,32,8F,BB,28,00,00,
4299177044,0000076C,false,Rx,0,8,22,E0,DB,39,97,02,00,00,
4299187057,0000076C,false,Rx,0,8,33,00,00,00,00,00,20,84,
4299189172,000002C4,false,Rx,0,8,08,00,00,00,1C,00,00,00,
4299189428,00000204,false,Rx,0,8,01,00,00,00,00,00,00,00,
4299189645,00000264,false,Rx,0,6,3D,00,00,00,E0,01,00,00,
4299189902,00000224,false,Rx,0,8,00,04,00,00,00,00,00,08,
4299197043,0000076C,false,Rx,0,8,34,00,00,00,00,00,00,00,
4299207046,0000076C,false,Rx,0,8,35,2A,00,00,00,00,00,00,
4299217060,0000076C,false,Rx,0,8,64,00,00,41,30,46,0E,00,
4299227045,0000076C,false,Rx,0,8,66,00,00,00,00,00,00,00,
4299237038,0000076C,false,Rx,0,8,67,00,00,00,00,00,00,00,
4299247041,0000076C,false,Rx,0,8,68,00,00,00,00,00,00,00,
4299257036,0000076C,false,Rx,0,8,69,00,00,00,00,00,9D,FF,
4299267039,0000076C,false,Rx,0,8,6A,00,00,00,00,00,00,00,
4299277022,0000076C,false,Rx,0,8,6B,CD,06,00,00,00,00,00,
4299287036,0000076C,false,Rx,0,8,6C,00,00,00,00,00,1C,00,
4299289140,000002C4,false,Rx,0,8,49,DC,E5,2E,B0,84,25,00,
4299289396,00000204,false,Rx,0,8,01,00,00,00,00,00,00,00,
4299289612,00000264,false,Rx,0,6,42,00,00,00,E0,01,00,00,
4299289870,00000224,false,Rx,0,8,00,04,00,00,00,00,00,08,
4299297033,0000076C,false,Rx,0,8,6D,00,00,00,00,00,00,00,
4299307036,0000076C,false,Rx,0,8,6E,00,00,00,00,00,00,00,
4299317041,0000076C,false,Rx,0,8,6F,00,00,00,00,00,00,00,
4299327024,0000076C,false,Rx,0,8,70,00,00,00,00,00,00,00,
4299337017,0000076C,false,Rx,0,8,71,2C,30,00,2C,38,80,00,
4299347031,0000076C,false,Rx,0,8,77,00,00,00,00,00,00,00,
4299357024,0000076C,false,Rx,0,8,78,00,00,00,00,00,00,00,
4299367017,0000076C,false,Rx,0,8,79,00,00,00,00,00,00,00,
4299377019,0000076C,false,Rx,0,8,7A,01,09,00,00,00,00,00,
4299387074,0000076C,false,Rx,0,8,01,09,09,0E,20,0E,0E,00,
4299389148,000002C4,false,Rx,0,8,0A,00,00,00,00,08,00,00,
4299389413,00000204,false,Rx,0,8,01,00,00,00,00,00,00,00,
4299389630,00000264,false,Rx,0,6,43,00,00,00,E0,01,00,00,
4299389888,00000224,false,Rx,0,8,00,04,00,00,00,00,00,08,
4299390146,000003C4,false,Rx,0,8,0A,01,9B,01,FC,00,1B,00,
4299397023,0000076C,false,Rx,0,8,02,02,02,02,02,00,01,00,
4299407005,0000076C,false,Rx,0,8,03,60,60,40,4A,4B,66,00,
4299417008,0000076C,false,Rx,0,8,04,0C,17,00,06,00,03,00,
4299426993,0000076C,false,Rx,0,8,05,AB,6C,36,39,D4,2E,00,
4299437017,0000076C,false,Rx,0,8,8A,21,20,01,64,00,40,00,
4299447009,0000076C,false,Rx,0,8,0B,10,00,D0,20,00,00,00,
4299457012,0000076C,false,Rx,0,8,0C,00,00,00,40,20,40,00,
4299467005,0000076C,false,Rx,0,8,0D,04,32,8F,BB,28,00,00,
4299477007,0000076C,false,Rx,0,8,0E,DF,DB,3A,97,02,00,00,
4299487010,0000076C,false,Rx,0,8,94,21,40,00,64,00,40,00,
4299489137,000002C4,false,Rx,0,8,0B,00,00,00,0E,08,00,00,
4299489392,00000204,false,Rx,0,8,01,00,00,00,00,00,00,00,
4299489609,00000264,false,Rx,0,6,45,00,00,00,E0,01,00,00,
4299489857,00000224,false,Rx,0,8,00,04,00,00,00,00,00,08,
4299497009,0000076C,false,Rx,0,8,15,00,00,D0,20,00,00,00,
4299507011,0000076C,false,Rx,0,8,16,00,00,00,40,00,00,00,
4299516993,0000076C,false,Rx,0,8,17,04,32,8F,BB,28,00,00,
4299526996,0000076C,false,Rx,0,8,18,E0,DB,39,97,02,00,00,
4299537009,0000076C,false,Rx,0,8,1E,22,80,00,64,00,40,00,
4299544982,00000424,false,Rx,0,8,18,80,04,00,00,00,00,00,
4299546994,0000076C,false,Rx,0,8,1F,01,00,D0,20,00,00,00,
4299556999,0000076C,false,Rx,0,8,20,00,00,00,40,00,40,00,
4299566991,0000076C,false,Rx,0,8,21,04,32,8F,BB,28,00,00,
4299576993,0000076C,false,Rx,0,8,22,DF,DB,39,97,02,00,00,
4299586997,0000076C,false,Rx,0,8,33,00,00,00,00,00,20,84,
4299589123,000002C4,false,Rx,0,8,0C,00,00,80,FF,07,00,00,
4299589389,00000204,false,Rx,0,8,01,00,00,00,00,00,00,00,
4299589607,00000264,false,Rx,0,6,45,00,00,00,E0,01,00,00,
4299589854,00000224,false,Rx,0,8,00,04,00,00,00,00,00,08,
4299596994,0000076C,false,Rx,0,8,34,00,00,00,00,00,00,00,
4299606997,0000076C,false,Rx,0,8,35,2A,00,00,00,00,00,00,
4299617021,0000076C,false,Rx,0,8,64,00,00,41,30,46,00,00,
4299626993,0000076C,false,Rx,0,8,66,00,00,00,00,00,00,00,
4299636987,0000076C,false,Rx,0,8,67,00,00,00,00,00,00,00,
4299646990,0000076C,false,Rx,0,8,68,00,00,00,00,00,00,00,
4299656992,0000076C,false,Rx,0,8,69,00,00,00,00,00,9D,FF,
4299666984,0000076C,false,Rx,0,8,6A,00,00,00,00,00,00,00,
4299676978,0000076C,false,Rx,0,8,6B,CD,06,00,00,00,00,00,
4299686992,0000076C,false,Rx,0,8,6C,00,00,00,00,00,1C,00,
4299689108,000002C4,false,Rx,0,8,0D,00,00,00,00,00,00,00,
4299689363,00000204,false,Rx,0,8,01,00,00,00,00,00,00,00,
4299689581,00000264,false,Rx,0,6,45,00,00,00,E0,01,00,00,
4299689838,00000224,false,Rx,0,8,00,04,00,00,00,00,00,08,
4299696990,0000076C,false,Rx,0,8,6D,00,00,00,00,00,00,00,
4299706992,0000076C,false,Rx,0,8,6E,00,00,00,00,00,00,00,
4299716984,0000076C,false,Rx,0,8,6F,00,00,00,00,00,00,00,
4299726986,0000076C,false,Rx,0,8,70,00,00,00,00,00,00,00,
4299736968,0000076C,false,Rx,0,8,71,2C,30,00,2C,38,80,00,
4299746982,0000076C,false,Rx,0,8,77,00,00,5F,E0,0D,00,00,
4299756976,0000076C,false,Rx,0,8,78,00,00,00,00,00,00,00,
4299766978,0000076C,false,Rx,0,8,79,00,00,00,00,00,00,00,
4299776971,0000076C,false,Rx,0,8,7A,01,09,00,00,00,00,00,
4299787025,0000076C,false,Rx,0,8,01,09,09,0E,20,0E,0E,00,
4299789099,000002C4,false,Rx,0,8,12,00,00,00,00,00,00,00,
4299789365,00000204,false,Rx,0,8,01,00,00,00,00,00,00,00,
4299789572,00000264,false,Rx,0,6,47,00,00,00,E0,01,00,00,
4299789830,00000224,false,Rx,0,8,00,04,00,00,00,00,00,08,
4299796972,0000076C,false,Rx,0,8,02,02,02,02,02,00,01,00,
4299806954,0000076C,false,Rx,0,8,03,60,60,4A,4A,4B,66,00,
4299816957,0000076C,false,Rx,0,8,04,0C,17,00,07,00,03,00,
4299826961,0000076C,false,Rx,0,8,05,AB,7C,36,39,D4,2E,00,
4299836964,0000076C,false,Rx,0,8,8A,22,00,01,64,00,40,00,
4299846956,0000076C,false,Rx,0,8,0B,11,00,D0,20,00,00,00,
4299856969,0000076C,false,Rx,0,8,0C,00,00,00,40,20,40,00,
4299866953,0000076C,false,Rx,0,8,0D,04,32,8F,BB,28,00,00,
4299876957,0000076C,false,Rx,0,8,0E,E0,DB,39,97,02,00,00,
4299886960,0000076C,false,Rx,0,8,94,23,40,00,64,00,40,00,
4299889096,000002C4,false,Rx,0,8,13,00,00,00,00,00,00,00,
4299889361,00000204,false,Rx,0,8,01,00,00,00,00,00,00,00,
4299889568,00000264,false,Rx,0,6,47,00,00,00,E0,01,00,00,
4299889826,00000224,false,Rx,0,8,00,04,00,00,00,00,00,08,
4299890074,000003C4,false,Rx,0,8,0B,00,04,01,01,00,FF,FF,
4299896960,0000076C,false,Rx,0,8,15,00,00,D0,20,00,00,00,
4299906964,0000076C,false,Rx,0,8,16,00,00,00,40,00,00,00,
4299916956,0000076C,false,Rx,0,8,17,04,32,8F,BB,28,00,00,
4299926948,0000076C,false,Rx,0,8,18,E0,DB,39,97,02,00,00,
4299936952,0000076C,false,Rx,0,8,1E,23,60,00,64,00,40,00,
4299946955,0000076C,false,Rx,0,8,1F,02,00,D0,20,00,00,00,
4299956959,0000076C,false,Rx,0,8,20,00,00,00,30,00,40,00,
4299966952,0000076C,false,Rx,0,8,21,04,32,8F,BB,28,00,00,
4299976934,0000076C,false,Rx,0,8,22,E0,DB,39,97,02,00,00,
4299986957,0000076C,false,Rx,0,8,33,00,00,00,00,00,20,84,
4299989083,000002C4,false,Rx,0,8,14,00,00,00,00,00,00,00,
4299989348,00000204,false,Rx,0,8,01,00,00,00,00,00,00,00,
4299989565,00000264,false,Rx,0,6,47,00,00,00,E0,01,00,00,
4299989813,00000224,false,Rx,0,8,00,04,00,00,00,00,00,08,
4299990944,000002A4,false,Rx,0,8,F2,3E,38,C2,71,8E,F5,FF,
4299991079,00000364,false,Rx,0,2,00,78,00,00,00,00,00,00,
4299991342,000003A4,false,Rx,0,8,01,00,00,00,00,00,00,00,
4299996943,0000076C,false,Rx,0,8,34,00,00,00,00,00,00,00,
4300006956,0000076C,false,Rx,0,8,35,2A,00,00,00,00,00,00,
4300016969,0000076C,false,Rx,0,8,64,00,00,40,30,46,00,00,
4300026941,0000076C,false,Rx,0,8,66,00,00,00,00,00,00,00,
4300036944,0000076C,false,Rx,0,8,67,00,00,00,00,00,00,00,
4300046947,0000076C,false,Rx,0,8,68,00,00,00,00,00,00,00,
4300056938,0000076C,false,Rx,0,8,69,00,00,00,00,00,9D,FF,
4300066941,0000076C,false,Rx,0,8,6A,00,00,00,00,00,00,00,
4300076933,0000076C,false,Rx,0,8,6B,CD,06,00,00,00,00,00,
4300086936,0000076C,false,Rx,0,8,6C,00,00,00,00,00,1C,00,
4300089052,000002C4,false,Rx,0,8,35,00,01,04,00,40,FF,00,
4300089307,00000204,false,Rx,0,8,01,00,00,00,00,00,00,00,
4300089525,00000264,false,Rx,0,6,45,00,00,00,E0,01,00,00,
4300089782,00000224,false,Rx,0,8,00,04,00,00,00,00,00,08,
4300094936,00000424,false,Rx,0,8,16,80,01,00,00,00,00,00,
4300095200,00000424,false,Rx,0,8,17,80,01,00,00,00,00,00,
4300096938,0000076C,false,Rx,0,8,6D,00,00,00,00,00,00,00,
4300106945,0000076C,false,Rx,0,8,6E,00,00,00,00,00,00,00,
4300116937,0000076C,false,Rx,0,8,6F,00,00,00,00,00,00,00,
4300126930,0000076C,false,Rx,0,8,70,00,00,00,00,00,00,00,
4300136923,0000076C,false,Rx,0,8,71,2C,30,00,2C,38,80,00,
4300146936,0000076C,false,Rx,0,8,77,00,00,5F,E0,0D,00,00,
4300156927,0000076C,false,Rx,0,8,78,00,00,00,00,00,00,00,
4300166930,0000076C,false,Rx,0,8,79,00,00,00,00,00,00,00,
4300176922,0000076C,false,Rx,0,8,7A,01,09,00,00,00,00,00,
4300186976,0000076C,false,Rx,0,8,01,09,09,12,20,12,12,00,
4300189051,000002C4,false,Rx,0,8,16,81,0B,00,00,00,00,00,
4300189307,00000204,false,Rx,0,8,01,00,00,00,00,00,00,00,
4300189525,00000264,false,Rx,0,6,46,00,00,00,E0,01,00,00,
4300189782,00000224,false,Rx,0,8,00,04,00,00,00,00,00,08,
4300196922,0000076C,false,Rx,0,8,02,02,02,02,02,01,01,00,
4300206914,0000076C,false,Rx,0,8,03,60,60,4A,4A,4D,66,00,
4300216916,0000076C,false,Rx,0,8,04,0C,17,00,07,00,03,00,
4300226909,0000076C,false,Rx,0,8,05,AB,84,36,39,E4,2E,00,
4300236913,0000076C,false,Rx,0,8,8A,22,E0,00,64,00,40,00,
4300246906,0000076C,false,Rx,0,8,0B,10,00,D0,20,FF,0F,00,
4300256921,0000076C,false,Rx,0,8,0C,00,00,00,40,20,40,00,
4300266903,0000076C,false,Rx,0,8,0D,04,32,8F,BB,28,00,00,
4300276917,0000076C,false,Rx,0,8,0E,E0,DB,39,97,02,00,00,
4300286920,0000076C,false,Rx,0,8,94,22,40,00,64,00,40,00,
4300289034,000002C4,false,Rx,0,8,20,40,00,D2,00,00,00,00,
4300289301,00000204,false,Rx,0,8,01,00,00,00,00,00,00,00,
4300289518,00000264,false,Rx,0,6,45,00,00,00,E0,01,00,00,
4300289765,00000224,false,Rx,0,8,00,04,00,00,00,00,00,08,
4300296908,0000076C,false,Rx,0,8,15,00,00,D0,20,00,00,00,
4300306910,0000076C,false,Rx,0,8,16,00,00,00,40,00,00,00,
4300316912,0000076C,false,Rx,0,8,17,04,32,8F,BB,28,00,00,
4300326905,0000076C,false,Rx,0,8,18,E0,DB,39,97,02,00,00,
4300336899,0000076C,false,Rx,0,8,1E,22,60,00,64,00,40,00,
4300346902,0000076C,false,Rx,0,8,1F,01,00,D0,20,00,00,00,
4300356905,0000076C,false,Rx,0,8,20,00,00,00,40,00,00,00,
4300366898,0000076C,false,Rx,0,8,21,04,32,8F,BB,28,00,00,
4300376891,0000076C,false,Rx,0,8,22,DF,DB,39,97,02,00,00,
4300386903,0000076C,false,Rx,0,8,33,00,00,00,00,00,20,84,
4300389040,000002C4,false,Rx,0,8,01,00,00,D2,00,00,00,00,
4300389305,00000204,false,Rx,0,8,01,00,00,00,00,00,00,00,
4300389522,00000264,false,Rx,0,6,46,00,00,00,E0,01,00,00,
4300389779,00000224,false,Rx,0,8,00,04,00,00,00,00,00,08,
4300390018,000003C4,false,Rx,0,8,0D,03,00,00,72,F2,7C,0A,
4300396895,0000076C,false,Rx,0,8,34,00,00,00,00,00,00,00,
4300406909,0000076C,false,Rx,0,8,35,2A,00,00,00,00,00,00,
4300416923,0000076C,false,Rx,0,8,64,00,00,41,30,46,00,00,
4300426895,0000076C,false,Rx,0,8,66,00,00,00,00,00,00,00,
4300436897,0000076C,false,Rx,0,8,67,00,00,00,00,00,00,00,
4300446900,0000076C,false,Rx,0,8,68,00,00,00,00,00,00,00,
4300456893,0000076C,false,Rx,0,8,69,00,00,00,00,00,9D,FF,
4300466895,0000076C,false,Rx,0,8,6A,00,00,00,00,00,00,00,
4300476887,0000076C,false,Rx,0,8,6B,CD,06,00,00,00,00,00,
4300486890,0000076C,false,Rx,0,8,6C,00,00,00,00,00,1C,00,
4300489006,000002C4,false,Rx,0,8,02,00,00,D2,00,00,00,00,
4300489271,00000204,false,Rx,0,8,01,00,00,00,00,00,00,00,
4300489477,00000264,false,Rx,0,6,45,00,00,00,E0,01,00,00,
4300489736,00000224,false,Rx,0,8,00,04,00,00,00,00,00,08,
4300496896,0000076C,false,Rx,0,8,6D,00,00,00,00,00,00,00,
4300506899,0000076C,false,Rx,0,8,6E,00,00,00,00,00,00,00,
4300516891,0000076C,false,Rx,0,8,6F,00,00,00,00,00,00,00,
4300526883,0000076C,false,Rx,0,8,70,00,00,00,00,00,00,00,
4300536876,0000076C,false,Rx,0,8,71,2C,30,00,2C,38,80,00,
4300546889,0000076C,false,Rx,0,8,77,00,00,5F,C0,0D,00,00,
4300556873,0000076C,false,Rx,0,8,78,00,00,5E,C0,0D,00,00,
4300566876,0000076C,false,Rx,0,8,79,00,00,00,00,00,00,00,
4300576871,0000076C,false,Rx,0,8,7A,01,09,00,00,00,00,00,
4300586935,0000076C,false,Rx,0,8,01,09,09,12,20,10,12,00,
4300588999,000002C4,false,Rx,0,8,63,01,16,60,01,00,C0,00,
4300589253,00000204,false,Rx,0,8,01,00,00,00,00,00,00,00,
4300589470,00000264,false,Rx,0,6,44,00,00,00,E0,01,00,00,
4300589729,00000224,false,Rx,0,8,00,04,00,00,00,00,00,08,
4300596881,0000076C,false,Rx,0,8,02,02,02,02,02,00,01,00,
4300606863,0000076C,false,Rx,0,8,03,60,60,4A,4A,65,66,00,
4300616866,0000076C,false,Rx,0,8,04,0C,17,00,07,00,03,00,
4300626858,0000076C,false,Rx,0,8,05,AC,74,36,39,DC,2E,00,
4300636871,0000076C,false,Rx,0,8,8A,22,A0,00,64,00,40,00,
4300646864,0000076C,false,Rx,0,8,0B,10,00,D0,20,FF,0F,00,
4300656868,0000076C,false,Rx,0,8,0C,00,00,00,40,20,40,00,
4300666861,0000076C,false,Rx,0,8,0D,04,32,8F,BB,28,00,00,
4300676863,0000076C,false,Rx,0,8,0E,E0,DB,39,97,02,00,00,
4300686866,0000076C,false,Rx,0,8,94,22,40,00,64,00,40,00,
4300688992,000002C4,false,Rx,0,8,04,00,00,00,00,00,41,00,
4300689257,00000204,false,Rx,0,8,01,00,00,00,00,00,00,00,
4300689475,00000264,false,Rx,0,6,46,00,00,00,E0,01,00,00,
4300689732,00000224,false,Rx,0,8,00,04,00,00,00,00,00,08,
4300696863,0000076C,false,Rx,0,8,15,00,00,D0,20,00,00,00,
4300706866,0000076C,false,Rx,0,8,16,00,00,00,40,00,00,00,
4300716859,0000076C,false,Rx,0,8,17,04,32,8F,BB,28,00,00,
4300726863,0000076C,false,Rx,0,8,18,E0,DB,39,97,02,00,00,
4300736856,0000076C,false,Rx,0,8,1E,22,40,00,64,00,40,00,
4300746859,0000076C,false,Rx,0,8,1F,03,00,D0,20,00,00,00,
4300756862,0000076C,false,Rx,0,8,20,00,00,00,40,00,00,00,
4300766854,0000076C,false,Rx,0,8,21,04,32,8F,BB,28,00,00,
4300776847,0000076C,false,Rx,0,8,22,E0,DB,39,97,02,00,00,
4300786860,0000076C,false,Rx,0,8,33,00,00,00,00,00,20,84,
4300788974,000002C4,false,Rx,0,8,25,22,00,00,00,00,00,20,
4300789229,00000204,false,Rx,0,8,01,00,00,00,00,00,00,00,
4300789447,00000264,false,Rx,0,6,45,00,00,00,E0,01,00,00,
4300789705,00000224,false,Rx,0,8,00,04,00,00,00,00,00,08,
4300796857,0000076C,false,Rx,0,8,34,00,00,00,00,00,00,00,
4300806861,0000076C,false,Rx,0,8,35,2A,00,00,00,00,00,00,
4300816874,0000076C,false,Rx,0,8,64,00,00,41,30,46,00,00,
4300826845,0000076C,false,Rx,0,8,66,00,00,00,00,00,00,00,
4300836849,0000076C,false,Rx,0,8,67,00,00,00,00,00,00,00,
4300846862,0000076C,false,Rx,0,8,68,00,00,00,00,00,00,00,
4300856843,0000076C,false,Rx,0,8,69,00,00,00,00,00,9D,FF,
4300866849,0000076C,false,Rx,0,8,6A,00,00,00,00,00,00,00,
4300876840,0000076C,false,Rx,0,8,6B,CD,06,00,00,00,00,00,
4300886852,0000076C,false,Rx,0,8,6C,00,00,00,00,00,1C,00,
4300888967,000002C4,false,Rx,0,8,26,23,41,00,00,00,C0,58,
4300889232,00000204,false,Rx,0,8,01,00,00,00,00,00,00,00,
4300889450,00000264,false,Rx,0,6,47,00,00,00,E0,01,00,00,
4300889707,00000224,false,Rx,0,8,00,04,00,00,00,00,00,08,
4300889966,000003C4,false,Rx,0,8,10,00,00,00,8D,2E,15,C5,
4300896843,0000076C,false,Rx,0,8,6D,00,00,00,00,00,00,00,
4300906835,0000076C,false,Rx,0,8,6E,00,00,00,00,00,00,00,
4300916838,0000076C,false,Rx,0,8,6F,00,00,00,00,00,00,00,
4300926842,0000076C,false,Rx,0,8,70,00,00,00,00,00,00,00,
4300936834,0000076C,false,Rx,0,8,71,2C,30,00,2C,38,80,00,
4300946847,0000076C,false,Rx,0,8,77,00,00,5F,C0,0D,00,00,
4300956829,0000076C,false,Rx,0,8,78,00,00,5E,C0,0D,00,00,
4300966831,0000076C,false,Rx,0,8,79,00,00,00,00,00,00,00,
4300976833,0000076C,false,Rx,0,8,7A,01,09,00,00,00,00,00,
4300986888,0000076C,false,Rx,0,8,01,09,09,12,20,10,12,00,
4300988962,000002C4,false,Rx,0,8,07,00,00,00,00,00,00,00,
4300989226,00000204,false,Rx,0,8,01,00,00,00,00,00,00,00,
4300989434,00000264,false,Rx,0,6,46,00,00,00,E0,01,00,00,
4300989693,00000224,false,Rx,0,8,00,04,00,00,00,00,00,08,
4300990845,000002A4,false,Rx,0,8,1B,8F,B9,CC,73,9E,F5,FF,
4300990990,00000364,false,Rx,0,2,00,78,00,00,00,00,00,00,
4300991242,000003A4,false,Rx,0,8,00,00,00,0F,00,00,00,00,
4300996821,0000076C,false,Rx,0,8,02,02,02,02,02,01,01,00,
4301006814,0000076C,false,Rx,0,8,03,60,60,4A,4A,62,66,00,
4301016826,0000076C,false,Rx,0,8,04,0C,17,00,07,00,03,00,
4301026809,0000076C,false,Rx,0,8,05,AC,84,36,39,E4,2E,00,
4301036821,0000076C,false,Rx,0,8,0A,23,A0,00,64,00,80,00,
4301046814,0000076C,false,Rx,0,8,0B,10,00,D0,20,FF,0F,00,
4301056828,0000076C,false,Rx,0,8,0C,00,00,00,40,20,40,00,
4301066821,0000076C,false,Rx,0,8,0D,04,32,8F,BB,28,00,00,
4301076813,0000076C,false,Rx,0,8,0E,DF,DB,39,97,02,00,00,
4301086816,0000076C,false,Rx,0,8,14,22,40,00,64,00,80,00,
4301088942,000002C4,false,Rx,0,8,08,00,00,00,1C,00,00,00,
4301089195,00000204,false,Rx,0,8,01,00,00,00,00,00,00,00,
4301089424,00000264,false,Rx,0,6,46,00,00,00,E0,01,00,00,
4301089683,00000224,false,Rx,0,8,00,04,00,00,00,00,00,08,
4301096813,0000076C,false,Rx,0,8,15,00,00,D0,20,00,00,00,
4301106826,0000076C,false,Rx,0,8,16,00,00,00,40,00,00,00,
4301116809,0000076C,false,Rx,0,8,17,04,32,8F,BB,28,00,00,
4301126802,0000076C,false,Rx,0,8,18,DF,DB,39,97,02,00,00,
4301136806,0000076C,false,Rx,0,8,1E,23,40,00,64,00,80,00,
4301146819,0000076C,false,Rx,0,8,1F,02,00,D0,20,00,00,00,
4301156822,0000076C,false,Rx,0,8,20,00,00,00,40,00,00,00,
4301166795,0000076C,false,Rx,0,8,21,04,32,8F,BB,28,00,00,
4301176797,0000076C,false,Rx,0,8,22,DF,DB,39,97,02,00,00,
4301186811,0000076C,false,Rx,0,8,33,00,00,00,00,00,20,84,
4301188906,000002C4,false,Rx,0,8,49,DC,E5,2E,B0,84,25,05,
4301189180,00000204,false,Rx,0,8,01,00,00,00,00,00,00,00,
4301189389,00000264,false,Rx,0,6,46,00,00,00,E0,01,00,00,
4301189646,00000224,false,Rx,0,8,00,04,00,00,00,00,00,08,
4301196818,0000076C,false,Rx,0,8,34,00,00,00,00,00,00,00,
4301206810,0000076C,false,Rx,0,8,35,2A,00,00,00,00,00,00,
4301216823,0000076C,false,Rx,0,8,64,00,00,41,30,46,00,00,
4301226805,0000076C,false,Rx,0,8,66,00,00,00,00,00,00,00,
4301236808,0000076C,false,Rx,0,8,67,00,00,00,00,00,00,00,
4301246811,0000076C,false,Rx,0,8,68,00,00,00,00,00,00,00,
4301256794,0000076C,false,Rx,0,8,69,00,00,00,00,00,9D,FF,
4301266797,0000076C,false,Rx,0,8,6A,00,00,00,00,00,00,00,
4301276792,0000076C,false,Rx,0,8,6B,CD,06,00,00,00,00,00,
4301286805,0000076C,false,Rx,0,8,6C,00,00,00,00,00,1C,00,
4301288920,000002C4,false,Rx,0,8,0A,00,00,00,00,08,00,00,
4301289185,00000204,false,Rx,0,8,01,00,00,00,00,00,00,00,
4301289394,00000264,false,Rx,0,6,47,00,00,00,E0,01,00,00,
4301289651,00000224,false,Rx,0,8,00,04,00,00,00,00,00,08,
4301296792,0000076C,false,Rx,0,8,6D,00,00,00,00,00,00,00,
4301306796,0000076C,false,Rx,0,8,6E,00,00,00,00,00,00,00,
4301316788,0000076C,false,Rx,0,8,6F,00,00,00,00,00,00,00,
4301326802,0000076C,false,Rx,0,8,70,00,00,00,00,00,00,00,
4301336773,0000076C,false,Rx,0,8,71,2C,30,00,2C,38,80,00,
4301346786,0000076C,false,Rx,0,8,77,00,00,5F,C0,0D,00,00,
4301356778,0000076C,false,Rx,0,8,78,00,00,5E,C0,0D,00,00,
4301366791,0000076C,false,Rx,0,8,79,00,00,00,00,00,00,00,
4301376784,0000076C,false,Rx,0,8,7A,01,09,00,00,00,00,00,
4301386838,0000076C,false,Rx,0,8,01,09,09,12,20,0F,12,00,
4301388911,000002C4,false,Rx,0,8,0B,00,00,00,0E,08,00,00,
4301389177,00000204,false,Rx,0,8,01,00,00,00,00,00,00,00,
4301389395,00000264,false,Rx,0,6,46,00,00,00,E0,01,00,00,
4301389652,00000224,false,Rx,0,8,00,04,00,00,00,00,00,08,
4301389901,000003C4,false,Rx,0,8,11,00,00,00,00,00,00,00,
4301396776,0000076C,false,Rx,0,8,02,02,02,02,02,00,01,00,
4301406769,0000076C,false,Rx,0,8,03,60,60,4A,4A,65,66,00,
4301416782,0000076C,false,Rx,0,8,04,0C,17,00,07,00,03,00,
4301426764,0000076C,false,Rx,0,8,05,AC,74,36,37,DC,2E,00,
4301436776,0000076C,false,Rx,0,8,0A,22,80,00,64,00,80,00,
4301446769,0000076C,false,Rx,0,8,0B,10,00,D0,20,FF,0F,00,
4301456783,0000076C,false,Rx,0,8,0C,00,00,00,40,20,40,00,
4301466775,0000076C,false,Rx,0,8,0D,04,32,8F,BB,28,00,00,
4301476767,0000076C,false,Rx,0,8,0E,E0,DB,39,97,02,00,00,
4301486770,0000076C,false,Rx,0,8,14,23,40,00,64,00,80,00,
4301488885,000002C4,false,Rx,0,8,0C,00,00,80,FF,07,00,00,
4301489149,00000204,false,Rx,0,8,01,00,00,00,00,00,00,00,
4301489368,00000264,false,Rx,0,6,46,00,00,00,E0,01,00,00,
4301489627,00000224,false,Rx,0,8,00,04,00,00,00,00,00,08,
4301496778,0000076C,false,Rx,0,8,15,00,00,D0,20,00,00,00,
4301506782,0000076C,false,Rx,0,8,16,00,00,00,40,00,00,00,
4301516754,0000076C,false,Rx,0,8,17,04,32,8F,BB,28,00,00,
4301526756,0000076C,false,Rx,0,8,18,E0,DB,39,97,02,00,00,
4301536770,0000076C,false,Rx,0,8,9E,22,40,00,64,00,80,00,
4301546772,0000076C,false,Rx,0,8,1F,01,00,D0,20,00,00,00,
4301556764,0000076C,false,Rx,0,8,20,00,00,00,40,00,00,00,
4301566747,0000076C,false,Rx,0,8,21,04,32,8F,BB,28,00,00,
4301576749,0000076C,false,Rx,0,8,22,E0,DB,39,97,02,00,00,
4301586773,0000076C,false,Rx,0,8,33,00,00,00,00,00,20,84,
4301588888,000002C4,false,Rx,0,8,0D,00,00,00,00,00,00,00,
4301589152,00000204,false,Rx,0,8,01,00,00,00,00,00,00,00,
4301589360,00000264,false,Rx,0,6,46,00,00,00,E0,01,00,00,
4301589618,00000224,false,Rx,0,8,00,04,00,00,00,00,00,08,
4301596758,0000076C,false,Rx,0,8,34,00,00,00,00,00,00,00,
4301606761,0000076C,false,Rx,0,8,35,2A,00,00,00,00,00,00,
4301616773,0000076C,false,Rx,0,8,64,00,00,41,30,46,00,00,
4301626766,0000076C,false,Rx,0,8,66,00,00,00,00,00,00,00,
4301636758,0000076C,false,Rx,0,8,67,00,00,00,00,00,00,00,
4301646752,0000076C,false,Rx,0,8,68,00,00,00,00,00,00,00,
4301656746,0000076C,false,Rx,0,8,69,00,00,00,00,00,9D,FF,
4301666759,0000076C,false,Rx,0,8,6A,00,00,00,00,00,00,00,
4301676752,0000076C,false,Rx,0,8,6B,CD,06,00,00,00,00,00,
4301686746,0000076C,false,Rx,0,8,6C,00,00,00,00,00,1C,00,
4301688883,000002C4,false,Rx,0,8,12,00,00,00,00,00,00,00,
4301689137,00000204,false,Rx,0,8,01,00,00,00,00,00,00,00,
4301689356,00000264,false,Rx,0,6,46,00,00,00,E0,01,00,00,
4301689613,00000224,false,Rx,0,8,00,04,00,00,00,00,00,08,
4301696744,0000076C,false,Rx,0,8,6D,00,00,00,00,00,00,00,
4301706745,0000076C,false,Rx,0,8,6E,00,00,00,00,00,00,00,
4301716758,0000076C,false,Rx,0,8,6F,00,00,00,00,00,00,00,
4301726741,0000076C,false,Rx,0,8,70,00,00,00,00,00,00,00,
4301736734,0000076C,false,Rx,0,8,71,2C,30,00,2C,38,80,00,
4301746737,0000076C,false,Rx,0,8,77,00,00,5F,C0,0D,00,00,
4301756740,0000076C,false,Rx,0,8,78,00,00,5E,C0,0D,00,00,
4301766732,0000076C,false,Rx,0,8,79,00,00,00,00,00,00,00,
4301776736,0000076C,false,Rx,0,8,7A,01,09,00,00,00,00,00,
4301786781,0000076C,false,Rx,0,8,01,09,09,0E,20,0F,12,00,
4301788856,000002C4,false,Rx,0,8,13,00,00,00,00,00,00,00,
4301789111,00000204,false,Rx,0,8,01,00,00,00,00,00,00,00,
4301789329,00000264,false,Rx,0,6,45,00,00,00,E0,01,00,00,
4301789586,00000224,false,Rx,0,8,00,04,00,00,00,00,00,08,
4301796737,0000076C,false,Rx,0,8,02,02,02,02,02,00,01,00,
4301806730,0000076C,false,Rx,0,8,03,60,60,4A,4A,4B,66,00,
4301816723,0000076C,false,Rx,0,8,04,0C,17,00,07,00,03,00,
4301826715,0000076C,false,Rx,0,8,05,AC,84,36,38,E4,2E,00,
4301836729,0000076C,false,Rx,0,8,0A,22,60,00,64,00,80,00,
4301846731,0000076C,false,Rx,0,8,0B,10,00,D0,20,FF,0F,00,
4301856725,0000076C,false,Rx,0,8,0C,00,00,00,40,20,40,00,
4301866716,0000076C,false,Rx,0,8,0D,04,32,8F,BB,28,00,00,
4301876719,0000076C,false,Rx,0,8,0E,E0,DB,39,97,02,00,00,
4301886732,0000076C,false,Rx,0,8,94,22,40,00,64,00,80,00,
4301888856,000002C4,false,Rx,0,8,14,00,00,00,00,00,00,00,
4301889122,00000204,false,Rx,0,8,01,00,00,00,00,00,00,00,
4301889330,00000264,false,Rx,0,6,45,00,00,00,E0,01,00,00,
4301889587,00000224,false,Rx,0,8,00,04,00,00,00,00,00,08,
4301889826,000003C4,false,Rx,0,8,12,AE,49,F9,A8,EF,3D,8E,
4301896722,0000076C,false,Rx,0,8,15,00,00,D0,20,00,00,00,
4301906726,0000076C,false,Rx,0,8,16,00,00,00,40,00,00,00,
4301916717,0000076C,false,Rx,0,8,17,04,32,8F,BB,28,00,00,
4301926721,0000076C,false,Rx,0,8,18,DF,DB,39,97,02,00,00,
4301936713,0000076C,false,Rx,0,8,9E,22,40,00,64,00,80,00,
4301946716,0000076C,false,Rx,0,8,1F,01,00,D0,20,00,00,00,
4301956718,0000076C,false,Rx,0,8,20,00,00,00,50,00,00,00,
4301966711,0000076C,false,Rx,0,8,21,04,32,8F,BB,28,00,00,
4301976703,0000076C,false,Rx,0,8,22,E0,DB,39,97,02,00,00,
4301986716,0000076C,false,Rx,0,8,33,00,00,00,00,00,20,84,
4301988842,000002C4,false,Rx,0,8,55,00,02,08,00,C0,FE,00,
4301989106,00000204,false,Rx,0,8,01,00,00,00,00,00,00,00,
4301989324,00000264,false,Rx,0,6,45,00,00,00,E0,01,00,00,
4301989582,00000224,false,Rx,0,8,00,04,00,00,00,00,00,08,
4301990704,000002A4,false,Rx,0,8,1D,97,39,CD,71,8E,F5,FF,
4301990849,00000364,false,Rx,0,2,00,78,00,00,00,00,00,00,
4301991110,000003A4,false,Rx,0,8,01,00,00,00,00,00,00,00,
4301996711,0000076C,false,Rx,0,8,34,00,00,00,00,00,00,00,
4302006715,0000076C,false,Rx,0,8,35,2A,00,00,00,00,00,00,
4302016729,0000076C,false,Rx,0,8,64,00,00,41,30,46,00,00,
4302026711,0000076C,false,Rx,0,8,66,00,00,00,00,00,00,00,
4302036702,0000076C,false,Rx,0,8,67,00,00,00,00,00,00,00,
4302046716,0000076C,false,Rx,0,8,68,00,00,00,00,00,00,00,
4302056708,0000076C,false,Rx,0,8,69,00,00,00,00,00,9D,FF,
4302066701,0000076C,false,Rx,0,8,6A,00,00,00,00,00,00,00,
4302076693,0000076C,false,Rx,0,8,6B,CD,06,00,00,00,00,00,
4302086706,0000076C,false,Rx,0,8,6C,00,00,00,00,00,1C,00,
4302088821,000002C4,false,Rx,0,8,16,81,0B,00,00,00,00,00,
4302089085,00000204,false,Rx,0,8,01,00,00,00,00,00,00,00,
4302089293,00000264,false,Rx,0,6,45,00,00,00,E0,01,00,00,
4302089552,00000224,false,Rx,0,8,00,04,00,00,00,00,00,08,
4302096703,0000076C,false,Rx,0,8,6D,00,00,00,00,00,00,00,
4302106695,0000076C,false,Rx,0,8,6E,00,00,00,00,00,00,00,
4302116697,0000076C,false,Rx,0,8,6F,00,00,00,00,00,00,00,
4302126701,0000076C,false,Rx,0,8,70,00,00,00,00,00,00,00,
4302136684,0000076C,false,Rx,0,8,71,2C,30,00,2C,38,80,00,
4302146696,0000076C,false,Rx,0,8,77,00,00,5F,C0,0D,00,00,
4302156690,0000076C,false,Rx,0,8,78,00,00,5E,C0,0D,00,00,
4302166692,0000076C,false,Rx,0,8,79,00,00,00,00,00,00,00,
4302176695,0000076C,false,Rx,0,8,7A,01,09,00,00,00,00,00,
4302186741,0000076C,false,Rx,0,8,01,09,09,0E,20,0F,12,00,
4302188815,000002C4,false,Rx,0,8,00,40,00,D2,00,00,00,00,
4302189079,00000204,false,Rx,0,8,01,00,00,00,00,00,00,00,
4302189298,00000264,false,Rx,0,6,46,00,00,00,E0,01,00,00,
4302189555,00000224,false,Rx,0,8,00,04,00,00,00,00,00,08,
4302196686,0000076C,false,Rx,0,8,02,02,02,02,02,01,01,00,
4302206668,0000076C,false,Rx,0,8,03,60,60,4A,4A,4B,66,00,
4302216683,0000076C,false,Rx,0,8,04,0C,17,00,07,00,03,00,
4302226665,0000076C,false,Rx,0,8,05,AB,84,36,38,DC,2E,00,
4302236679,0000076C,false,Rx,0,8,0A,23,60,00,64,00,80,00,
4302246672,0000076C,false,Rx,0,8,0B,10,00,D0,20,FF,0F,00,
4302256684,0000076C,false,Rx,0,8,0C,00,00,00,40,20,40,00,
4302266677,0000076C,false,Rx,0,8,0D,04,32,8F,BB,28,00,00,
4302276668,0000076C,false,Rx,0,8,0E,DF,DB,39,97,02,00,00,
4302286672,0000076C,false,Rx,0,8,94,22,40,00,64,00,80,00,
4302288798,000002C4,false,Rx,0,8,01,00,00,D2,00,00,00,00,
4302289052,00000204,false,Rx,0,8,01,00,00,00,00,00,00,00,
4302289271,00000264,false,Rx,0,6,47,00,00,00,E0,01,00,00,
4302289528,00000224,false,Rx,0,8,00,04,00,00,00,00,00,08,
4302296679,0000076C,false,Rx,0,8,15,00,00,D0,20,00,00,00,
4302306682,0000076C,false,Rx,0,8,16,00,00,00,40,00,00,00,
4302316663,0000076C,false,Rx,0,8,17,04,32,8F,BB,28,00,00,
4302326665,0000076C,false,Rx,0,8,18,E0,DB,39,97,02,00,00,
4302336668,0000076C,false,Rx,0,8,1E,23,40,00,64,00,80,00,
4302346673,0000076C,false,Rx,0,8,1F,01,00,D0,20,00,00,00,
4302356675,0000076C,false,Rx,0,8,20,00,00,00,40,00,00,00,
4302366657,0000076C,false,Rx,0,8,21,04,32,8F,BB,28,00,00,
4302376659,0000076C,false,Rx,0,8,22,E0,DB,39,97,02,00,00,
4302386682,0000076C,false,Rx,0,8,33,00,00,00,00,00,20,84,
4302388797,000002C4,false,Rx,0,8,02,00,00,D2,00,00,00,00,
4302389052,00000204,false,Rx,0,8,01,00,00,00,00,00,00,00,
4302389271,00000264,false,Rx,0,6,46,00,00,00,E0,01,00,00,
4302389528,00000224,false,Rx,0,8,00,04,00,00,00,00,00,08,
4302389777,000003C4,false,Rx,0,8,14,05,00,00,1B,15,C3,EF,
4302396663,0000076C,false,Rx,0,8,34,00,00,00,00,00,00,00,
4302406666,0000076C,false,Rx,0,8,35,2A,00,00,00,00,00,00,
4302416678,0000076C,false,Rx,0,8,64,00,00,41,30,46,0E,00,
4302426663,0000076C,false,Rx,0,8,66,00,00,00,00,00,00,00,
4302436656,0000076C,false,Rx,0,8,67,00,00,00,00,00,00,00,
4302446659,0000076C,false,Rx,0,8,68,00,00,00,00,00,00,00,
4302456651,0000076C,false,Rx,0,8,69,00,00,00,00,00,9D,FF,
4302466665,0000076C,false,Rx,0,8,6A,00,00,00,00,00,00,00,
4302476658,0000076C,false,Rx,0,8,6B,CD,06,00,00,00,00,00,
4302486661,0000076C,false,Rx,0,8,6C,00,00,00,00,00,1C,00,
4302488776,000002C4,false,Rx,0,8,63,01,16,60,01,00,C0,00,
4302489040,00000204,false,Rx,0,8,01,00,00,00,00,00,00,00,
4302489258,00000264,false,Rx,0,6,45,00,00,00,E0,01,00,00,
4302489517,00000224,false,Rx,0,8,00,04,00,00,00,00,00,08,
4302496647,0000076C,false,Rx,0,8,6D,00,00,00,00,00,00,00,
4302506659,0000076C,false,Rx,0,8,6E,00,00,00,00,00,00,00,
4302516661,0000076C,false,Rx,0,8,6F,00,00,00,00,00,00,00,
4302526654,0000076C,false,Rx,0,8,70,00,00,00,00,00,00,00,
4302536635,0000076C,false,Rx,0,8,71,2C,30,00,2C,38,80,00,
4302546649,0000076C,false,Rx,0,8,77,00,00,5F,C0,0D,00,00,
4302556653,0000076C,false,Rx,0,8,78,00,00,5E,C0,0D,00,00,
4302566645,0000076C,false,Rx,0,8,79,00,00,00,00,00,00,00,
4302576637,0000076C,false,Rx,0,8,7A,01,09,00,00,00,00,00,
4302586693,0000076C,false,Rx,0,8,01,09,09,0E,20,10,12,00,
4302588756,000002C4,false,Rx,0,8,04,00,00,00,00,00,41,00,
4302589021,00000204,false,Rx,0,8,01,00,00,00,00,00,00,00,
4302589237,00000264,false,Rx,0,6,46,00,00,00,E0,01,00,00,
4302589497,00000224,false,Rx,0,8,00,04,00,00,00,00,00,08,
4302596638,0000076C,false,Rx,0,8,02,02,02,02,02,00,01,00,
4302606630,0000076C,false,Rx,0,8,03,60,60,4A,4A,63,66,00,
4302616632,0000076C,false,Rx,0,8,04,0C,17,00,07,00,03,00,
4302626615,0000076C,false,Rx,0,8,05,AB,8C,36,38,E4,2E,00,
4302636638,0000076C,false,Rx,0,8,8A,23,60,00,64,00,80,00,
4302646631,0000076C,false,Rx,0,8,0B,10,00,D0,20,FF,0F,00,
4302656633,0000076C,false,Rx,0,8,0C,00,00,00,40,20,40,00,
4302666627,0000076C,false,Rx,0,8,0D,04,32,8F,BB,28,00,00,
4302676630,0000076C,false,Rx,0,8,0E,DF,DB,39,97,02,00,00,
4302686632,0000076C,false,Rx,0,8,94,22,20,00,64,00,80,00,
4302688748,000002C4,false,Rx,0,8,25,22,00,00,00,00,00,20,
4302689012,00000204,false,Rx,0,8,01,00,00,00,00,00,00,00,
4302689230,00000264,false,Rx,0,6,47,00,00,00,E0,01,00,00,
4302689479,00000224,false,Rx,0,8,00,04,00,00,00,00,00,08,
4302696620,0000076C,false,Rx,0,8,15,00,00,D0,20,00,00,00,
4302706632,0000076C,false,Rx,0,8,16,00,00,00,40,00,00,00,
4302716627,0000076C,false,Rx,0,8,17,04,32,8F,BB,28,00,00,
4302726619,0000076C,false,Rx,0,8,18,E0,DB,39,97,02,00,00,
4302736622,0000076C,false,Rx,0,8,1E,23,40,00,64,00,80,00,
4302746615,0000076C,false,Rx,0,8,1F,01,00,D0,20,00,00,00,
4302756628,0000076C,false,Rx,0,8,20,00,00,00,40,00,00,00,
4302766610,0000076C,false,Rx,0,8,21,04,32,8F,BB,28,00,00,
4302776613,0000076C,false,Rx,0,8,22,E0,DB,39,97,02,00,00,
4302786626,0000076C,false,Rx,0,8,33,00,00,00,00,00,20,84,
4302788731,000002C4,false,Rx,0,8,26,23,41,00,00,00,C0,58,
4302788995,00000204,false,Rx,0,8,01,00,00,00,00,00,00,00,
4302789203,00000264,false,Rx,0,6,47,00,00,00,E0,01,00,00,
4302789471,00000224,false,Rx,0,8,00,04,00,00,00,00,00,08,
4302796622,0000076C,false,Rx,0,8,34,00,00,00,00,00,00,00,
4302806624,0000076C,false,Rx,0,8,35,2A,00,00,00,00,00,00,
4302816636,0000076C,false,Rx,0,8,64,00,00,41,30,46,0E,00,
4302826608,0000076C,false,Rx,0,8,66,00,00,00,00,00,00,00,
4302836612,0000076C,false,Rx,0,8,67,00,00,00,00,00,00,00,
4302846626,0000076C,false,Rx,0,8,68,00,00,00,00,00,00,00,
4302856608,0000076C,false,Rx,0,8,69,00,00,00,00,00,9D,FF,
4302866610,0000076C,false,Rx,0,8,6A,00,00,00,00,00,00,00,
4302876603,0000076C,false,Rx,0,8,6B,CD,06,00,00,00,00,00,
4302886616,0000076C,false,Rx,0,8,6C,00,00,00,00,00,1C,00,
4302888741,000002C4,false,Rx,0,8,07,00,00,00,00,00,00,00,
4302889006,00000204,false,Rx,0,8,01,00,00,00,00,00,00,00,
4302889223,00000264,false,Rx,0,6,47,00,00,00,E0,01,00,00,
4302889482,00000224,false,Rx,0,8,00,04,00,00,00,00,00,08,
4302889720,000003C4,false,Rx,0,8,19,31,31,33,35,35,35,38,
4302896616,0000076C,false,Rx,0,8,6D,00,00,00,00,00,00,00,
4302906598,0000076C,false,Rx,0,8,6E,00,00,00,00,00,00,00,
4302916601,0000076C,false,Rx,0,8,6F,00,00,00,00,00,00,00,
4302926605,0000076C,false,Rx,0,8,70,00,00,00,00,00,00,00,
4302936599,0000076C,false,Rx,0,8,71,2C,30,00,2C,38,80,00,
4302946601,0000076C,false,Rx,0,8,77,00,00,5F,C0,0D,00,00,
4302956594,0000076C,false,Rx,0,8,78,00,00,5E,C0,0D,00,00,
4302966597,0000076C,false,Rx,0,8,79,00,00,00,00,00,00,00,
4302976592,0000076C,false,Rx,0,8,7A,01,09,00,00,00,00,00,
4302986647,0000076C,false,Rx,0,8,01,09,09,12,20,0E,12,00,
4302988721,000002C4,false,Rx,0,8,08,00,00,00,1C,00,00,00,
4302988985,00000204,false,Rx,0,8,01,00,00,00,00,00,00,00,
4302989202,00000264,false,Rx,0,6,46,00,00,00,E0,01,00,00,
4302989460,00000224,false,Rx,0,8,00,04,00,00,00,00,00,08,
4302990603,000002A4,false,Rx,0,8,1C,97,39,CD,73,8E,F5,FF,
4302990738,00000364,false,Rx,0,2,00,78,00,00,00,00,00,00,
4302990998,000003A4,false,Rx,0,8,00,00,00,0F,00,00,00,00,
4302996590,0000076C,false,Rx,0,8,02,02,02,02,02,01,01,00,
4303006573,0000076C,false,Rx,0,8,03,60,60,4A,4A,62,66,00,
4303016587,0000076C,false,Rx,0,8,04,0C,17,00,07,00,03,00,
4303026580,0000076C,false,Rx,0,8,05,AD,84,36,38,DC,2E,00,
4303036583,0000076C,false,Rx,0,8,8A,22,40,00,64,00,80,00,
4303046577,0000076C,false,Rx,0,8,0B,10,00,D0,20,FF,0F,00,
4303056590,0000076C,false,Rx,0,8,0C,00,00,00,40,20,40,00,
4303066582,0000076C,false,Rx,0,8,0D,04,32,8F,BB,28,00,00,
4303076575,0000076C,false,Rx,0,8,0E,E0,DB,39,97,02,00,00,
4303086577,0000076C,false,Rx,0,8,94,22,40,00,64,00,80,00,
4303088682,000002C4,false,Rx,0,8,49,DC,E5,2E,B0,84,25,05,
4303088946,00000204,false,Rx,0,8,01,00,00,00,00,00,00,00,
4303089153,00000264,false,Rx,0,6,46,00,00,00,E0,01,00,00,
4303089413,00000224,false,Rx,0,8,00,04,00,00,00,00,00,08,
4303096584,0000076C,false,Rx,0,8,15,00,00,D0,20,00,00,00,
4303106587,0000076C,false,Rx,0,8,16,00,00,00,40,00,00,00,
4303116569,0000076C,false,Rx,0,8,17,04,32,8F,BB,28,00,00,
4303126571,0000076C,false,Rx,0,8,18,DF,DB,3A,97,02,00,00,
4303136574,0000076C,false,Rx,0,8,9E,22,40,00,64,00,80,00,
4303146577,0000076C,false,Rx,0,8,1F,01,00,D0,20,00,00,00,
4303156579,0000076C,false,Rx,0,8,20,00,00,00,40,00,00,00,
4303166564,0000076C,false,Rx,0,8,21,04,32,8F,BB,28,00,00,
4303176557,0000076C,false,Rx,0,8,22,E0,DB,39,97,02,00,00,
4303186580,0000076C,false,Rx,0,8,33,00,00,00,00,00,20,84,
4303188696,000002C4,false,Rx,0,8,0A,00,00,00,00,08,00,00,
4303188960,00000204,false,Rx,0,8,01,00,00,00,00,00,00,00,
4303189167,00000264,false,Rx,0,6,47,00,00,00,E0,01,00,00,
4303189426,00000224,false,Rx,0,8,00,04,00,00,00,00,00,08,
4303196576,0000076C,false,Rx,0,8,34,00,00,00,00,00,00,00,
4303206571,0000076C,false,Rx,0,8,35,2A,00,00,00,00,00,00,
4303216584,0000076C,false,Rx,0,8,64,00,00,41,30,46,00,00,
4303226565,0000076C,false,Rx,0,8,66,00,00,00,00,00,00,00,
4303236568,0000076C,false,Rx,0,8,67,00,00,00,00,00,00,00,
4303246561,0000076C,false,Rx,0,8,68,00,00,00,00,00,00,00,
4303256563,0000076C,false,Rx,0,8,69,00,00,00,00,00,9D,FF,
4303266566,0000076C,false,Rx,0,8,6A,00,00,00,00,00,00,00,
4303276559,0000076C,false,Rx,0,8,6B,CD,06,00,00,00,00,00,
4303286561,0000076C,false,Rx,0,8,6C,00,00,00,00,00,1C,00,
4303288687,000002C4,false,Rx,0,8,0B,00,00,00,0E,08,00,00,
4303288951,00000204,false,Rx,0,8,01,00,00,00,00,00,00,00,
4303289169,00000264,false,Rx,0,6,46,00,00,00,E0,01,00,00,
4303289417,00000224,false,Rx,0,8,00,04,00,00,00,00,00,08,
4303296557,0000076C,false,Rx,0,8,6D,00,00,00,00,00,00,00,
4303306560,0000076C,false,Rx,0,8,6E,00,00,00,00,00,00,00,
4303316562,0000076C,false,Rx,0,8,6F,00,00,00,00,00,00,00,
4303326565,0000076C,false,Rx,0,8,70,00,00,00,00,00,00,00,
4303336538,0000076C,false,Rx,0,8,71,2C,30,00,2C,38,80,00,
4303346550,0000076C,false,Rx,0,8,77,00,00,5F,C0,0D,00,00,
4303356553,0000076C,false,Rx,0,8,78,00,00,5E,C0,0D,00,00,
4303366557,0000076C,false,Rx,0,8,79,00,00,00,00,00,00,00,
4303376538,0000076C,false,Rx,0,8,7A,01,09,00,00,00,00,00,
4303386594,0000076C,false,Rx,0,8,01,09,09,0E,20,10,12,00,
4303388677,000002C4,false,Rx,0,8,0C,00,00,80,FF,07,00,00,
4303388953,00000204,false,Rx,0,8,01,00,00,00,00,00,00,00,
4303389170,00000264,false,Rx,0,6,46,00,00,00,E0,01,00,00,
4303389418,00000224,false,Rx,0,8,00,04,00,00,00,00,00,08,
4303389667,000003C4,false,Rx,0,8,1A,2D,30,30,2D,43,00,00,
4303396543,0000076C,false,Rx,0,8,02,02,02,02,02,00,01,00,
4303406535,0000076C,false,Rx,0,8,03,60,60,4A,4A,62,66,00,
4303416537,0000076C,false,Rx,0,8,04,0C,17,00,07,00,03,00,
4303426530,0000076C,false,Rx,0,8,05,AC,84,36,37,DC,2E,00,
4303436543,0000076C,false,Rx,0,8,0A,23,40,00,64,00,80,00,
4303446535,0000076C,false,Rx,0,8,0B,10,00,D0,20,FF,0F,00,
4303456548,0000076C,false,Rx,0,8,0C,00,00,00,40,20,40,00,
4303466531,0000076C,false,Rx,0,8,0D,04,32,8F,BB,28,00,00,
4303476525,0000076C,false,Rx,0,8,0E,DF,DB,39,97,02,00,00,
4303486537,0000076C,false,Rx,0,8,94,21,40,00,64,00,80,00,
4303488663,000002C4,false,Rx,0,8,0D,00,00,00,00,00,00,00,
4303488928,00000204,false,Rx,0,8,01,00,00,00,00,00,00,00,
4303489145,00000264,false,Rx,0,6,46,00,00,00,E0,01,00,00,
4303489404,00000224,false,Rx,0,8,00,04,00,00,00,00,00,08,
4303496535,0000076C,false,Rx,0,8,15,00,00,D0,20,00,00,00,
4303506537,0000076C,false,Rx,0,8,16,00,00,00,40,00,00,00,
4303516521,0000076C,false,Rx,0,8,17,04,32,8F,BB,28,00,00,
4303526524,0000076C,false,Rx,0,8,18,DF,DB,39,97,02,00,00,
4303536538,0000076C,false,Rx,0,8,9E,22,40,00,64,00,80,00,
4303546530,0000076C,false,Rx,0,8,1F,02,00,D0,20,00,00,00,
4303556532,0000076C,false,Rx,0,8,20,00,00,00,40,00,40,00,
4303566515,0000076C,false,Rx,0,8,21,04,32,8F,BB,28,00,00,
4303576518,0000076C,false,Rx,0,8,22,E0,DB,39,97,02,00,00,
4303586541,0000076C,false,Rx,0,8,33,00,00,00,00,00,20,84,
4303588657,000002C4,false,Rx,0,8,12,00,00,00,00,00,00,00,
4303588911,00000204,false,Rx,0,8,01,00,00,00,00,00,00,00,
4303589128,00000264,false,Rx,0,6,46,00,00,00,E0,01,00,00,
4303589387,00000224,false,Rx,0,8,00,04,00,00,00,00,00,08,
4303596517,0000076C,false,Rx,0,8,34,00,00,00,00,00,00,00,
4303606520,0000076C,false,Rx,0,8,35,2A,00,00,00,00,00,00,
4303616545,0000076C,false,Rx,0,8,64,00,00,41,30,46,00,00,
4303626527,0000076C,false,Rx,0,8,66,00,00,00,00,00,00,00,
4303636519,0000076C,false,Rx,0,8,67,00,00,00,00,00,00,00,
4303646521,0000076C,false,Rx,0,8,68,00,00,00,00,00,00,00,
4303656513,0000076C,false,Rx,0,8,69,00,00,00,00,00,9D,FF,
4303666527,0000076C,false,Rx,0,8,6A,00,00,00,00,00,00,00,
4303676510,0000076C,false,Rx,0,8,6B,CD,06,00,00,00,00,00,
4303686513,0000076C,false,Rx,0,8,6C,00,00,00,00,00,1C,00,
4303688629,000002C4,false,Rx,0,8,13,00,00,00,00,00,00,00,
4303688893,00000204,false,Rx,0,8,01,00,00,00,00,00,00,00,
4303689110,00000264,false,Rx,0,6,47,00,00,00,E0,01,00,00,
4303689369,00000224,false,Rx,0,8,00,04,00,00,00,00,00,08,
4303696510,0000076C,false,Rx,0,8,6D,00,00,00,00,00,00,00,
4303706514,0000076C,false,Rx,0,8,6E,00,00,00,00,00,00,00,
4303716507,0000076C,false,Rx,0,8,6F,00,00,00,00,00,00,00,
4303726511,0000076C,false,Rx,0,8,70,00,00,00,00,00,00,00,
4303736493,0000076C,false,Rx,0,8,71,2C,30,00,2C,38,80,00,
4303746517,0000076C,false,Rx,0,8,77,00,00,5F,C0,0D,00,00,
4303756500,0000076C,false,Rx,0,8,78,00,00,5E,C0,0D,00,00,
4303766503,0000076C,false,Rx,0,8,79,00,00,00,00,00,00,00,
4303776496,0000076C,false,Rx,0,8,7A,01,09,00,00,00,00,00,
4303786551,0000076C,false,Rx,0,8,01,09,09,0E,20,10,12,00,
4303788626,000002C4,false,Rx,0,8,14,00,00,00,00,00,00,00,
4303788890,00000204,false,Rx,0,8,01,00,00,00,00,00,00,00,
4303789108,00000264,false,Rx,0,6,46,00,00,00,E0,01,00,00,
4303789366,00000224,false,Rx,0,8,00,04,00,00,00,00,00,08,
4303796496,0000076C,false,Rx,0,8,02,02,02,02,02,00,01,00,
4303806479,0000076C,false,Rx,0,8,03,60,60,4A,4A,62,66,00,
4303816491,0000076C,false,Rx,0,8,04,0C,17,00,07,00,03,00,
4303826474,0000076C,false,Rx,0,8,05,AB,84,36,38,DC,2E,00,
4303836497,0000076C,false,Rx,0,8,0A,23,40,00,64,00,80,00,
4303846489,0000076C,false,Rx,0,8,0B,11,00,D0,20,FF,0F,00,
4303856491,0000076C,false,Rx,0,8,0C,00,00,00,40,20,40,00,
4303866484,0000076C,false,Rx,0,8,0D,04,32,8F,BB,28,00,00,
4303876486,0000076C,false,Rx,0,8,0E,DF,DB,39,97,02,00,00,
4303886490,0000076C,false,Rx,0,8,94,22,40,00,64,00,80,00,
4303888616,000002C4,false,Rx,0,8,55,00,02,08,00,C0,FE,00,
4303888881,00000204,false,Rx,0,8,01,00,00,00,00,00,00,00,
4303889098,00000264,false,Rx,0,6,46,00,00,00,E0,01,00,00,
4303889356,00000224,false,Rx,0,8,00,04,00,00,00,00,00,08,
4303889605,000003C4,false,Rx,0,8,1B,00,00,00,00,00,00,00,
4303896481,0000076C,false,Rx,0,8,15,00,00,D0,20,00,00,00,
4303906494,0000076C,false,Rx,0,8,16,00,00,00,40,00,00,00,
4303916485,0000076C,false,Rx,0,8,17,04,32,8F,BB,28,00,00,
4303926477,0000076C,false,Rx,0,8,18,E0,DB,39,97,02,00,00,
4303936481,0000076C,false,Rx,0,8,9E,21,40,00,64,00,80,00,
4303946473,0000076C,false,Rx,0,8,1F,01,00,D0,20,00,00,00,
4303956485,0000076C,false,Rx,0,8,20,00,00,00,40,00,40,00,
4303966468,0000076C,false,Rx,0,8,21,04,32,8F,BB,28,00,00,
4303976470,0000076C,false,Rx,0,8,22,E0,DB,39,97,02,00,00,
4303986485,0000076C,false,Rx,0,8,33,00,00,00,00,00,20,84,
4303988589,000002C4,false,Rx,0,8,16,81,0B,00,00,00,00,00,
4303988854,00000204,false,Rx,0,8,01,00,00,00,00,00,00,00,
4303989061,00000264,false,Rx,0,6,45,00,00,00,E0,01,00,00,
4303989330,00000224,false,Rx,0,8,00,04,00,00,00,00,00,08,
4303990473,000002A4,false,Rx,0,8,1C,9F,F9,CC,73,8E,F5,FF,
4303990618,00000364,false,Rx,0,2,00,78,00,00,00,00,00,00,
4303990878,000003A4,false,Rx,0,8,01,00,00,00,00,00,00,00,
4303996472,0000076C,false,Rx,0,8,34,00,00,00,00,00,00,00,
4304006486,0000076C,false,Rx,0,8,35,2A,00,00,00,00,00,00,
4304016499,0000076C,false,Rx,0,8,64,00,00,41,30,46,00,00,
4304026472,0000076C,false,Rx,0,8,66,00,00,00,00,00,00,00,
4304036474,0000076C,false,Rx,0,8,67,00,00,00,00,00,00,00,
4304046477,0000076C,false,Rx,0,8,68,00,00,00,00,00,00,00,
4304056468,0000076C,false,Rx,0,8,69,00,00,00,00,00,9D,FF,
4304066471,0000076C,false,Rx,0,8,6A,00,00,00,00,00,00,00,
4304076463,0000076C,false,Rx,0,8,6B,CD,06,00,00,00,00,00,
4304086475,0000076C,false,Rx,0,8,6C,00,00,00,00,00,1C,00,
4304088591,000002C4,false,Rx,0,8,00,40,00,D2,00,00,00,00,
4304088855,00000204,false,Rx,0,8,01,00,00,00,00,00,00,00,
4304089062,00000264,false,Rx,0,6,45,00,00,00,E0,01,00,00,
4304089321,00000224,false,Rx,0,8,00,04,00,00,00,00,00,08,
4304096472,0000076C,false,Rx,0,8,6D,00,00,00,00,00,00,00,
4304106465,0000076C,false,Rx,0,8,6E,00,00,00,00,00,00,00,
4304116458,0000076C,false,Rx,0,8,6F,00,00,00,00,00,00,00,
4304126462,0000076C,false,Rx,0,8,70,00,00,00,00,00,00,00,
4304136455,0000076C,false,Rx,0,8,71,2C,30,00,2C,38,80,00,
4304146459,0000076C,false,Rx,0,8,77,00,00,5F,C0,0D,00,00,
4304156452,0000076C,false,Rx,0,8,78,00,00,5E,C0,0D,00,00,
4304166455,0000076C,false,Rx,0,8,79,00,00,00,00,00,00,00,
4304176457,0000076C,false,Rx,0,8,7A,01,09,00,00,00,00,00,
4304186502,0000076C,false,Rx,0,8,01,09,09,12,20,0E,12,00,
4304188576,000002C4,false,Rx,0,8,01,00,00,D2,00,00,00,00,
4304188840,00000204,false,Rx,0,8,01,00,00,00,00,00,00,00,
4304189057,00000264,false,Rx,0,6,46,00,00,00,E0,01,00,00,
4304189317,00000224,false,Rx,0,8,00,04,00,00,00,00,00,08,
4304196447,0000076C,false,Rx,0,8,02,02,02,02,02,01,01,00,
4304206439,0000076C,false,Rx,0,8,03,60,60,4A,4A,63,66,00,
4304216452,0000076C,false,Rx,0,8,04,0C,17,00,07,00,03,00,
4304226445,0000076C,false,Rx,0,8,05,AC,84,36,36,E4,2E,00,
4304236447,0000076C,false,Rx,0,8,0A,22,40,00,64,00,80,00,
4304246439,0000076C,false,Rx,0,8,0B,10,00,D0,20,FF,0F,00,
4304256452,0000076C,false,Rx,0,8,0C,00,00,00,40,20,40,00,
4304266443,0000076C,false,Rx,0,8,0D,04,32,8F,BB,28,00,00,
4304276436,0000076C,false,Rx,0,8,0E,DF,DB,39,97,02,00,00,
4304286438,0000076C,false,Rx,0,8,94,22,20,00,64,00,80,00,
4304288554,000002C4,false,Rx,0,8,02,00,00,D2,00,00,00,00,
4304288818,00000204,false,Rx,0,8,01,00,00,00,00,00,00,00,
4304289036,00000264,false,Rx,0,6,46,00,00,00,E0,01,00,00,
4304289294,00000224,false,Rx,0,8,00,04,00,00,00,00,00,08,
4304296436,0000076C,false,Rx,0,8,15,00,00,D0,20,00,00,00,
4304306448,0000076C,false,Rx,0,8,16,00,00,00,40,00,00,00,
4304316431,0000076C,false,Rx,0,8,17,04,32,8F,BB,28,00,00,
4304326424,0000076C,false,Rx,0,8,18,E0,DB,39,97,02,00,00,
4304336438,0000076C,false,Rx,0,8,1E,23,40,00,64,00,80,00,
4304346440,0000076C,false,Rx,0,8,1F,01,00,D0,20,00,00,00,
4304356433,0000076C,false,Rx,0,8,20,00,00,00,40,00,40,00,
4304366424,0000076C,false,Rx,0,8,21,04,32,8F,BB,28,00,00,
4304376417,0000076C,false,Rx,0,8,22,DF,DB,3A,97,02,00,00,
4304386441,0000076C,false,Rx,0,8,33,00,00,00,00,00,20,84,
4304388557,000002C4,false,Rx,0,8,83,01,16,60,01,00,C0,00,
4304388812,00000204,false,Rx,0,8,01,00,00,00,00,00,00,00,
4304389028,00000264,false,Rx,0,6,46,00,00,00,E0,01,00,00,
4304389287,00000224,false,Rx,0,8,00,04,00,00,00,00,00,08,
4304389524,000003C4,false,Rx,0,8,1D,41,4E,4E,31,38,32,39,
4304396441,0000076C,false,Rx,0,8,34,00,00,00,00,00,00,00,
4304406434,0000076C,false,Rx,0,8,35,2A,00,00,00,00,00,00,
4304416437,0000076C,false,Rx,0,8,64,00,00,41,30,46,00,00,
4304426429,0000076C,false,Rx,0,8,66,00,00,00,00,00,00,00,
4304436431,0000076C,false,Rx,0,8,67,00,00,00,00,00,00,00,
4304446424,0000076C,false,Rx,0,8,68,00,00,00,00,00,00,00,
4304456417,0000076C,false,Rx,0,8,69,00,00,00,00,00,9D,FF,
4304466420,0000076C,false,Rx,0,8,6A,00,00,00,00,00,00,00,
4304476424,0000076C,false,Rx,0,8,6B,CD,06,00,00,00,00,00,
4304486417,0000076C,false,Rx,0,8,6C,00,00,00,00,00,1C,00,
4304488542,000002C4,false,Rx,0,8,04,00,00,00,00,00,41,00,
4304488807,00000204,false,Rx,0,8,01,00,00,00,00,00,00,00,
4304489024,00000264,false,Rx,0,6,46,00,00,00,E0,01,00,00,
4304489282,00000224,false,Rx,0,8,00,04,00,00,00,00,00,08,
4304494394,00000424,false,Rx,0,8,1F,80,01,00,00,00,00,00,
4304496417,0000076C,false,Rx,0,8,6D,00,00,00,00,00,00,00,
4304506412,0000076C,false,Rx,0,8,6E,00,00,00,00,00,00,00,
4304516426,0000076C,false,Rx,0,8,6F,00,00,00,00,00,00,00,
4304526418,0000076C,false,Rx,0,8,70,00,00,00,00,00,00,00,
4304536402,0000076C,false,Rx,0,8,71,2C,30,00,2C,38,80,00,
4304546405,0000076C,false,Rx,0,8,77,00,00,5F,C0,0D,00,00,
4304556407,0000076C,false,Rx,0,8,78,00,00,5E,C0,0D,00,00,
4304566412,0000076C,false,Rx,0,8,79,00,00,00,00,00,00,00,
4304576405,0000076C,false,Rx,0,8,7A,01,09,00,00,00,00,00,
4304586448,0000076C,false,Rx,0,8,01,09,09,13,20,10,12,00,
4304588524,000002C4,false,Rx,0,8,25,22,00,00,00,00,00,20,
4304588777,00000204,false,Rx,0,8,01,00,00,00,00,00,00,00,
4304588994,00000264,false,Rx,0,6,45,00,00,00,E0,01,00,00,
4304589254,00000224,false,Rx,0,8,00,04,00,00,00,00,00,08,
4304596404,0000076C,false,Rx,0,8,02,02,02,02,02,00,01,00,
4304606397,0000076C,false,Rx,0,8,03,60,60,4A,4A,4B,66,00,
4304616389,0000076C,false,Rx,0,8,04,0C,17,00,07,00,03,00,
4304626381,0000076C,false,Rx,0,8,05,AB,8C,36,38,E4,2E,00,
4304636395,0000076C,false,Rx,0,8,8A,22,40,00,64,00,80,00,
4304646398,0000076C,false,Rx,0,8,0B,10,00,D0,20,FF,0F,00,
4304656402,0000076C,false,Rx,0,8,0C,00,00,00,40,20,40,00,
4304666385,0000076C,false,Rx,0,8,0D,04,32,8F,BB,28,00,00,
4304676388,0000076C,false,Rx,0,8,0E,E0,DB,39,97,02,00,00,
4304686402,0000076C,false,Rx,0,8,14,22,40,00,64,00,80,00,
4304688517,000002C4,false,Rx,0,8,26,23,41,00,00,00,C0,58,
4304688771,00000204,false,Rx,0,8,01,00,00,00,00,00,00,00,
4304688988,00000264,false,Rx,0,6,46,00,00,00,E0,01,00,00,
4304689247,00000224,false,Rx,0,8,00,04,00,00,00,00,00,08,
4304696388,0000076C,false,Rx,0,8,15,00,00,D0,20,00,00,00,
4304706390,0000076C,false,Rx,0,8,16,00,00,00,40,00,00,00,
4304716383,0000076C,false,Rx,0,8,17,04,32,8F,BB,28,00,00,
4304726385,0000076C,false,Rx,0,8,18,DF,DB,39,97,02,00,00,
4304736398,0000076C,false,Rx,0,8,1E,22,40,00,64,00,80,00,
4304746390,0000076C,false,Rx,0,8,1F,02,00,D0,20,00,00,00,
4304756395,0000076C,false,Rx,0,8,20,00,00,00,40,00,00,00,
4304766379,0000076C,false,Rx,0,8,21,04,32,8F,BB,28,00,00,
4304776383,0000076C,false,Rx,0,8,22,DF,DB,39,97,02,00,00,
4304786386,0000076C,false,Rx,0,8,33,00,00,00,00,00,20,84,
4304788512,000002C4,false,Rx,0,8,07,00,00,00,00,00,00,00,
4304788776,00000204,false,Rx,0,8,01,00,00,00,00,00,00,00,
4304788994,00000264,false,Rx,0,6,46,00,00,00,E0,01,00,00,
4304789253,00000224,false,Rx,0,8,00,04,00,00,00,00,00,08,
4304796384,0000076C,false,Rx,0,8,34,00,00,00,00,00,00,00,
4304806387,0000076C,false,Rx,0,8,35,2A,00,00,00,00,00,00,
4304816400,0000076C,false,Rx,0,8,64,00,00,41,20,46,0E,00,
4304826371,0000076C,false,Rx,0,8,66,00,00,00,00,00,00,00,
4304836373,0000076C,false,Rx,0,8,67,00,00,00,00,00,00,00,
4304846376,0000076C,false,Rx,0,8,68,00,00,00,00,00,00,00,
4304856379,0000076C,false,Rx,0,8,69,00,00,00,00,00,9D,FF,
4304866372,0000076C,false,Rx,0,8,6A,00,00,00,00,00,00,00,
4304876364,0000076C,false,Rx,0,8,6B,CD,06,00,00,00,00,00,
4304886378,0000076C,false,Rx,0,8,6C,00,00,00,00,00,1C,00,
4304888493,000002C4,false,Rx,0,8,08,00,00,00,1C,00,00,00,
4304888758,00000204,false,Rx,0,8,01,00,00,00,00,00,00,00,
4304888975,00000264,false,Rx,0,6,46,00,00,00,E0,01,00,00,
4304889244,00000224,false,Rx,0,8,00,04,00,00,00,00,00,08,
4304889491,000003C4,false,Rx,0,8,1E,30,30,30,30,30,51,5A,
4304896378,0000076C,false,Rx,0,8,6D,00,00,00,00,00,00,00,
4304906370,0000076C,false,Rx,0,8,6E,00,00,00,00,00,00,00,
4304916362,0000076C,false,Rx,0,8,6F,00,00,00,00,00,00,00,
4304926366,0000076C,false,Rx,0,8,70,00,00,00,00,00,00,00,
4304936360,0000076C,false,Rx,0,8,71,2C,30,00,2C,38,80,00,
4304946373,0000076C,false,Rx,0,8,77,00,00,5F,C0,0D,00,00,
4304956355,0000076C,false,Rx,0,8,78,00,00,5E,C0,0D,00,00,
4304966357,0000076C,false,Rx,0,8,79,00,00,00,00,00,00,00,
4304976360,0000076C,false,Rx,0,8,7A,01,09,00,00,00,00,00,
4304986414,0000076C,false,Rx,0,8,01,09,09,0E,20,0F,12,00,
4304988468,000002C4,false,Rx,0,8,49,DC,E5,2E,B0,84,25,05,
4304988733,00000204,false,Rx,0,8,01,00,00,00,00,00,00,00,
4304988950,00000264,false,Rx,0,6,46,00,00,00,E0,01,00,00,
4304989207,00000224,false,Rx,0,8,00,04,00,00,00,00,00,08,
4304990361,000002A4,false,Rx,0,8,1C,9F,39,CD,73,8E,F5,FF,
4304990529,00000364,false,Rx,0,2,00,78,00,00,00,00,00,00,
4304990775,000003A4,false,Rx,0,8,00,00,00,0F,04,00,00,00,
4304996349,0000076C,false,Rx,0,8,02,02,02,02,02,01,01,00,
4305006341,0000076C,false,Rx,0,8,03,60,60,4A,4A,63,66,00,
4305016354,0000076C,false,Rx,0,8,04,0C,17,00,07,00,03,00,
4305026346,0000076C,false,Rx,0,8,05,AC,74,36,38,DC,2E,00,
4305036360,0000076C,false,Rx,0,8,0A,23,40,00,64,00,80,00,
4305046342,0000076C,false,Rx,0,8,0B,10,00,D0,20,FF,0F,00,
4305056354,0000076C,false,Rx,0,8,0C,00,00,00,40,20,40,00,
4305066346,0000076C,false,Rx,0,8,0D,04,32,8F,BB,28,00,00,
4305076349,0000076C,false,Rx,0,8,0E,E0,DB,39,97,02,00,00,
4305086341,0000076C,false,Rx,0,8,94,22,40,00,64,00,80,00,
4305088477,000002C4,false,Rx,0,8,0A,00,00,00,00,08,00,00,
4305088741,00000204,false,Rx,0,8,01,00,00,00,00,00,00,00,
4305088958,00000264,false,Rx,0,6,46,00,00,00,E0,01,00,00,
4305089217,00000224,false,Rx,0,8,00,04,00,00,00,00,00,08,
4305096338,0000076C,false,Rx,0,8,15,00,00,D0,20,00,00,00,
4305106351,0000076C,false,Rx,0,8,16,00,00,00,40,00,00,00,
4305116344,0000076C,false,Rx,0,8,17,04,32,8F,BB,28,00,00,
4305126326,0000076C,false,Rx,0,8,18,E2,DB,38,97,02,00,00,
4305136339,0000076C,false,Rx,0,8,9E,22,40,00,64,00,80,00,
4305146333,0000076C,false,Rx,0,8,1F,01,00,D0,20,00,00,00,
4305156346,0000076C,false,Rx,0,8,20,00,00,00,40,00,00,00,
4305166328,0000076C,false,Rx,0,8,21,04,32,8F,BB,28,00,00,
4305176331,0000076C,false,Rx,0,8,22,DF,DB,39,97,02,00,00,
4305186334,0000076C,false,Rx,0,8,33,00,00,00,00,00,20,84,
4305188450,000002C4,false,Rx,0,8,0B,00,00,00,0E,08,00,00,
4305188713,00000204,false,Rx,0,8,01,00,00,00,00,00,00,00,
4305188930,00000264,false,Rx,0,6,46,00,00,00,E0,01,00,00,
4305189189,00000224,false,Rx,0,8,00,04,00,00,00,00,00,08,
4305196341,0000076C,false,Rx,0,8,34,00,00,00,00,00,00,00,
4305206344,0000076C,false,Rx,0,8,35,2A,00,00,00,00,00,00,
4305216357,0000076C,false,Rx,0,8,64,00,00,41,30,46,00,00,
4305226328,0000076C,false,Rx,0,8,66,00,00,00,00,00,00,00,
4305236331,0000076C,false,Rx,0,8,67,00,00,00,00,00,00,00,
4305246334,0000076C,false,Rx,0,8,68,00,00,00,00,00,00,00,
4305256316,0000076C,false,Rx,0,8,69,00,00,00,00,00,9D,FF,
4305266330,0000076C,false,Rx,0,8,6A,00,00,00,00,00,00,00,
4305276322,0000076C,false,Rx,0,8,6B,CD,06,00,00,00,00,00,
4305286336,0000076C,false,Rx,0,8,6C,00,00,00,00,00,1C,00,
4305288452,000002C4,false,Rx,0,8,0C,00,00,80,FF,07,00,00,
4305288705,00000204,false,Rx,0,8,01,00,00,00,00,00,00,00,
4305288924,00000264,false,Rx,0,6,46,00,00,00,E0,01,00,00,
4305289181,00000224,false,Rx,0,8,00,04,00,00,00,00,00,08,
4305296322,0000076C,false,Rx,0,8,6D,00,00,00,00,00,00,00,
4305306325,0000076C,false,Rx,0,8,6E,00,00,00,00,00,00,00,
4305316317,0000076C,false,Rx,0,8,6F,00,00,00,00,00,00,00,
4305326330,0000076C,false,Rx,0,8,70,00,00,00,00,00,00,00,
4305336302,0000076C,false,Rx,0,8,71,2C,30,00,2C,38,80,00,
4305346316,0000076C,false,Rx,0,8,77,00,00,5F,C0,0D,00,00,
4305356309,0000076C,false,Rx,0,8,78,00,00,5E,C0,0D,00,00,
4305366323,0000076C,false,Rx,0,8,79,00,00,00,00,00,00,00,
4305376306,0000076C,false,Rx,0,8,7A,01,09,00,00,00,00,00,
4305386360,0000076C,false,Rx,0,8,01,09,09,13,20,0E,12,00,
4305388528,000002C4,false,Rx,0,8,0D,00,00,00,00,00,00,00,
4305388783,00000204,false,Rx,0,8,01,00,00,00,00,00,00,00,
4305389000,00000264,false,Rx,0,6,47,00,00,00,E0,01,00,00,
4305389289,00000224,false,Rx,0,8,00,04,00,00,00,00,00,08,
4305396305,0000076C,false,Rx,0,8,02,02,02,04,04,00,01,00,
4305406299,0000076C,false,Rx,0,8,03,60,60,4A,4A,65,66,00,
4305416313,0000076C,false,Rx,0,8,04,0C,17,00,07,00,03,00,
4305426294,0000076C,false,Rx,0,8,05,AC,7C,36,38,D4,2E,00,
4305436307,0000076C,false,Rx,0,8,8A,22,40,00,64,00,80,00,
4305446299,0000076C,false,Rx,0,8,0B,11,00,D0,20,FF,0F,00,
4305456314,0000076C,false,Rx,0,8,0C,00,00,00,40,20,40,00,
4305466295,0000076C,false,Rx,0,8,0D,04,32,8F,BB,28,00,00,
4305476288,0000076C,false,Rx,0,8,0E,E0,DB,39,97,02,00,00,
4305486300,0000076C,false,Rx,0,8,94,22,40,00,64,00,80,00,
4305488425,000002C4,false,Rx,0,8,12,00,00,00,00,00,00,00,
4305488690,00000204,false,Rx,0,8,01,00,00,00,00,00,00,00,
4305488896,00000264,false,Rx,0,6,45,00,00,00,E0,01,00,00,
4305489164,00000224,false,Rx,0,8,00,04,00,00,00,00,00,08,
4305496307,0000076C,false,Rx,0,8,15,00,00,D0,20,00,00,00,
4305506300,0000076C,false,Rx,0,8,16,00,00,00,40,00,00,00,
4305516283,0000076C,false,Rx,0,8,17,04,32,8F,BB,28,00,00,
4305526285,0000076C,false,Rx,0,8,18,DF,DB,39,97,02,00,00,
4305536302,0000076C,false,Rx,0,8,1E,23,40,00,64,00,80,00,
4305546295,0000076C,false,Rx,0,8,1F,02,00,D0,20,00,00,00,
4305556298,0000076C,false,Rx,0,8,20,00,00,00,40,00,00,00,
4305566281,0000076C,false,Rx,0,8,21,04,32,8F,BB,28,00,00,
4305576284,0000076C,false,Rx,0,8,22,DF,DB,39,97,02,00,00,
4305586297,0000076C,false,Rx,0,8,33,00,00,00,00,00,20,84,
4305588412,000002C4,false,Rx,0,8,13,00,00,00,00,00,00,00,
4305588676,00000204,false,Rx,0,8,01,00,00,00,00,00,00,00,
4305588883,00000264,false,Rx,0,6,45,00,00,00,E0,01,00,00,
4305589141,00000224,false,Rx,0,8,00,04,00,00,00,00,00,08,
4305596283,0000076C,false,Rx,0,8,34,00,00,00,00,00,00,00,
4305606286,0000076C,false,Rx,0,8,35,2A,00,00,00,00,00,00,
4305616300,0000076C,false,Rx,0,8,64,00,00,41,30,46,00,00,
4305626293,0000076C,false,Rx,0,8,66,00,00,00,00,00,00,00,
4305636276,0000076C,false,Rx,0,8,67,00,00,00,00,00,00,00,
4305646280,0000076C,false,Rx,0,8,68,00,00,00,00,00,00,00,
4305656272,0000076C,false,Rx,0,8,69,00,00,00,00,00,9D,FF,
4305666285,0000076C,false,Rx,0,8,6A,00,00,00,00,00,00,00,
4305676278,0000076C,false,Rx,0,8,6B,CD,06,00,00,00,00,00,
4305686282,0000076C,false,Rx,0,8,6C,00,00,00,00,00,1C,00,
4305688407,000002C4,false,Rx,0,8,14,00,00,00,00,00,00,00,
4305688671,00000204,false,Rx,0,8,01,00,00,00,00,00,00,00,
4305688888,00000264,false,Rx,0,6,45,00,00,00,E0,01,00,00,
4305689147,00000224,false,Rx,0,8,00,04,00,00,00,00,00,08,
4305696278,0000076C,false,Rx,0,8,6D,00,00,00,00,00,00,00,
4305706281,0000076C,false,Rx,0,8,6E,00,00,00,00,00,00,00,
4305716285,0000076C,false,Rx,0,8,6F,00,00,00,00,00,00,00,
4305726276,0000076C,false,Rx,0,8,70,00,00,00,00,00,00,00,
4305736260,0000076C,false,Rx,0,8,71,2C,30,00,2C,38,80,00,
4305746273,0000076C,false,Rx,0,8,77,00,00,5F,C0,0D,00,00,
4305756266,0000076C,false,Rx,0,8,78,00,00,5E,C0,0D,00,00,
4305766269,0000076C,false,Rx,0,8,79,00,00,00,00,00,00,00,
4305776262,0000076C,false,Rx,0,8,7A,01,09,00,00,00,00,00,
4305786306,0000076C,false,Rx,0,8,01,09,09,0E,20,0F,12,00,
4305788380,000002C4,false,Rx,0,8,55,00,02,08,00,C0,FE,00,
4305788644,00000204,false,Rx,0,8,01,00,00,00,00,00,00,00,
4305788852,00000264,false,Rx,0,6,45,00,00,00,E0,01,00,00,
4305789109,00000224,false,Rx,0,8,00,04,00,00,00,00,00,08,
4305796263,0000076C,false,Rx,0,8,02,02,02,02,04,00,01,00,
4305806256,0000076C,false,Rx,0,8,03,60,60,4A,4A,65,66,00,
4305816249,0000076C,false,Rx,0,8,04,0C,17,00,07,00,03,00,
4305826242,0000076C,false,Rx,0,8,05,AC,84,36,38,DC,2E,00,
4305836267,0000076C,false,Rx,0,8,8A,22,40,00,64,00,80,00,
4305846260,0000076C,false,Rx,0,8,0B,11,00,D0,20,FF,0F,00,
4305856253,0000076C,false,Rx,0,8,0C,00,00,00,40,20,40,00,
4305866245,0000076C,false,Rx,0,8,0D,04,32,8F,BB,28,00,00,
4305876247,0000076C,false,Rx,0,8,0E,E0,DB,39,97,02,00,00,
4305886260,0000076C,false,Rx,0,8,14,23,40,00,64,00,80,00,
4305888376,000002C4,false,Rx,0,8,16,81,0B,00,00,00,00,00,
4305888640,00000204,false,Rx,0,8,01,00,00,00,00,00,00,00,
4305888858,00000264,false,Rx,0,6,46,00,00,00,E0,01,00,00,
4305889105,00000224,false,Rx,0,8,00,04,00,00,00,00,00,08,
4305896247,0000076C,false,Rx,0,8,15,00,00,D0,20,00,00,00,
4305906250,0000076C,false,Rx,0,8,16,00,00,00,40,00,00,00,
4305916243,0000076C,false,Rx,0,8,17,04,32,8F,BB,28,00,00,
4305926245,0000076C,false,Rx,0,8,18,E0,DB,39,97,02,00,00,
4305936248,0000076C,false,Rx,0,8,9E,23,40,00,64,00,80,00,
4305946240,0000076C,false,Rx,0,8,1F,02,00,D0,20,00,00,00,
4305956243,0000076C,false,Rx,0,8,20,00,00,00,40,00,40,00,
4305966234,0000076C,false,Rx,0,8,21,04,32,8F,BB,28,00,00,
4305976239,0000076C,false,Rx,0,8,22,E0,DB,39,97,02,00,00,
4305986252,0000076C,false,Rx,0,8,33,00,00,00,00,00,20,84,
4305988366,000002C4,false,Rx,0,8,00,40,00,D2,00,00,00,00,
4305988632,00000204,false,Rx,0,8,01,00,00,00,00,00,00,00,
4305988848,00000264,false,Rx,0,6,47,00,00,00,E0,01,00,00,
4305989106,00000224,false,Rx,0,8,00,04,00,00,00,00,00,08,
4305990250,000002A4,false,Rx,0,8,1D,9F,F9,CC,71,8E,F5,FF,
4305990385,00000364,false,Rx,0,2,00,78,00,00,00,00,00,00,
4305990645,000003A4,false,Rx,0,8,01,00,00,00,00,00,00,00,
4305996236,0000076C,false,Rx,0,8,34,00,00,00,00,00,00,00,
4306006240,0000076C,false,Rx,0,8,35,2A,00,00,00,00,00,00,
4306016253,0000076C,false,Rx,0,8,64,00,00,41,30,46,0E,00,
4306026247,0000076C,false,Rx,0,8,66,00,00,00,00,00,00,00,
4306036228,0000076C,false,Rx,0,8,67,00,00,00,00,00,00,00,
4306046242,0000076C,false,Rx,0,8,68,00,00,00,00,00,00,00,
4306056233,0000076C,false,Rx,0,8,69,00,00,00,00,00,9D,FF,
4306066237,0000076C,false,Rx,0,8,6A,00,00,00,00,00,00,00,
4306076220,0000076C,false,Rx,0,8,6B,CD,06,00,00,00,00,00,
4306086233,0000076C,false,Rx,0,8,6C,00,00,00,00,00,1C,00,
4306088350,000002C4,false,Rx,0,8,01,00,00,D2,00,00,00,00,
4306088605,00000204,false,Rx,0,8,01,00,00,00,00,00,00,00,
4306088822,00000264,false,Rx,0,6,46,00,00,00,E0,01,00,00,
4306089089,00000224,false,Rx,0,8,00,04,00,00,00,00,00,08,
4306096230,0000076C,false,Rx,0,8,6D,00,00,00,00,00,00,00,
4306106233,0000076C,false,Rx,0,8,6E,00,00,00,00,00,00,00,
4306116225,0000076C,false,Rx,0,8,6F,00,00,00,00,00,00,00,
4306126229,0000076C,false,Rx,0,8,70,00,00,00,00,00,00,00,
4306136211,0000076C,false,Rx,0,8,71,2C,30,00,2C,38,80,00,
4306146224,0000076C,false,Rx,0,8,77,00,00,5F,C0,0D,00,00,
4306156227,0000076C,false,Rx,0,8,78,00,00,5E,C0,0D,00,00,
4306166219,0000076C,false,Rx,0,8,79,00,00,00,00,00,00,00,
4306176211,0000076C,false,Rx,0,8,7A,01,09,00,00,00,00,00,
4306186267,0000076C,false,Rx,0,8,01,09,09,0E,20,10,12,00,
4306188341,000002C4,false,Rx,0,8,02,00,00,D2,00,00,00,00,
4306188595,00000204,false,Rx,0,8,01,00,00,00,00,00,00,00,
4306188812,00000264,false,Rx,0,6,47,00,00,00,E0,01,00,00,
4306189070,00000224,false,Rx,0,8,00,04,00,00,00,00,00,08,
4306196221,0000076C,false,Rx,0,8,02,02,02,02,04,01,01,00,
4306206203,0000076C,false,Rx,0,8,03,60,60,4A,4A,63,66,00,
4306216206,0000076C,false,Rx,0,8,04,0C,17,00,07,00,03,00,
4306226198,0000076C,false,Rx,0,8,05,AD,84,36,38,E4,2E,00,
4306236211,0000076C,false,Rx,0,8,8A,22,40,00,64,00,80,00,
4306246213,0000076C,false,Rx,0,8,0B,10,00,D0,20,FF,0F,00,
4306256206,0000076C,false,Rx,0,8,0C,00,00,00,40,20,40,00,
4306266199,0000076C,false,Rx,0,8,0D,04,32,8F,BB,28,00,00,
4306276203,0000076C,false,Rx,0,8,0E,E0,DB,39,97,02,00,00,
4306286206,0000076C,false,Rx,0,8,14,23,40,00,64,00,80,00,
4306288323,000002C4,false,Rx,0,8,63,01,18,80,01,00,C0,00,
4306288587,00000204,false,Rx,0,8,01,00,00,00,00,00,00,00,
4306288805,00000264,false,Rx,0,6,46,00,00,00,E0,01,00,00,
4306289052,00000224,false,Rx,0,8,00,04,00,00,00,00,00,08,
4306296203,0000076C,false,Rx,0,8,15,00,00,D0,20,00,00,00,
4306306205,0000076C,false,Rx,0,8,16,00,00,00,40,00,00,00,
4306316191,0000076C,false,Rx,0,8,17,04,32,8F,BB,28,00,00,
4306326194,0000076C,false,Rx,0,8,18,DF,DB,39,97,02,00,00,
4306336207,0000076C,false,Rx,0,8,9E,23,40,00,64,00,80,00,
4306346189,0000076C,false,Rx,0,8,1F,01,00,D0,20,00,00,00,
4306356201,0000076C,false,Rx,0,8,20,00,00,00,40,00,40,00,
4306366193,0000076C,false,Rx,0,8,21,04,32,8F,BB,28,00,00,
4306376196,0000076C,false,Rx,0,8,22,DF,DB,39,97,02,00,00,
4306386198,0000076C,false,Rx,0,8,33,00,00,00,00,00,20,84,
4306388325,000002C4,false,Rx,0,8,04,00,00,00,00,00,41,00,
4306388589,00000204,false,Rx,0,8,01,00,00,00,00,00,00,00,
4306388807,00000264,false,Rx,0,6,48,00,00,00,E0,01,00,00,
4306389054,00000224,false,Rx,0,8,00,04,00,00,00,00,00,08,
4306396195,0000076C,false,Rx,0,8,34,00,00,00,00,00,00,00,
4306406198,0000076C,false,Rx,0,8,35,2A,00,00,00,00,00,00,
4306416210,0000076C,false,Rx,0,8,64,00,00,41,20,46,00,00,
4306426183,0000076C,false,Rx,0,8,66,00,00,00,00,00,00,00,
4306436185,0000076C,false,Rx,0,8,67,00,00,00,00,00,00,00,
4306446187,0000076C,false,Rx,0,8,68,00,00,00,00,00,00,00,
4306456189,0000076C,false,Rx,0,8,69,00,00,00,00,00,9D,FF,
4306466182,0000076C,false,Rx,0,8,6A,00,00,00,00,00,00,00,
4306476174,0000076C,false,Rx,0,8,6B,CD,06,00,00,00,00,00,
4306486188,0000076C,false,Rx,0,8,6C,00,00,00,00,00,1C,00,
4306488293,000002C4,false,Rx,0,8,25,22,00,00,00,00,00,20,
4306488558,00000204,false,Rx,0,8,01,00,00,00,00,00,00,00,
4306488775,00000264,false,Rx,0,6,47,00,00,00,E0,01,00,00,
4306489023,00000224,false,Rx,0,8,00,04,00,00,00,00,00,08,
4306496184,0000076C,false,Rx,0,8,6D,00,00,00,00,00,00,00,
4306506189,0000076C,false,Rx,0,8,6E,00,00,00,00,00,00,00,
4306516181,0000076C,false,Rx,0,8,6F,00,00,00,00,00,00,00,
4306526173,0000076C,false,Rx,0,8,70,00,00,00,00,00,00,00,
4306536166,0000076C,false,Rx,0,8,71,2C,30,00,2C,38,80,00,
4306546179,0000076C,false,Rx,0,8,77,00,00,5F,C0,0D,00,00,
4306556171,0000076C,false,Rx,0,8,78,00,00,5E,C0,0D,00,00,
4306566173,0000076C,false,Rx,0,8,79,00,00,00,00,00,00,00,
4306576167,0000076C,false,Rx,0,8,7A,01,09,00,00,00,00,00,
4306586221,0000076C,false,Rx,0,8,01,09,09,0E,20,0E,12,00,
4306588295,000002C4,false,Rx,0,8,26,23,41,00,00,00,C0,58,
4306588550,00000204,false,Rx,0,8,01,00,00,00,00,00,00,00,
4306588767,00000264,false,Rx,0,6,48,00,00,00,E0,01,00,00,
4306589025,00000224,false,Rx,0,8,00,04,00,00,00,00,00,08,
4306596167,0000076C,false,Rx,0,8,02,02,02,02,04,00,01,00,
4306606148,0000076C,false,Rx,0,8,03,60,60,4A,4A,65,66,00,
4306616162,0000076C,false,Rx,0,8,04,0C,17,00,07,00,03,00,
4306626154,0000076C,false,Rx,0,8,05,AB,84,36,38,E4,2E,00,
4306636168,0000076C,false,Rx,0,8,8A,22,40,00,64,00,80,00,
4306646150,0000076C,false,Rx,0,8,0B,11,00,D0,20,FF,0F,00,
4306656163,0000076C,false,Rx,0,8,0C,00,00,00,40,20,40,00,
4306666156,0000076C,false,Rx,0,8,0D,04,32,8F,BB,28,00,00,
4306676159,0000076C,false,Rx,0,8,0E,E0,DB,39,97,02,00,00,
4306686152,0000076C,false,Rx,0,8,14,23,40,00,64,00,80,00,
4306688290,000002C4,false,Rx,0,8,07,00,00,00,00,00,00,00,
4306688554,00000204,false,Rx,0,8,01,00,00,00,00,00,00,00,
4306688760,00000264,false,Rx,0,6,46,00,00,00,E0,01,00,00,
4306689019,00000224,false,Rx,0,8,00,04,00,00,00,00,00,08,
4306696149,0000076C,false,Rx,0,8,15,00,00,D0,20,00,00,00,
4306706162,0000076C,false,Rx,0,8,16,00,00,00,40,00,00,00,
4306716155,0000076C,false,Rx,0,8,17,04,32,8F,BB,28,00,00,
4306726148,0000076C,false,Rx,0,8,18,DF,DB,39,97,02,00,00,
4306736150,0000076C,false,Rx,0,8,9E,23,40,00,64,00,80,00,
4306746153,0000076C,false,Rx,0,8,1F,01,00,D0,20,00,00,00,
4306756165,0000076C,false,Rx,0,8,20,00,00,00,40,00,00,00,
4306766139,0000076C,false,Rx,0,8,21,04,32,8F,BB,28,00,00,
4306776133,0000076C,false,Rx,0,8,22,E0,DB,39,97,02,00,00,
4306786147,0000076C,false,Rx,0,8,33,00,00,00,00,00,20,84,
4306788263,000002C4,false,Rx,0,8,08,00,00,00,1C,00,00,00,
4306788527,00000204,false,Rx,0,8,01,00,00,00,00,00,00,00,
4306788744,00000264,false,Rx,0,6,46,00,00,00,E0,01,00,00,
4306789002,00000224,false,Rx,0,8,00,04,00,00,00,00,00,08,
4306796153,0000076C,false,Rx,0,8,34,00,00,00,00,00,00,00,
4306806155,0000076C,false,Rx,0,8,35,2A,00,00,00,00,00,00,
4306816169,0000076C,false,Rx,0,8,64,00,00,41,30,46,00,00,
4306826141,0000076C,false,Rx,0,8,66,00,00,00,00,00,00,00,
4306836143,0000076C,false,Rx,0,8,67,00,00,00,00,00,00,00,
4306846146,0000076C,false,Rx,0,8,68,00,00,00,00,00,00,00,
4306856139,0000076C,false,Rx,0,8,69,00,00,00,00,00,9D,FF,
4306866141,0000076C,false,Rx,0,8,6A,00,00,00,00,00,00,00,
4306876133,0000076C,false,Rx,0,8,6B,CD,06,00,00,00,00,00,
4306886146,0000076C,false,Rx,0,8,6C,00,00,00,00,00,1C,00,
4306888242,000002C4,false,Rx,0,8,49,DC,E5,2E,B0,84,25,06,
4306888506,00000204,false,Rx,0,8,01,00,00,00,00,00,00,00,
4306888724,00000264,false,Rx,0,6,48,00,00,00,E0,01,00,00,
4306888982,00000224,false,Rx,0,8,00,04,00,00,00,00,00,08,
4306896143,0000076C,false,Rx,0,8,6D,00,00,00,00,00,00,00,
4306906134,0000076C,false,Rx,0,8,6E,00,00,00,00,00,00,00,
4306916137,0000076C,false,Rx,0,8,6F,00,00,00,00,00,00,00,
4306926139,0000076C,false,Rx,0,8,70,00,00,00,00,00,00,00,
4306936121,0000076C,false,Rx,0,8,71,2C,30,00,2C,38,80,00,
4306946124,0000076C,false,Rx,0,8,77,00,00,5F,C0,0D,00,00,
4306956126,0000076C,false,Rx,0,8,78,00,00,5E,C0,0D,00,00,
4306966129,0000076C,false,Rx,0,8,79,00,00,00,00,00,00,00,
4306976121,0000076C,false,Rx,0,8,7A,01,09,00,00,00,00,00,
4306986177,0000076C,false,Rx,0,8,01,09,09,12,20,0E,12,00,
4306988251,000002C4,false,Rx,0,8,0A,00,00,00,00,08,00,00,
4306988516,00000204,false,Rx,0,8,01,00,00,00,00,00,00,00,
4306988733,00000264,false,Rx,0,6,48,00,00,00,E0,01,00,00,
4306988990,00000224,false,Rx,0,8,00,04,00,00,00,00,00,08,
4306990123,000002A4,false,Rx,0,8,1C,97,39,CD,73,8E,F5,FF,
4306990269,00000364,false,Rx,0,2,00,78,00,00,00,00,00,00,
4306990519,000003A4,false,Rx,0,8,00,00,00,0F,04,00,00,00,
4306996119,0000076C,false,Rx,0,8,02,02,02,02,04,01,01,00,
4307006101,0000076C,false,Rx,0,8,03,60,60,4A,4A,65,66,00,
4307016116,0000076C,false,Rx,0,8,04,0C,17,00,07,00,03,00,
4307026098,0000076C,false,Rx,0,8,05,AB,84,36,38,DC,2E,00,
4307036111,0000076C,false,Rx,0,8,0A,22,40,00,64,00,80,00,
4307046103,0000076C,false,Rx,0,8,0B,11,00,D0,20,FF,0F,00,
4307056126,0000076C,false,Rx,0,8,0C,00,00,00,40,20,40,00,
4307066109,0000076C,false,Rx,0,8,0D,04,32,8F,BB,28,00,00,
4307076101,0000076C,false,Rx,0,8,0E,E0,DB,39,97,02,00,00,
4307086105,0000076C,false,Rx,0,8,14,23,40,00,64,00,80,00,
4307088231,000002C4,false,Rx,0,8,0B,00,00,00,0E,08,00,00,
4307088487,00000204,false,Rx,0,8,01,00,00,00,00,00,00,00,
4307088704,00000264,false,Rx,0,6,47,00,00,00,E0,01,00,00,
4307088961,00000224,false,Rx,0,8,00,04,00,00,00,00,00,08,
4307096113,0000076C,false,Rx,0,8,15,00,00,D0,20,00,00,00,
4307106117,0000076C,false,Rx,0,8,16,00,00,00,30,00,00,00,
4307116098,0000076C,false,Rx,0,8,17,04,32,8F,BB,28,00,00,
4307126101,0000076C,false,Rx,0,8,18,DF,DB,39,97,02,00,00,
4307136105,0000076C,false,Rx,0,8,9E,23,40,00,64,00,80,00,
4307146107,0000076C,false,Rx,0,8,1F,02,00,D0,20,00,00,00,
4307156110,0000076C,false,Rx,0,8,20,00,00,00,40,00,40,00,
4307166091,0000076C,false,Rx,0,8,21,04,32,8F,BB,28,00,00,
4307176093,0000076C,false,Rx,0,8,22,E0,DB,39,97,02,00,00,
4307186106,0000076C,false,Rx,0,8,33,00,00,00,00,00,20,84,
4307188222,000002C4,false,Rx,0,8,0C,00,00,80,FF,07,00,00,
4307188487,00000204,false,Rx,0,8,01,00,00,00,00,00,00,00,
4307188694,00000264,false,Rx,0,6,46,00,00,00,E0,01,00,00,
4307188952,00000224,false,Rx,0,8,00,04,00,00,00,00,00,08,
4307196103,0000076C,false,Rx,0,8,34,00,00,00,00,00,00,00,
4307206095,0000076C,false,Rx,0,8,35,2A,00,00,00,00,00,00,
4307216119,0000076C,false,Rx,0,8,64,00,00,41,30,46,00,00,
4307226091,0000076C,false,Rx,0,8,66,00,00,00,00,00,00,00,
4307236103,0000076C,false,Rx,0,8,67,00,00,00,00,00,00,00,
4307246097,0000076C,false,Rx,0,8,68,00,00,00,00,00,00,00,
4307256089,0000076C,false,Rx,0,8,69,00,00,00,00,00,9D,FF,
4307266091,0000076C,false,Rx,0,8,6A,00,00,00,00,00,00,00,
4307276093,0000076C,false,Rx,0,8,6B,CD,06,00,00,00,00,00,
4307286096,0000076C,false,Rx,0,8,6C,00,00,00,00,00,1C,00,
4307288212,000002C4,false,Rx,0,8,0D,00,00,00,00,00,00,00,
4307288477,00000204,false,Rx,0,8,01,00,00,00,00,00,00,00,
4307288694,00000264,false,Rx,0,6,46,00,00,00,E0,01,00,00,
4307288953,00000224,false,Rx,0,8,00,04,00,00,00,00,00,08,
4307296082,0000076C,false,Rx,0,8,6D,00,00,00,00,00,00,00,
4307306085,0000076C,false,Rx,0,8,6E,00,00,00,00,00,00,00,
4307316088,0000076C,false,Rx,0,8,6F,00,00,00,00,00,00,00,
4307326091,0000076C,false,Rx,0,8,70,00,00,00,00,00,00,00,
4307336064,0000076C,false,Rx,0,8,71,2C,30,00,2C,38,80,00,
4307346076,0000076C,false,Rx,0,8,77,00,00,5F,C0,0D,00,00,
4307356070,0000076C,false,Rx,0,8,78,00,00,5E,C0,0D,00,00,
4307366083,0000076C,false,Rx,0,8,79,00,00,00,00,00,00,00,
4307376076,0000076C,false,Rx,0,8,7A,01,09,00,00,00,00,00,
4307386133,0000076C,false,Rx,0,8,01,09,09,0E,20,10,12,00,
4307388207,000002C4,false,Rx,0,8,12,00,00,00,00,00,00,00,
4307388472,00000204,false,Rx,0,8,01,00,00,00,00,00,00,00,
4307388690,00000264,false,Rx,0,6,46,00,00,00,E0,01,00,00,
4307388937,00000224,false,Rx,0,8,00,04,00,00,00,00,00,08,
4307396067,0000076C,false,Rx,0,8,02,02,02,02,04,00,01,00,
4307406059,0000076C,false,Rx,0,8,03,60,60,4A,4A,65,66,00,
4307416072,0000076C,false,Rx,0,8,04,0C,17,00,07,00,03,00,
4307426054,0000076C,false,Rx,0,8,05,AD,84,36,38,D4,2E,00,
4307436067,0000076C,false,Rx,0,8,0A,23,40,00,64,00,80,00,
4307446061,0000076C,false,Rx,0,8,0B,11,00,D0,20,FF,0F,00,
4307456074,0000076C,false,Rx,0,8,0C,00,00,00,40,20,40,00,
4307466067,0000076C,false,Rx,0,8,0D,04,32,8F,BB,28,00,00,
4307476049,0000076C,false,Rx,0,8,0E,DF,DB,39,97,02,00,00,
4307486062,0000076C,false,Rx,0,8,94,22,40,00,64,00,80,00,
4307488178,000002C4,false,Rx,0,8,13,00,00,00,00,00,00,00,
4307488444,00000204,false,Rx,0,8,01,00,00,00,00,00,00,00,
4307488661,00000264,false,Rx,0,6,46,00,00,00,E0,01,00,00,
4307488918,00000224,false,Rx,0,8,00,04,00,00,00,00,00,08,
4307496069,0000076C,false,Rx,0,8,15,00,00,D0,20,00,00,00,
4307506072,0000076C,false,Rx,0,8,16,00,00,00,40,00,00,00,
4307516054,0000076C,false,Rx,0,8,17,04,32,8F,BB,28,00,00,
4307526048,0000076C,false,Rx,0,8,18,DF,DB,39,97,02,00,00,
4307536051,0000076C,false,Rx,0,8,9E,21,40,00,64,00,80,00,
4307546066,0000076C,false,Rx,0,8,1F,02,00,D0,20,00,00,00,
4307556058,0000076C,false,Rx,0,8,20,00,00,00,30,00,40,00,
4307566040,0000076C,false,Rx,0,8,21,04,32,8F,BB,28,00,00,
4307576043,0000076C,false,Rx,0,8,22,DF,DB,39,97,02,00,00,
4307586067,0000076C,false,Rx,0,8,33,00,00,00,00,00,20,84,
4307588181,000002C4,false,Rx,0,8,14,00,00,00,00,00,00,00,
4307588437,00000204,false,Rx,0,8,01,00,00,00,00,00,00,00,
4307588654,00000264,false,Rx,0,6,46,00,00,00,E0,01,00,00,
4307588921,00000224,false,Rx,0,8,00,04,00,00,00,00,00,08,
4307596053,0000076C,false,Rx,0,8,34,00,00,00,00,00,00,00,
4307606046,0000076C,false,Rx,0,8,35,2A,00,00,00,00,00,00,
4307616059,0000076C,false,Rx,0,8,64,00,00,41,30,46,00,00,
4307626052,0000076C,false,Rx,0,8,66,00,00,00,00,00,00,00,
4307636055,0000076C,false,Rx,0,8,67,00,00,00,00,00,00,00,
4307646048,0000076C,false,Rx,0,8,68,00,00,00,00,00,00,00,
4307656041,0000076C,false,Rx,0,8,69,00,00,00,00,00,9D,FF,
4307666044,0000076C,false,Rx,0,8,6A,00,00,00,00,00,00,00,
4307676046,0000076C,false,Rx,0,8,6B,CD,06,00,00,00,00,00,
4307686038,0000076C,false,Rx,0,8,6C,00,00,00,00,00,1C,00,
4307688164,000002C4,false,Rx,0,8,55,00,02,08,00,C0,FE,00,
4307688430,00000204,false,Rx,0,8,01,00,00,00,00,00,00,00,
4307688637,00000264,false,Rx,0,6,45,00,00,00,E0,01,00,00,
4307688895,00000224,false,Rx,0,8,00,04,00,00,00,00,00,08,
4307696036,0000076C,false,Rx,0,8,6D,00,00,00,00,00,00,00,
4307706039,0000076C,false,Rx,0,8,6E,00,00,00,00,00,00,00,
4307716043,0000076C,false,Rx,0,8,6F,00,00,00,00,00,00,00,
4307726046,0000076C,false,Rx,0,8,70,00,00,00,00,00,00,00,
4307736017,0000076C,false,Rx,0,8,71,2C,30,00,2C,38,80,00,
4307746031,0000076C,false,Rx,0,8,77,00,00,5F,C0,0D,00,00,
4307756024,0000076C,false,Rx,0,8,78,00,00,5E,C0,0D,00,00,
4307766037,0000076C,false,Rx,0,8,79,00,00,00,00,00,00,00,
4307776021,0000076C,false,Rx,0,8,7A,01,09,00,00,00,00,00,
4307786076,0000076C,false,Rx,0,8,01,09,09,0E,20,10,12,00,
4307788140,000002C4,false,Rx,0,8,16,81,0B,00,00,00,00,00,
4307788405,00000204,false,Rx,0,8,01,00,00,00,00,00,00,00,
4307788612,00000264,false,Rx,0,6,45,00,00,00,E0,01,00,00,
4307788880,00000224,false,Rx,0,8,00,04,00,00,00,00,00,08,
4307796020,0000076C,false,Rx,0,8,02,02,02,02,04,00,01,00,
4307806014,0000076C,false,Rx,0,8,03,60,60,4A,4A,65,66,00,
4307816027,0000076C,false,Rx,0,8,04,0C,17,00,07,00,03,00,
4307826009,0000076C,false,Rx,0,8,05,AC,84,36,38,E4,2E,00,
4307836024,0000076C,false,Rx,0,8,0A,22,40,00,64,00,80,00,
4307846016,0000076C,false,Rx,0,8,0B,11,00,D0,20,FF,0F,00,
4307856030,0000076C,false,Rx,0,8,0C,00,00,00,40,20,40,00,
4307866012,0000076C,false,Rx,0,8,0D,04,32,8F,BB,28,00,00,
4307876005,0000076C,false,Rx,0,8,0E,DF,DB,39,97,02,00,00,
4307886019,0000076C,false,Rx,0,8,14,23,40,00,64,00,80,00,
4307888145,000002C4,false,Rx,0,8,00,40,00,D2,00,00,00,00,
4307888400,00000204,false,Rx,0,8,01,00,00,00,00,00,00,00,
4307888608,00000264,false,Rx,0,6,45,00,00,00,E0,01,00,00,
4307888865,00000224,false,Rx,0,8,00,04,00,00,00,00,00,08,
4307896015,0000076C,false,Rx,0,8,15,00,00,D0,20,00,00,00,
4307906019,0000076C,false,Rx,0,8,16,00,00,00,40,00,00,00,
4307916000,0000076C,false,Rx,0,8,17,04,32,8F,BB,28,00,00,
4307926004,0000076C,false,Rx,0,8,18,DF,DB,39,97,02,00,00,
4307936018,0000076C,false,Rx,0,8,1E,23,40,00,64,00,80,00,
4307946010,0000076C,false,Rx,0,8,1F,03,00,D0,20,00,00,00,
4307956012,0000076C,false,Rx,0,8,20,00,00,00,40,00,40,00,
4307965994,0000076C,false,Rx,0,8,21,04,32,8F,BB,28,00,00,
4307975997,0000076C,false,Rx,0,8,22,E0,DB,39,97,02,00,00,
4307986020,0000076C,false,Rx,0,8,33,00,00,00,00,00,20,84,
4307988125,000002C4,false,Rx,0,8,01,00,00,D2,00,00,00,00,
4307988391,00000204,false,Rx,0,8,01,00,00,00,00,00,00,00,
4307988598,00000264,false,Rx,0,6,45,00,00,00,E0,01,00,00,
4307988855,00000224,false,Rx,0,8,00,04,00,00,00,00,00,08,
4307990009,000002A4,false,Rx,0,8,1C,9F,39,CD,73,7E,F5,FF,
4307990176,00000364,false,Rx,0,2,00,78,00,00,00,00,00,00,
4307990424,000003A4,false,Rx,0,8,01,00,00,00,00,00,00,00,
4307996005,0000076C,false,Rx,0,8,34,00,00,00,00,00,00,00,
4308005998,0000076C,false,Rx,0,8,35,2A,00,00,00,00,00,00,
4308016011,0000076C,false,Rx,0,8,64,00,00,41,20,46,00,00,
4308026004,0000076C,false,Rx,0,8,66,00,00,00,00,00,00,00,
4308035997,0000076C,false,Rx,0,8,67,00,00,00,00,00,00,00,
4308046002,0000076C,false,Rx,0,8,68,00,00,00,00,00,00,00,
4308055994,0000076C,false,Rx,0,8,69,00,00,00,00,00,9D,FF,
4308066008,0000076C,false,Rx,0,8,6A,00,00,00,00,00,00,00,
4308075991,0000076C,false,Rx,0,8,6B,CD,06,00,00,00,00,00,
4308085994,0000076C,false,Rx,0,8,6C,00,00,00,00,00,1C,00,
4308088118,000002C4,false,Rx,0,8,02,00,00,D2,00,00,00,00,
4308088385,00000204,false,Rx,0,8,01,00,00,00,00,00,00,00,
4308088602,00000264,false,Rx,0,6,46,00,00,00,E0,01,00,00,
4308088859,00000224,false,Rx,0,8,00,04,00,00,00,00,00,08,
4308095991,0000076C,false,Rx,0,8,6D,00,00,00,00,00,00,00,
4308105993,0000076C,false,Rx,0,8,6E,00,00,00,00,00,00,00,
4308115996,0000076C,false,Rx,0,8,6F,00,00,00,00,00,00,00,
4308125990,0000076C,false,Rx,0,8,70,00,00,00,00,00,00,00,
4308135974,0000076C,false,Rx,0,8,71,2C,30,00,2C,38,80,00,
4308145987,0000076C,false,Rx,0,8,77,00,00,5F,C0,0D,00,00,
4308155990,0000076C,false,Rx,0,8,78,00,00,5E,C0,0D,00,00,
4308165982,0000076C,false,Rx,0,8,79,00,00,00,00,00,00,00,
4308175974,0000076C,false,Rx,0,8,7A,01,09,00,00,00,00,00,
4308186029,0000076C,false,Rx,0,8,01,09,09,12,20,0F,12,00,
4308188093,000002C4,false,Rx,0,8,63,01,16,80,01,00,C0,00,
4308188348,00000204,false,Rx,0,8,01,00,00,00,00,00,00,00,
4308188565,00000264,false,Rx,0,6,46,00,00,00,E0,01,00,00,
4308188822,00000224,false,Rx,0,8,00,04,00,00,00,00,00,08,
4308195984,0000076C,false,Rx,0,8,02,02,02,02,04,01,01,00,
4308205967,0000076C,false,Rx,0,8,03,60,60,4A,4A,65,66,00,
4308215970,0000076C,false,Rx,0,8,04,0C,17,00,07,00,03,00,
4308225952,0000076C,false,Rx,0,8,05,AC,8C,36,39,DC,2E,00,
4308235976,0000076C,false,Rx,0,8,0A,22,40,00,64,00,80,00,
4308245967,0000076C,false,Rx,0,8,0B,10,00,D0,20,FF,0F,00,
4308255970,0000076C,false,Rx,0,8,0C,00,00,00,40,20,40,00,
4308265962,0000076C,false,Rx,0,8,0D,04,32,8F,BB,28,00,00,
4308275964,0000076C,false,Rx,0,8,0E,DF,DB,39,97,02,00,00,
4308285978,0000076C,false,Rx,0,8,14,23,40,00,64,00,80,00,
4308288093,000002C4,false,Rx,0,8,04,00,00,00,00,00,41,00,
4308288358,00000204,false,Rx,0,8,01,00,00,00,00,00,00,00,
4308288575,00000264,false,Rx,0,6,46,00,00,00,E0,01,00,00,
4308288824,00000224,false,Rx,0,8,00,04,00,00,00,00,00,08,
4308295974,0000076C,false,Rx,0,8,15,00,00,D0,20,00,00,00,
4308305967,0000076C,false,Rx,0,8,16,00,00,00,40,00,00,00,
4308315959,0000076C,false,Rx,0,8,17,04,32,8F,BB,28,00,00,
4308325962,0000076C,false,Rx,0,8,18,DF,DB,39,97,02,00,00,
4308335964,0000076C,false,Rx,0,8,1E,23,40,00,64,00,80,00,
4308345956,0000076C,false,Rx,0,8,1F,02,00,D0,20,00,00,00,
4308355969,0000076C,false,Rx,0,8,20,00,00,00,40,00,00,00,
4308365950,0000076C,false,Rx,0,8,21,04,32,8F,BB,28,00,00,
4308375953,0000076C,false,Rx,0,8,22,E0,DB,39,97,02,00,00,
4308385966,0000076C,false,Rx,0,8,33,00,00,00,00,00,20,84,
4308388082,000002C4,false,Rx,0,8,25,22,00,00,00,00,00,20,
4308388347,00000204,false,Rx,0,8,01,00,00,00,00,00,00,00,
4308388565,00000264,false,Rx,0,6,46,00,00,00,E0,01,00,00,
4308388823,00000224,false,Rx,0,8,00,04,00,00,00,00,00,08,
4308395953,0000076C,false,Rx,0,8,34,00,00,00,00,00,00,00,
4308405957,0000076C,false,Rx,0,8,35,2A,00,00,00,00,00,00,
4308415971,0000076C,false,Rx,0,8,64,00,00,41,30,46,00,00,
4308425964,0000076C,false,Rx,0,8,66,00,00,00,00,00,00,00,
4308435945,0000076C,false,Rx,0,8,67,00,00,00,00,00,00,00,
4308445948,0000076C,false,Rx,0,8,68,00,00,00,00,00,00,00,
4308455950,0000076C,false,Rx,0,8,69,00,00,00,00,00,9D,FF,
4308465954,0000076C,false,Rx,0,8,6A,00,00,00,00,00,00,00,
4308475936,0000076C,false,Rx,0,8,6B,CD,06,00,00,00,00,00,
4308485948,0000076C,false,Rx,0,8,6C,00,00,00,00,00,1C,00,
4308488064,000002C4,false,Rx,0,8,26,23,41,00,00,00,C0,58,
4308488319,00000204,false,Rx,0,8,01,00,00,00,00,00,00,00,
4308488527,00000264,false,Rx,0,6,45,00,00,00,E0,01,00,00,
4308488794,00000224,false,Rx,0,8,00,04,00,00,00,00,00,08,
4308495945,0000076C,false,Rx,0,8,6D,00,00,00,00,00,00,00,
4308505949,0000076C,false,Rx,0,8,6E,00,00,00,00,00,00,00,
4308515941,0000076C,false,Rx,0,8,6F,00,00,00,00,00,00,00,
4308525943,0000076C,false,Rx,0,8,70,00,00,00,00,00,00,00,
4308535927,0000076C,false,Rx,0,8,71,2C,30,00,2C,38,80,00,
4308545940,0000076C,false,Rx,0,8,77,00,00,5F,C0,0D,00,00,
4308555943,0000076C,false,Rx,0,8,78,00,00,5E,C0,0D,00,00,
4308565936,0000076C,false,Rx,0,8,79,00,00,00,00,00,00,00,
4308575929,0000076C,false,Rx,0,8,7A,01,09,00,00,00,00,00,
4308585983,0000076C,false,Rx,0,8,01,09,09,13,20,10,12,00,
4308588067,000002C4,false,Rx,0,8,07,00,00,00,00,00,00,00,
4308588323,00000204,false,Rx,0,8,01,00,00,00,00,00,00,00,
4308588540,00000264,false,Rx,0,6,45,00,00,00,E0,01,00,00,
4308588787,00000224,false,Rx,0,8,00,04,00,00,00,00,00,08,
4308595938,0000076C,false,Rx,0,8,02,02,02,02,04,00,01,00,
4308605920,0000076C,false,Rx,0,8,03,60,60,4A,4A,63,66,00,
4308615922,0000076C,false,Rx,0,8,04,0C,17,00,07,00,03,00,
4308625916,0000076C,false,Rx,0,8,05,AB,8C,36,39,DC,2E,00,
4308635930,0000076C,false,Rx,0,8,8A,22,40,00,64,00,80,00,
4308645912,0000076C,false,Rx,0,8,0B,11,00,D0,20,FF,0F,00,
4308655925,0000076C,false,Rx,0,8,0C,00,00,00,40,20,40,00,
4308665917,0000076C,false,Rx,0,8,0D,04,32,8F,BB,28,00,00,
4308675921,0000076C,false,Rx,0,8,0E,E0,DB,39,97,02,00,00,
4308685924,0000076C,false,Rx,0,8,14,23,40,00,64,00,80,00,
4308688050,000002C4,false,Rx,0,8,08,00,00,00,1C,00,00,00,
4308688305,00000204,false,Rx,0,8,01,00,00,00,00,00,00,00,
4308688522,00000264,false,Rx,0,6,46,00,00,00,E0,01,00,00,
4308688779,00000224,false,Rx,0,8,00,04,00,00,00,00,00,08,
4308695912,0000076C,false,Rx,0,8,15,00,00,D0,20,00,00,00,
4308705926,0000076C,false,Rx,0,8,16,00,00,00,40,00,00,00,
4308715918,0000076C,false,Rx,0,8,17,04,32,8F,BB,28,00,00,
4308725911,0000076C,false,Rx,0,8,18,E0,DB,39,97,02,00,00,
4308735914,0000076C,false,Rx,0,8,1E,23,40,00,64,00,80,00,
4308745915,0000076C,false,Rx,0,8,1F,02,00,D0,20,00,00,00,
4308755917,0000076C,false,Rx,0,8,20,00,00,00,40,00,00,00,
4308765911,0000076C,false,Rx,0,8,21,04,32,8F,BB,28,00,00,
4308775903,0000076C,false,Rx,0,8,22,DF,DB,3A,97,02,00,00,
4308785916,0000076C,false,Rx,0,8,33,00,00,00,00,00,20,84,
4308788011,000002C4,false,Rx,0,8,49,DC,E5,2E,B0,84,25,06,
4308788276,00000204,false,Rx,0,8,01,00,00,00,00,00,00,00,
4308788493,00000264,false,Rx,0,6,47,00,00,00,E0,01,00,00,
4308788741,00000224,false,Rx,0,8,00,04,00,00,00,00,00,08,
4308795912,0000076C,false,Rx,0,8,34,00,00,00,00,00,00,00,
4308805916,0000076C,false,Rx,0,8,35,2A,00,00,00,00,00,00,
4308815929,0000076C,false,Rx,0,8,64,00,00,41,30,46,0E,00,
4308825900,0000076C,false,Rx,0,8,66,00,00,00,00,00,00,00,
4308835904,0000076C,false,Rx,0,8,67,00,00,00,00,00,00,00,
4308845906,0000076C,false,Rx,0,8,68,00,00,00,00,00,00,00,
4308855907,0000076C,false,Rx,0,8,69,00,00,00,00,00,9D,FF,
4308865900,0000076C,false,Rx,0,8,6A,00,00,00,00,00,00,00,
4308875892,0000076C,false,Rx,0,8,6B,CD,06,00,00,00,00,00,
4308885905,0000076C,false,Rx,0,8,6C,00,00,00,00,00,1C,00,
4308888021,000002C4,false,Rx,0,8,0A,00,00,00,00,08,00,00,
4308888276,00000204,false,Rx,0,8,01,00,00,00,00,00,00,00,
4308888494,00000264,false,Rx,0,6,46,00,00,00,E0,01,00,00,
4308888761,00000224,false,Rx,0,8,00,04,00,00,00,00,00,08,
4308895902,0000076C,false,Rx,0,8,6D,00,00,00,00,00,00,00,
4308905894,0000076C,false,Rx,0,8,6E,00,00,00,00,00,00,00,
4308915897,0000076C,false,Rx,0,8,6F,00,00,00,00,00,00,00,
4308925890,0000076C,false,Rx,0,8,70,00,00,00,00,00,00,00,
4308935883,0000076C,false,Rx,0,8,71,2C,30,00,2C,38,80,00,
4308945897,0000076C,false,Rx,0,8,77,00,00,5F,C0,0D,00,00,
4308955889,0000076C,false,Rx,0,8,78,00,00,5E,C0,0D,00,00,
4308965892,0000076C,false,Rx,0,8,79,00,00,00,00,00,00,00,
4308975885,0000076C,false,Rx,0,8,7A,01,09,00,00,00,00,00,
4308985949,0000076C,false,Rx,0,8,01,09,09,12,20,10,12,00,
4308988013,000002C4,false,Rx,0,8,0B,00,00,00,0E,08,00,00,
4308988268,00000204,false,Rx,0,8,01,00,00,00,00,00,00,00,
4308988486,00000264,false,Rx,0,6,46,00,00,00,E0,01,00,00,
4308988743,00000224,false,Rx,0,8,00,04,00,00,00,00,00,08,
4308989887,000002A4,false,Rx,0,8,1D,97,39,CD,73,8E,F5,FF,
4308990042,00000364,false,Rx,0,2,00,78,00,00,00,00,00,00,
4308990304,000003A4,false,Rx,0,8,00,00,00,0F,04,00,00,00,
4308995883,0000076C,false,Rx,0,8,02,02,02,02,04,01,01,00,
4309005866,0000076C,false,Rx,0,8,03,60,60,40,4A,65,66,00,
4309015879,0000076C,false,Rx,0,8,04,0C,17,00,07,00,03,00,
4309025871,0000076C,false,Rx,0,8,05,AC,84,36,37,DC,2E,00,
4309035885,0000076C,false,Rx,0,8,0A,22,40,00,64,00,80,00,
4309045867,0000076C,false,Rx,0,8,0B,11,00,D0,20,FF,0F,00,
4309055880,0000076C,false,Rx,0,8,0C,00,00,00,40,20,40,00,
4309065873,0000076C,false,Rx,0,8,0D,04,32,8F,BB,28,00,00,
4309075878,0000076C,false,Rx,0,8,0E,E0,DB,39,97,02,00,00,
4309085870,0000076C,false,Rx,0,8,14,22,40,00,64,00,80,00,
4309087995,000002C4,false,Rx,0,8,0C,40,00,80,FF,07,00,00,
4309088261,00000204,false,Rx,0,8,01,00,00,00,00,00,00,00,
4309088478,00000264,false,Rx,0,6,46,00,00,00,E0,01,00,00,
4309088736,00000224,false,Rx,0,8,00,04,00,00,00,00,00,08,
4309095868,0000076C,false,Rx,0,8,15,00,00,D0,20,00,00,00,
4309105870,0000076C,false,Rx,0,8,16,00,00,00,40,00,00,00,
4309115873,0000076C,false,Rx,0,8,17,04,32,8F,BB,28,00,00,
4309125866,0000076C,false,Rx,0,8,18,E0,DB,39,97,02,00,00,
4309135858,0000076C,false,Rx,0,8,9E,21,40,00,64,00,80,00,
4309145861,0000076C,false,Rx,0,8,1F,02,00,D0,20,00,00,00,
4309155874,0000076C,false,Rx,0,8,20,00,00,00,40,00,40,00,
4309165856,0000076C,false,Rx,0,8,21,04,32,8F,BB,28,00,00,
4309175848,0000076C,false,Rx,0,8,22,E0,DB,39,97,02,00,00,
4309185861,0000076C,false,Rx,0,8,33,00,00,00,00,00,20,84,
4309187976,000002C4,false,Rx,0,8,AD,40,81,02,00,00,00,00,
4309188231,00000204,false,Rx,0,8,01,00,00,00,00,00,00,00,
4309188449,00000264,false,Rx,0,6,46,00,00,00,E0,01,00,00,
4309188717,00000224,false,Rx,0,8,00,04,00,00,00,00,00,08,
4309195858,0000076C,false,Rx,0,8,34,00,00,00,00,00,00,00,
4309205871,0000076C,false,Rx,0,8,35,2A,00,00,00,00,00,00,
4309215874,0000076C,false,Rx,0,8,64,00,00,41,30,46,0E,00,
4309225856,0000076C,false,Rx,0,8,66,00,00,00,00,00,00,00,
4309235861,0000076C,false,Rx,0,8,67,00,00,00,00,00,00,00,
4309245864,0000076C,false,Rx,0,8,68,00,00,00,00,00,00,00,
4309255857,0000076C,false,Rx,0,8,69,00,00,00,00,00,9D,FF,
4309265850,0000076C,false,Rx,0,8,6A,00,00,00,00,00,00,00,
4309275852,0000076C,false,Rx,0,8,6B,CD,06,00,00,00,00,00,
4309285864,0000076C,false,Rx,0,8,6C,00,00,00,00,00,1C,00,
4309287969,000002C4,false,Rx,0,8,12,00,00,5F,E0,0D,00,00,
4309288233,00000204,false,Rx,0,8,01,00,00,00,00,00,00,00,
4309288441,00000264,false,Rx,0,6,45,00,00,00,E0,01,00,00,
4309288700,00000224,false,Rx,0,8,00,04,00,00,00,00,00,08,
4309295860,0000076C,false,Rx,0,8,6D,00,00,00,00,00,00,00,
4309305852,0000076C,false,Rx,0,8,6E,00,00,00,00,00,00,00,
4309315845,0000076C,false,Rx,0,8,6F,00,00,00,00,00,00,00,
4309325847,0000076C,false,Rx,0,8,70,00,00,00,00,00,00,00,
4309335839,0000076C,false,Rx,0,8,71,2C,30,00,2C,38,80,00,
4309345844,0000076C,false,Rx,0,8,77,00,00,5F,C0,0D,00,00,
4309355837,0000076C,false,Rx,0,8,78,00,00,5E,C0,0D,00,00,
4309365839,0000076C,false,Rx,0,8,79,00,00,00,00,00,00,00,
4309375842,0000076C,false,Rx,0,8,7A,01,09,00,00,00,00,00,
4309385896,0000076C,false,Rx,0,8,01,09,09,12,20,10,12,00,
4309387981,000002C4,false,Rx,0,8,13,00,00,00,00,00,00,00,
4309388234,00000204,false,Rx,0,8,01,00,00,00,00,00,00,00,
4309388454,00000264,false,Rx,0,6,45,00,00,00,E0,01,00,00,
4309388701,00000224,false,Rx,0,8,00,04,00,00,00,00,00,08,
4309388948,000003C4,false,Rx,0,8,0A,01,9B,01,FC,00,1B,00,
4309395835,0000076C,false,Rx,0,8,02,02,02,02,04,00,01,00,
4309405828,0000076C,false,Rx,0,8,03,5F,60,4A,4A,66,66,00,
4309415832,0000076C,false,Rx,0,8,04,0C,17,00,07,00,03,00,
4309425824,0000076C,false,Rx,0,8,05,AB,84,36,38,E4,2E,00,
4309435829,0000076C,false,Rx,0,8,0A,23,40,00,64,00,80,00,
4309445823,0000076C,false,Rx,0,8,0B,10,00,D0,20,FF,0F,00,
4309455837,0000076C,false,Rx,0,8,0C,00,00,00,40,20,40,00,
4309465829,0000076C,false,Rx,0,8,0D,04,32,8F,BB,28,00,00,
4309475821,0000076C,false,Rx,0,8,0E,DF,DB,39,97,02,00,00,
4309485825,0000076C,false,Rx,0,8,14,22,40,00,64,00,80,00,
4309487951,000002C4,false,Rx,0,8,14,00,00,00,00,00,00,00,
4309488204,00000204,false,Rx,0,8,01,00,00,00,00,00,00,00,
4309488424,00000264,false,Rx,0,6,45,00,00,00,E0,01,00,00,
4309488691,00000224,false,Rx,0,8,00,04,00,00,00,00,00,08,
4309495821,0000076C,false,Rx,0,8,15,00,00,D0,20,00,00,00,
4309505835,0000076C,false,Rx,0,8,16,00,00,00,40,00,00,00,
4309515817,0000076C,false,Rx,0,8,17,04,32,8F,BB,28,00,00,
4309525811,0000076C,false,Rx,0,8,18,DF,DB,39,97,02,00,00,
4309535814,0000076C,false,Rx,0,8,9E,22,40,00,64,00,80,00,
4309545828,0000076C,false,Rx,0,8,1F,01,00,D0,20,00,00,00,
4309555831,0000076C,false,Rx,0,8,20,00,00,00,40,00,00,00,
4309565805,0000076C,false,Rx,0,8,21,04,32,8F,BB,28,00,00,
4309575808,0000076C,false,Rx,0,8,22,DF,DB,39,97,02,00,00,
4309585821,0000076C,false,Rx,0,8,33,00,00,00,00,00,20,84,
4309587937,000002C4,false,Rx,0,8,55,00,02,08,00,C0,FE,00,
4309588202,00000204,false,Rx,0,8,01,00,00,00,00,00,00,00,
4309588420,00000264,false,Rx,0,6,46,00,00,00,E0,01,00,00,
4309588667,00000224,false,Rx,0,8,00,04,00,00,00,00,00,08,
4309595819,0000076C,false,Rx,0,8,34,00,00,00,00,00,00,00,
4309605811,0000076C,false,Rx,0,8,35,2A,00,00,00,00,00,00,
4309615824,0000076C,false,Rx,0,8,64,00,00,41,30,46,00,00,
4309625816,0000076C,false,Rx,0,8,66,00,00,00,00,00,00,00,
4309635819,0000076C,false,Rx,0,8,67,00,00,00,00,00,00,00,
4309645812,0000076C,false,Rx,0,8,68,00,00,00,00,00,00,00,
4309655806,0000076C,false,Rx,0,8,69,00,00,00,00,00,9D,FF,
4309665809,0000076C,false,Rx,0,8,6A,00,00,00,00,00,00,00,
4309675802,0000076C,false,Rx,0,8,6B,CD,06,00,00,00,00,00,
4309685806,0000076C,false,Rx,0,8,6C,00,00,00,00,00,1C,00,
4309687931,000002C4,false,Rx,0,8,16,81,0B,00,00,00,00,00,
4309688196,00000204,false,Rx,0,8,01,00,00,00,00,00,00,00,
4309688414,00000264,false,Rx,0,6,46,00,00,00,E0,01,00,00,
4309688661,00000224,false,Rx,0,8,00,04,00,00,00,00,00,08,
4309695804,0000076C,false,Rx,0,8,6D,00,00,00,00,00,00,00,
4309705796,0000076C,false,Rx,0,8,6E,00,00,00,00,00,00,00,
4309715809,0000076C,false,Rx,0,8,6F,00,00,00,00,00,00,00,
4309725802,0000076C,false,Rx,0,8,70,00,00,00,00,00,00,00,
4309735785,0000076C,false,Rx,0,8,71,2C,30,00,2C,38,80,00,
4309745798,0000076C,false,Rx,0,8,77,00,00,60,C0,0D,00,00,
4309755800,0000076C,false,Rx,0,8,78,00,00,5E,C0,0D,00,00,
4309765804,0000076C,false,Rx,0,8,79,00,00,00,00,00,00,00,
4309775787,0000076C,false,Rx,0,8,7A,01,09,00,00,00,00,00,
4309785842,0000076C,false,Rx,0,8,01,09,09,0E,20,10,12,00,
4309787916,000002C4,false,Rx,0,8,00,40,00,D2,00,00,00,00,
4309788170,00000204,false,Rx,0,8,01,00,00,00,00,00,00,00,
4309788388,00000264,false,Rx,0,6,46,00,00,00,E0,01,00,00,
4309788646,00000224,false,Rx,0,8,00,04,00,00,00,00,00,08,
4309795786,0000076C,false,Rx,0,8,02,02,02,02,04,00,01,00,
4309805778,0000076C,false,Rx,0,8,03,60,60,4A,4A,66,66,00,
4309815780,0000076C,false,Rx,0,8,04,0C,17,00,07,00,03,00,
4309825773,0000076C,false,Rx,0,8,05,AC,84,36,37,E4,2E,00,
4309835786,0000076C,false,Rx,0,8,8A,23,40,00,64,00,80,00,
4309845778,0000076C,false,Rx,0,8,0B,10,00,D0,20,FF,0F,00,
4309855780,0000076C,false,Rx,0,8,0C,00,00,00,40,20,40,00,
4309865773,0000076C,false,Rx,0,8,0D,04,32,8F,BB,28,00,00,
4309875775,0000076C,false,Rx,0,8,0E,DF,DB,39,97,02,00,00,
4309885777,0000076C,false,Rx,0,8,94,22,40,00,64,00,80,00,
4309887913,000002C4,false,Rx,0,8,01,00,00,D2,00,00,00,00,
4309888167,00000204,false,Rx,0,8,01,00,00,00,00,00,00,00,
4309888385,00000264,false,Rx,0,6,46,00,00,00,E0,01,00,00,
4309888654,00000224,false,Rx,0,8,00,04,00,00,00,00,00,08,
4309888912,000003C4,false,Rx,0,8,0B,00,04,01,01,00,FF,FF,
4309895780,0000076C,false,Rx,0,8,15,00,00,D0,20,00,00,00,
4309905783,0000076C,false,Rx,0,8,16,00,00,00,40,00,00,00,
4309915765,0000076C,false,Rx,0,8,17,04,32,8F,BB,28,00,00,
4309925768,0000076C,false,Rx,0,8,18,E0,DB,39,97,02,00,00,
4309935771,0000076C,false,Rx,0,8,9E,22,40,00,64,00,80,00,
4309945776,0000076C,false,Rx,0,8,1F,02,00,D0,20,00,00,00,
4309955768,0000076C,false,Rx,0,8,20,00,00,00,40,00,40,00,
4309965763,0000076C,false,Rx,0,8,21,04,32,8F,BB,28,00,00,
4309975766,0000076C,false,Rx,0,8,22,E0,DB,39,97,02,00,00,
4309985780,0000076C,false,Rx,0,8,33,00,00,00,00,00,20,84,
4309987896,000002C4,false,Rx,0,8,02,00,00,D2,00,00,00,00,
4309988160,00000204,false,Rx,0,8,01,00,00,00,00,00,00,00,
4309988369,00000264,false,Rx,0,6,46,00,00,00,E0,01,00,00,
4309988627,00000224,false,Rx,0,8,00,04,00,00,00,00,00,08,
4309989769,000002A4,false,Rx,0,8,1C,9F,39,CD,73,8E,F5,FF,
4309989915,00000364,false,Rx,0,2,00,78,00,00,00,00,00,00,
4309990165,000003A4,false,Rx,0,8,01,00,00,00,00,00,00,00,
4309995767,0000076C,false,Rx,0,8,34,00,00,00,00,00,00,00,
4310005769,0000076C,false,Rx,0,8,35,2A,00,00,00,00,00,00,
4310015784,0000076C,false,Rx,0,8,64,00,00,41,30,46,0E,00,
4310025766,0000076C,false,Rx,0,8,66,00,00,00,00,00,00,00,
4310035759,0000076C,false,Rx,0,8,67,00,00,00,00,00,00,00,
4310045763,0000076C,false,Rx,0,8,68,00,00,00,00,00,00,00,
4310055767,0000076C,false,Rx,0,8,69,00,00,00,00,00,9D,FF,
4310065769,0000076C,false,Rx,0,8,6A,00,00,00,00,00,00,00,
4310075751,0000076C,false,Rx,0,8,6B,CD,06,00,00,00,00,00,
4310085765,0000076C,false,Rx,0,8,6C,00,00,00,00,00,1C,00,
4310087870,000002C4,false,Rx,0,8,83,01,18,80,01,00,C0,00,
4310088125,00000204,false,Rx,0,8,01,00,00,00,00,00,00,00,
4310088343,00000264,false,Rx,0,6,47,00,00,00,E0,01,00,00,
4310088600,00000224,false,Rx,0,8,00,04,00,00,00,00,00,08,
4310095761,0000076C,false,Rx,0,8,6D,00,00,00,00,00,00,00,
4310105755,0000076C,false,Rx,0,8,6E,00,00,00,00,00,00,00,
4310115749,0000076C,false,Rx,0,8,6F,00,00,00,00,00,00,00,
4310125751,0000076C,false,Rx,0,8,70,00,00,00,00,00,00,00,
4310135743,0000076C,false,Rx,0,8,71,2C,30,00,2C,38,80,00,
4310145756,0000076C,false,Rx,0,8,77,00,00,60,C0,0D,00,00,
4310155739,0000076C,false,Rx,0,8,78,00,00,5E,C0,0D,00,00,
4310165742,0000076C,false,Rx,0,8,79,00,00,00,00,00,00,00,
4310175744,0000076C,false,Rx,0,8,7A,01,09,00,00,00,00,00,
4310185799,0000076C,false,Rx,0,8,01,09,09,0E,20,10,12,00,
4310187872,000002C4,false,Rx,0,8,04,00,00,00,00,00,41,00,
4310188126,00000204,false,Rx,0,8,01,00,00,00,00,00,00,00,
4310188344,00000264,false,Rx,0,6,47,00,00,00,E0,01,00,00,
4310188602,00000224,false,Rx,0,8,00,04,00,00,00,00,00,08,
4310195743,0000076C,false,Rx,0,8,02,02,02,02,04,01,01,00,
4310205735,0000076C,false,Rx,0,8,03,5F,60,4A,4A,65,66,00,
4310215729,0000076C,false,Rx,0,8,04,0C,17,00,07,00,03,00,
4310225731,0000076C,false,Rx,0,8,05,AB,8C,36,38,E4,2E,00,
4310235745,0000076C,false,Rx,0,8,0A,23,40,00,64,00,80,00,
4310245727,0000076C,false,Rx,0,8,0B,11,00,D0,20,FF,0F,00,
4310255741,0000076C,false,Rx,0,8,0C,00,00,00,40,20,40,00,
4310265733,0000076C,false,Rx,0,8,0D,04,32,8F,BB,28,00,00,
4310275728,0000076C,false,Rx,0,8,0E,E0,DB,39,97,02,00,00,
4310285731,0000076C,false,Rx,0,8,14,23,40,00,64,00,80,00,
4310287856,000002C4,false,Rx,0,8,25,22,00,00,00,00,00,20,
4310288121,00000204,false,Rx,0,8,01,00,00,00,00,00,00,00,
4310288339,00000264,false,Rx,0,6,47,00,00,00,E0,01,00,00,
4310288597,00000224,false,Rx,0,8,00,04,00,00,00,00,00,08,
4310295728,0000076C,false,Rx,0,8,15,00,00,D0,20,00,00,00,
4310305742,0000076C,false,Rx,0,8,16,00,00,00,40,00,00,00,
4310315724,0000076C,false,Rx,0,8,17,04,32,8F,BB,28,00,00,
4310325716,0000076C,false,Rx,0,8,18,DF,DB,39,97,02,00,00,
4310335718,0000076C,false,Rx,0,8,9E,23,40,00,64,00,80,00,
4310345731,0000076C,false,Rx,0,8,1F,01,00,D0,20,00,00,00,
4310355733,0000076C,false,Rx,0,8,20,00,00,00,40,00,00,00,
4310365715,0000076C,false,Rx,0,8,21,04,32,8F,BB,28,00,00,
4310375708,0000076C,false,Rx,0,8,22,DF,DB,39,97,02,00,00,
4310385731,0000076C,false,Rx,0,8,33,00,00,00,00,00,20,84,
4310387847,000002C4,false,Rx,0,8,26,23,41,00,00,00,C0,58,
4310388111,00000204,false,Rx,0,8,01,00,00,00,00,00,00,00,
4310388319,00000264,false,Rx,0,6,46,00,00,00,E0,01,00,00,
4310388587,00000224,false,Rx,0,8,00,04,00,00,00,00,00,08,
4310388845,000003C4,false,Rx,0,8,0D,03,00,00,72,F2,7C,0A,
4310395723,0000076C,false,Rx,0,8,34,00,00,00,00,00,00,00,
4310405725,0000076C,false,Rx,0,8,35,2A,00,00,00,00,00,00,
4310415739,0000076C,false,Rx,0,8,64,00,00,41,30,46,00,00,
4310425711,0000076C,false,Rx,0,8,66,00,00,00,00,00,00,00,
4310435723,0000076C,false,Rx,0,8,67,00,00,00,00,00,00,00,
4310445716,0000076C,false,Rx,0,8,68,00,00,00,00,00,00,00,
4310455710,0000076C,false,Rx,0,8,69,00,00,00,00,00,9D,FF,
4310465713,0000076C,false,Rx,0,8,6A,00,00,00,00,00,00,00,
4310475716,0000076C,false,Rx,0,8,6B,CD,06,00,00,00,00,00,
4310485718,0000076C,false,Rx,0,8,6C,00,00,00,00,00,1C,00,
4310487844,000002C4,false,Rx,0,8,07,00,00,00,00,00,00,00,
4310488098,00000204,false,Rx,0,8,01,00,00,00,00,00,00,00,
4310488317,00000264,false,Rx,0,6,46,00,00,00,E0,01,00,00,
4310488575,00000224,false,Rx,0,8,00,04,00,00,00,00,00,08,
4310495704,0000076C,false,Rx,0,8,6D,00,00,00,00,00,00,00,
4310505709,0000076C,false,Rx,0,8,6E,00,00,00,00,00,00,00,
4310515714,0000076C,false,Rx,0,8,6F,00,00,00,00,00,00,00,
4310525716,0000076C,false,Rx,0,8,70,00,00,00,00,00,00,00,
4310535689,0000076C,false,Rx,0,8,71,2C,30,00,2C,38,80,00,
4310545703,0000076C,false,Rx,0,8,77,00,00,5F,C0,0D,00,00,
4310555694,0000076C,false,Rx,0,8,78,00,00,5E,C0,0D,00,00,
4310565707,0000076C,false,Rx,0,8,79,00,00,00,00,00,00,00,
4310575689,0000076C,false,Rx,0,8,7A,01,09,00,00,00,00,00,
4310585743,0000076C,false,Rx,0,8,01,09,09,0E,20,0E,12,00,
4310587817,000002C4,false,Rx,0,8,08,00,00,00,1C,00,00,00,
4310588082,00000204,false,Rx,0,8,01,00,00,00,00,00,00,00,
4310588300,00000264,false,Rx,0,6,46,00,00,00,E0,01,00,00,
4310588558,00000224,false,Rx,0,8,00,04,00,00,00,00,00,08,
4310595687,0000076C,false,Rx,0,8,02,02,02,02,04,00,01,00,
4310605690,0000076C,false,Rx,0,8,03,5F,60,4A,4A,65,66,00,
4310615682,0000076C,false,Rx,0,8,04,0C,17,00,07,00,03,00,
4310625675,0000076C,false,Rx,0,8,05,AB,7C,36,38,E4,2E,00,
4310635689,0000076C,false,Rx,0,8,0A,23,40,00,64,00,80,00,
4310645683,0000076C,false,Rx,0,8,0B,10,00,D0,20,FF,0F,00,
4310655697,0000076C,false,Rx,0,8,0C,00,00,00,40,20,40,00,
4310665680,0000076C,false,Rx,0,8,0D,04,32,8F,BB,28,00,00,
4310675673,0000076C,false,Rx,0,8,0E,E0,DB,39,97,02,00,00,
