Time Stamp,ID,Extended,Dir,Bus,LEN,D1,D2,D3,D4,D5,D6,D7,D8
18598064,0000022A,false,Rx,0,4,00,00,70,18,00,00,00,00,
18598317,000003B2,false,Rx,0,8,5D,0F,F9,FF,00,CB,B6,04,
18598556,00000545,false,Rx,0,8,03,19,64,32,19,00,B0,C5,
18608062,0000022A,false,Rx,0,4,00,00,70,18,00,00,00,00,
18608315,000003B2,false,Rx,0,8,5E,0F,F9,FF,00,CB,B6,04,
18618064,0000022A,false,Rx,0,4,00,00,70,18,00,00,00,00,
18618307,000003B2,false,Rx,0,8,5D,0F,F9,FF,00,CB,B6,04,
18628057,0000022A,false,Rx,0,4,00,00,70,18,00,00,00,00,
18628310,000003B2,false,Rx,0,8,5E,0F,F9,FF,00,CB,B6,04,
18638070,0000022A,false,Rx,0,4,00,00,70,18,00,00,00,00,
18638313,000003B2,false,Rx,0,8,5D,0F,F9,FF,00,CB,B6,04,
18648063,0000022A,false,Rx,0,4,00,00,70,18,00,00,00,00,
18648317,000003B2,false,Rx,0,8,5E,0F,F9,FF,00,CB,B6,04,
18648577,00000545,false,Rx,0,8,14,00,3F,70,9F,01,CA,77,
18648753,00000333,false,Rx,0,4,04,30,29,07,00,00,00,00,
18648971,000002B2,false,Rx,0,5,00,00,00,00,00,00,00,00,
18649209,000003A1,false,Rx,0,8,09,62,78,9D,08,2C,12,5A,
18649468,00000321,false,Rx,0,8,2C,B6,A8,7F,02,7F,00,00,
18649717,0000025D,false,Rx,0,8,D9,8C,01,B5,4A,C1,0A,E0,
18649904,0000023D,false,Rx,0,4,40,00,00,00,00,00,00,00,
18650154,0000021D,false,Rx,0,8,5D,20,00,20,80,00,60,10,
18650413,0000020A,false,Rx,0,8,F6,15,09,82,18,01,00,00,
18650661,00000212,false,Rx,0,8,B9,1C,94,AD,C1,15,36,6B,
18658065,0000022A,false,Rx,0,4,00,00,70,18,00,00,00,00,
18658308,000003B2,false,Rx,0,8,5D,0F,F9,FF,00,CB,B6,04,
18668057,0000022A,false,Rx,0,4,00,00,70,18,00,00,00,00,
18668310,000003B2,false,Rx,0,8,5E,0F,F9,FF,00,CB,B6,04,
18678061,0000022A,false,Rx,0,4,00,00,70,18,00,00,00,00,
18678315,000003B2,false,Rx,0,8,5D,0F,F9,FF,00,CB,B6,04,
18688063,0000022A,false,Rx,0,4,00,00,70,18,00,00,00,00,
18688317,000003B2,false,Rx,0,8,5E,0F,F9,FF,00,CB,B6,04,
18688792,00000504,false,Rx,0,8,00,1B,05,03,00,01,00,01,
18698060,0000022A,false,Rx,0,4,00,00,70,18,00,00,00,00,
18698303,000003B2,false,Rx,0,8,5D,0F,F9,FF,00,CB,B6,04,
18698532,00000545,false,Rx,0,8,03,19,64,32,19,00,D0,E5,
18708067,0000022A,false,Rx,0,4,00,00,70,18,00,00,00,00,
18708310,000003B2,false,Rx,0,8,5E,0F,F9,FF,00,CB,B6,04,
18718062,0000022A,false,Rx,0,4,00,00,70,18,00,00,00,00,
18718305,000003B2,false,Rx,0,8,5D,0F,F9,FF,00,CB,B6,04,
18728056,0000022A,false,Rx,0,4,00,00,70,18,00,00,00,00,
18728299,000003B2,false,Rx,0,8,5E,0F,F9,FF,00,CB,B6,04,
18738069,0000022A,false,Rx,0,4,00,00,70,18,00,00,00,00,
18738302,000003B2,false,Rx,0,8,5D,0F,F9,FF,00,CB,B6,04,
18749150,0000022A,false,Rx,0,4,00,00,70,18,00,00,00,00,
18749394,000003B2,false,Rx,0,8,5E,0F,F9,FF,00,CB,B6,04,
18749642,00000545,false,Rx,0,8,14,00,3F,70,9F,01,EA,97,
18749808,00000333,false,Rx,0,4,04,30,29,07,00,00,00,00,
18750017,000002B2,false,Rx,0,5,00,00,00,00,00,00,00,00,
18750245,000003A1,false,Rx,0,8,09,62,78,9D,08,2C,12,5A,
18750493,00000321,false,Rx,0,8,2C,B6,A8,7F,02,7F,00,00,
18750732,0000025D,false,Rx,0,8,D9,8C,01,B5,4A,C1,0A,E0,
18750909,0000023D,false,Rx,0,4,40,00,00,00,00,00,00,00,
18751158,0000021D,false,Rx,0,8,5D,20,00,20,80,00,60,10,
18751399,0000020A,false,Rx,0,8,F6,15,09,82,18,01,00,00,
18751637,00000212,false,Rx,0,8,B9,1C,94,AD,C1,15,36,6B,
18758073,0000022A,false,Rx,0,4,00,00,70,18,00,00,00,00,
18758307,000003B2,false,Rx,0,8,5D,0F,F9,FF,00,CB,B6,04,
18768067,0000022A,false,Rx,0,4,00,00,70,18,00,00,00,00,
18768311,000003B2,false,Rx,0,8,5E,0F,F9,FF,00,CB,B6,04,
18778062,0000022A,false,Rx,0,4,00,00,70,18,00,00,00,00,
18778296,000003B2,false,Rx,0,8,5D,0F,F9,FF,00,CB,B6,04,
18788067,0000022A,false,Rx,0,4,00,00,70,18,00,00,00,00,
18788311,000003B2,false,Rx,0,8,5E,0F,F9,FF,00,CB,B6,04,
18798061,0000022A,false,Rx,0,4,00,00,70,18,00,00,00,00,
18798306,000003B2,false,Rx,0,8,5D,0F,F9,FF,00,CB,B6,04,
18798544,00000545,false,Rx,0,8,03,19,64,32,19,00,F0,05,
18808057,0000022A,false,Rx,0,4,00,00,70,18,00,00,00,00,
18808302,000003B2,false,Rx,0,8,5E,0F,F9,FF,00,CB,B6,04,
18818071,0000022A,false,Rx,0,4,00,00,70,18,00,00,00,00,
18818305,000003B2,false,Rx,0,8,5D,0F,F9,FF,00,CB,B6,04,
18828064,0000022A,false,Rx,0,4,00,00,70,18,00,00,00,00,
18828308,000003B2,false,Rx,0,8,5E,0F,F9,FF,00,CB,B6,04,
18838056,0000022A,false,Rx,0,4,00,00,70,18,00,00,00,00,
18838301,000003B2,false,Rx,0,8,5D,0F,F9,FF,00,CB,B6,04,
18848061,00000333,false,Rx,0,4,04,30,29,07,00,00,00,00,
18848265,000002B2,false,Rx,0,5,00,00,00,00,00,00,00,00,
18848492,000003A1,false,Rx,0,8,09,62,78,9D,08,2C,12,5A,
18848740,00000321,false,Rx,0,8,2C,B6,A8,7F,02,7F,00,00,
18848981,0000025D,false,Rx,0,8,D9,8C,01,B5,4A,C1,0A,E0,
18849157,0000023D,false,Rx,0,4,40,00,00,00,00,00,00,00,
18849405,0000021D,false,Rx,0,8,5D,20,00,20,80,00,60,10,
18849643,0000020A,false,Rx,0,8,F6,15,09,82,18,01,00,00,
18849882,00000212,false,Rx,0,8,B9,1C,94,AD,C1,15,36,6B,
18850061,0000022A,false,Rx,0,4,00,00,70,18,00,00,00,00,
18850300,000003B2,false,Rx,0,8,5E,0F,F9,FF,00,CB,B6,04,
18850539,00000545,false,Rx,0,8,14,00,3F,70,9F,01,0A,B7,
18858062,0000022A,false,Rx,0,4,00,00,70,18,00,00,00,00,
18858307,000003B2,false,Rx,0,8,5D,0F,F9,FF,00,CB,B6,04,
18868067,0000022A,false,Rx,0,4,00,00,70,18,00,00,00,00,
18868311,000003B2,false,Rx,0,8,5E,0F,F9,FF,00,CB,B6,04,
18878061,0000022A,false,Rx,0,4,00,00,70,18,00,00,00,00,
18878305,000003B2,false,Rx,0,8,5D,0F,F9,FF,00,CB,B6,04,
18888063,0000022A,false,Rx,0,4,00,00,70,18,00,00,00,00,
18888297,000003B2,false,Rx,0,8,5E,0F,F9,FF,00,CB,B6,04,
18898067,0000022A,false,Rx,0,4,00,00,70,18,00,00,00,00,
18898302,000003B2,false,Rx,0,8,5D,0F,F9,FF,00,CB,B6,04,
18898540,00000545,false,Rx,0,8,03,19,64,32,19,00,10,25,
18908067,0000022A,false,Rx,0,4,00,00,70,18,00,00,00,00,
18908300,000003B2,false,Rx,0,8,5E,0F,F9,FF,00,CB,B6,04,
18918063,0000022A,false,Rx,0,4,00,00,70,18,00,00,00,00,
18918306,000003B2,false,Rx,0,8,5D,0F,F9,FF,00,CB,B6,04,
18928068,0000022A,false,Rx,0,4,00,00,70,18,00,00,00,00,
18928311,000003B2,false,Rx,0,8,5E,0F,F9,FF,00,CB,B6,04,
18938062,0000022A,false,Rx,0,4,00,00,70,18,00,00,00,00,
18938305,000003B2,false,Rx,0,8,5D,0F,F9,FF,00,CB,B6,04,
18948057,0000022A,false,Rx,0,4,00,00,70,18,00,00,00,00,
18948300,000003B2,false,Rx,0,8,5E,0F,F9,FF,00,CB,B6,04,
18948548,00000545,false,Rx,0,8,14,00,3F,70,9F,01,2A,D7,
18948714,00000333,false,Rx,0,4,04,30,29,07,00,00,00,00,
18948922,000002B2,false,Rx,0,5,00,00,00,00,00,00,00,00,
18949151,000003A1,false,Rx,0,8,09,62,78,9D,08,2C,12,5A,
18949399,00000321,false,Rx,0,8,2C,B6,A8,7F,02,7F,00,00,
18949639,0000025D,false,Rx,0,8,D9,8C,01,B5,4A,C1,0A,E0,
18949815,0000023D,false,Rx,0,4,40,00,00,00,00,00,00,00,
18950064,0000021D,false,Rx,0,8,5D,20,00,20,80,00,60,10,
18950305,0000020A,false,Rx,0,8,F6,15,09,82,18,01,00,00,
18950533,00000212,false,Rx,0,8,B9,1C,94,AD,C1,15,36,6B,
18958058,0000022A,false,Rx,0,4,00,00,70,18,00,00,00,00,
18958301,000003B2,false,Rx,0,8,5D,0F,F9,FF,00,CB,B6,04,
18968062,0000022A,false,Rx,0,4,00,00,70,18,00,00,00,00,
18968305,000003B2,false,Rx,0,8,5E,0F,F9,FF,00,CB,B6,04,
18978068,0000022A,false,Rx,0,4,00,00,70,18,00,00,00,00,
18978300,000003B2,false,Rx,0,8,5D,0F,F9,FF,00,CB,B6,04,
18988059,0000022A,false,Rx,0,4,00,00,70,18,00,00,00,00,
18988302,000003B2,false,Rx,0,8,5E,0F,F9,FF,00,CB,B6,04,
18998072,0000022A,false,Rx,0,4,00,00,70,18,00,00,00,00,
18998305,000003B2,false,Rx,0,8,5D,0F,F9,FF,00,CB,B6,04,
18998543,00000545,false,Rx,0,8,03,19,64,32,19,00,30,45,
19008059,0000022A,false,Rx,0,4,00,00,70,18,00,00,00,00,
19008302,000003B2,false,Rx,0,8,5E,0F,F9,FF,00,CB,B6,04,
19018072,0000022A,false,Rx,0,4,00,00,70,18,00,00,00,00,
19018305,000003B2,false,Rx,0,8,5D,0F,F9,FF,00,CB,B6,04,
19028064,0000022A,false,Rx,0,4,00,00,70,18,00,00,00,00,
19028307,000003B2,false,Rx,0,8,5E,0F,F9,FF,00,CB,B6,04,
19038067,0000022A,false,Rx,0,4,00,00,70,18,00,00,00,00,
19038300,000003B2,false,Rx,0,8,5D,0F,F9,FF,00,CB,B6,04,
19048062,0000022A,false,Rx,0,4,00,00,70,18,00,00,00,00,
19048305,000003B2,false,Rx,0,8,5E,0F,F9,FF,00,CB,B6,04,
19048553,00000545,false,Rx,0,8,14,00,3F,70,9F,01,4A,F7,
19048721,00000333,false,Rx,0,4,04,30,29,07,00,00,00,00,
19048927,000002B2,false,Rx,0,5,00,00,00,00,00,00,00,00,
19049156,000003A1,false,Rx,0,8,09,62,78,9D,08,2C,12,5A,
19049405,00000321,false,Rx,0,8,2C,B6,A8,7F,02,7F,00,00,
19049633,0000025D,false,Rx,0,8,D9,8C,01,B5,4A,C1,0A,E0,
19049820,0000023D,false,Rx,0,4,40,00,00,00,00,00,00,00,
19050069,0000021D,false,Rx,0,8,5D,20,00,20,80,00,60,10,
19050310,0000020A,false,Rx,0,8,F6,15,09,82,18,01,00,00,
19050538,00000212,false,Rx,0,8,B9,1C,94,AD,C1,15,36,6B,
19058062,0000022A,false,Rx,0,4,00,00,70,18,00,00,00,00,
19058295,000003B2,false,Rx,0,8,5D,0F,F9,FF,00,CB,B6,04,
19068067,0000022A,false,Rx,0,4,00,00,70,18,00,00,00,00,
19068310,000003B2,false,Rx,0,8,5E,0F,F9,FF,00,CB,B6,04,
19078062,0000022A,false,Rx,0,4,00,00,70,18,00,00,00,00,
19078305,000003B2,false,Rx,0,8,5D,0F,F9,FF,00,CB,B6,04,
19088057,0000022A,false,Rx,0,4,00,00,70,18,00,00,00,00,
19088300,000003B2,false,Rx,0,8,5E,0F,F9,FF,00,CB,B6,04,
19098070,0000022A,false,Rx,0,4,00,00,70,18,00,00,00,00,
19098303,000003B2,false,Rx,0,8,5D,0F,F9,FF,00,CB,B6,04,
19098542,00000545,false,Rx,0,8,03,19,64,32,19,00,50,65,
19108067,0000022A,false,Rx,0,4,00,00,70,18,00,00,00,00,
19108300,000003B2,false,Rx,0,8,5E,0F,F9,FF,00,CB,B6,04,
19118060,0000022A,false,Rx,0,4,00,00,70,18,00,00,00,00,
19118303,000003B2,false,Rx,0,8,5D,0F,F9,FF,00,CB,B6,04,
19128062,0000022A,false,Rx,0,4,00,00,70,18,00,00,00,00,
19128305,000003B2,false,Rx,0,8,5E,0F,F9,FF,00,CB,B6,04,
19138067,0000022A,false,Rx,0,4,00,00,70,18,00,00,00,00,
19138300,000003B2,false,Rx,0,8,5D,0F,F9,FF,00,CB,B6,04,
19148061,0000022A,false,Rx,0,4,00,00,70,18,00,00,00,00,
19148305,000003B2,false,Rx,0,8,5E,0F,F9,FF,00,CB,B6,04,
19148544,00000545,false,Rx,0,8,14,00,3F,70,9F,01,6A,17,
19148720,00000333,false,Rx,0,4,04,30,29,07,00,00,00,00,
19148917,000002B2,false,Rx,0,5,00,00,00,00,00,00,00,00,
19149155,000003A1,false,Rx,0,8,09,62,78,9D,08,2C,12,5A,
19149405,00000321,false,Rx,0,8,2C,B6,A8,7F,02,7F,00,00,
19149633,0000025D,false,Rx,0,8,D9,8C,01,B5,4A,C1,0A,E0,
19149810,0000023D,false,Rx,0,4,40,00,00,00,00,00,00,00,
19150060,0000021D,false,Rx,0,8,5D,20,00,20,80,00,60,10,
19150310,0000020A,false,Rx,0,8,F6,15,09,82,18,01,00,00,
19150537,00000212,false,Rx,0,8,B9,1C,94,AD,C1,15,36,6B,
19158062,0000022A,false,Rx,0,4,00,00,70,18,00,00,00,00,
19158305,000003B2,false,Rx,0,8,5D,0F,F9,FF,00,CB,B6,04,
19168065,0000022A,false,Rx,0,4,00,00,70,18,00,00,00,00,
19168308,000003B2,false,Rx,0,8,5E,0F,F9,FF,00,CB,B6,04,
19178068,0000022A,false,Rx,0,4,00,00,70,18,00,00,00,00,
19178301,000003B2,false,Rx,0,8,5D,0F,F9,FF,00,CB,B6,04,
19188061,0000022A,false,Rx,0,4,00,00,70,18,00,00,00,00,
19188305,000003B2,false,Rx,0,8,5E,0F,F9,FF,00,CB,B6,04,
19198118,00000545,false,Rx,0,8,03,19,64,32,19,00,70,85,
19198291,0000022A,false,Rx,0,4,00,00,70,18,00,00,00,00,
19198539,000003B2,false,Rx,0,8,5D,0F,F9,FF,00,CB,B6,04,
19208062,0000022A,false,Rx,0,4,00,00,70,18,00,00,00,00,
19208306,000003B2,false,Rx,0,8,5E,0F,F9,FF,00,CB,B6,04,
19218056,0000022A,false,Rx,0,4,00,00,70,18,00,00,00,00,
19218299,000003B2,false,Rx,0,8,5D,0F,F9,FF,00,CB,B6,04,
19228072,0000022A,false,Rx,0,4,00,00,70,18,00,00,00,00,
19228305,000003B2,false,Rx,0,8,5E,0F,F9,FF,00,CB,B6,04,
19238066,0000022A,false,Rx,0,4,00,00,70,18,00,00,00,00,
19238300,000003B2,false,Rx,0,8,5D,0F,F9,FF,00,CB,B6,04,
19248058,0000022A,false,Rx,0,4,00,00,70,18,00,00,00,00,
19248302,000003B2,false,Rx,0,8,5E,0F,F9,FF,00,CB,B6,04,
19248540,00000545,false,Rx,0,8,14,00,3F,70,9F,01,8A,37,
19248717,00000333,false,Rx,0,4,04,30,29,07,00,00,00,00,
19248923,000002B2,false,Rx,0,5,00,00,00,00,00,00,00,00,
19249153,000003A1,false,Rx,0,8,09,62,78,9D,08,2C,12,5A,
19249402,00000321,false,Rx,0,8,2C,B6,A8,7F,02,7F,00,00,
19249640,0000025D,false,Rx,0,8,D9,8C,01,B5,4A,C1,0A,E0,
19249817,0000023D,false,Rx,0,4,40,00,00,00,00,00,00,00,
19250056,0000021D,false,Rx,0,8,5D,20,00,20,80,00,60,10,
19250306,0000020A,false,Rx,0,8,F6,15,09,82,18,01,00,00,
19250534,00000212,false,Rx,0,8,B9,1C,94,AD,C1,15,36,6B,
19258059,0000022A,false,Rx,0,4,00,00,70,18,00,00,00,00,
19258303,000003B2,false,Rx,0,8,5D,0F,F9,FF,00,CB,B6,04,
19268072,0000022A,false,Rx,0,4,00,00,70,18,00,00,00,00,
19268306,000003B2,false,Rx,0,8,5E,0F,F9,FF,00,CB,B6,04,
19278064,0000022A,false,Rx,0,4,00,00,70,18,00,00,00,00,
19278309,000003B2,false,Rx,0,8,5D,0F,F9,FF,00,CB,B6,04,
19288056,0000022A,false,Rx,0,4,00,00,70,18,00,00,00,00,
19288301,000003B2,false,Rx,0,8,5E,0F,F9,FF,00,CB,B6,04,
19298061,0000022A,false,Rx,0,4,00,00,70,18,00,00,00,00,
19298296,000003B2,false,Rx,0,8,5D,0F,F9,FF,00,CB,B6,04,
19298534,00000545,false,Rx,0,8,03,19,64,32,19,00,90,A5,
19308068,0000022A,false,Rx,0,4,00,00,70,18,00,00,00,00,
19308302,000003B2,false,Rx,0,8,5E,0F,F9,FF,00,CB,B6,04,
19318061,0000022A,false,Rx,0,4,00,00,70,18,00,00,00,00,
19318306,000003B2,false,Rx,0,8,5D,0F,F9,FF,00,CB,B6,04,
19328064,0000022A,false,Rx,0,4,00,00,70,18,00,00,00,00,
19328308,000003B2,false,Rx,0,8,5E,0F,F9,FF,00,CB,B6,04,
19338067,0000022A,false,Rx,0,4,00,00,70,18,00,00,00,00,
19338301,000003B2,false,Rx,0,8,5D,0F,F9,FF,00,CB,B6,04,
19348061,0000022A,false,Rx,0,4,00,00,70,18,00,00,00,00,
19348305,000003B2,false,Rx,0,8,5E,0F,F9,FF,00,CB,B6,04,
19348554,00000545,false,Rx,0,8,14,00,3F,70,9F,01,AA,57,
19348720,00000333,false,Rx,0,4,04,30,29,07,00,00,00,00,
19348928,000002B2,false,Rx,0,5,00,00,00,00,00,00,00,00,
19349156,000003A1,false,Rx,0,8,09,62,78,9D,08,2C,12,5A,
19349405,00000321,false,Rx,0,8,2C,B6,A8,7F,02,7F,00,00,
19349643,0000025D,false,Rx,0,8,D9,8C,01,B5,4A,C1,0A,E0,
19349821,0000023D,false,Rx,0,4,40,00,00,00,00,00,00,00,
19350069,0000021D,false,Rx,0,8,5D,20,00,20,80,00,60,10,
19350309,0000020A,false,Rx,0,8,F6,15,09,82,18,01,00,00,
19350538,00000212,false,Rx,0,8,B9,1C,94,AD,C1,15,36,6B,
19358062,0000022A,false,Rx,0,4,00,00,70,18,00,00,00,00,
19358297,000003B2,false,Rx,0,8,5D,0F,F9,FF,00,CB,B6,04,
19366730,0000076C,false,Rx,0,8,01,0D,0D,19,19,25,25,00,
19368057,0000022A,false,Rx,0,4,00,00,70,18,00,00,00,00,
19368306,000003B2,false,Rx,0,8,5E,0F,F9,FF,00,CB,B6,04,
19368861,000002C4,false,Rx,0,8,C6,28,42,0A,00,00,00,7D,
19369122,00000224,false,Rx,0,8,00,00,00,00,00,00,00,08,
19370731,000002A4,false,Rx,0,8,6B,17,3B,D9,EF,CE,F6,29,
19370867,00000364,false,Rx,0,2,00,78,00,00,00,00,00,00,
19371125,000003A4,false,Rx,0,8,00,00,00,00,00,00,00,00,
19376720,0000076C,false,Rx,0,8,02,01,01,02,02,01,01,00,
19378069,0000022A,false,Rx,0,4,00,00,70,18,00,00,00,00,
19378307,000003B2,false,Rx,0,8,5D,0F,F9,FF,00,CB,B6,04,
19386706,0000076C,false,Rx,0,8,03,62,62,4B,4B,6E,6E,00,
19388066,0000022A,false,Rx,0,4,00,00,70,18,00,00,00,00,
19388303,000003B2,false,Rx,0,8,5E,0F,F9,FF,00,CB,B6,04,
19396725,0000076C,false,Rx,0,8,04,15,15,00,05,00,02,00,
19398063,0000022A,false,Rx,0,4,00,00,70,18,00,00,00,00,
19398301,000003B2,false,Rx,0,8,5D,0F,F9,FF,00,CB,B6,04,
19398539,00000545,false,Rx,0,8,03,19,64,32,19,00,B0,C5,
19406714,0000076C,false,Rx,0,8,05,AC,BC,36,41,E4,2E,00,
19408063,0000022A,false,Rx,0,4,00,00,70,18,00,00,00,00,
19408310,000003B2,false,Rx,0,8,5E,0F,F9,FF,00,CB,B6,04,
19416731,0000076C,false,Rx,0,8,0A,09,E0,00,64,00,00,00,
19418070,0000022A,false,Rx,0,4,00,00,70,18,00,00,00,00,
19418307,000003B2,false,Rx,0,8,5D,0F,F9,FF,00,CB,B6,04,
19426718,0000076C,false,Rx,0,8,0B,0F,00,D0,20,00,00,00,
19428067,0000022A,false,Rx,0,4,00,00,70,18,00,00,00,00,
19428304,000003B2,false,Rx,0,8,5E,0F,F9,FF,00,CB,B6,04,
19436725,0000076C,false,Rx,0,8,0C,00,00,00,20,20,40,00,
19438063,0000022A,false,Rx,0,4,00,00,70,18,00,00,00,00,
19438301,000003B2,false,Rx,0,8,5D,0F,F9,FF,00,CB,B6,04,
19446721,0000076C,false,Rx,0,8,0D,04,32,8F,BB,28,00,00,
19448059,0000022A,false,Rx,0,4,00,00,70,18,00,00,00,00,
19448307,000003B2,false,Rx,0,8,5E,0F,F9,FF,00,CB,B6,04,
19448545,00000545,false,Rx,0,8,14,00,3F,70,9F,01,CA,77,
19448721,00000333,false,Rx,0,4,04,30,29,07,00,00,00,00,
19448920,000002B2,false,Rx,0,5,00,00,00,00,00,00,00,00,
19449159,000003A1,false,Rx,0,8,09,62,78,9D,08,2C,12,5A,
19449407,00000321,false,Rx,0,8,2C,B6,A8,7F,02,7F,00,00,
19449636,0000025D,false,Rx,0,8,D9,8C,01,B5,4A,C1,0A,E0,
19449813,0000023D,false,Rx,0,4,40,00,00,00,00,00,00,00,
19450062,0000021D,false,Rx,0,8,5D,20,00,20,80,00,60,10,
19450312,0000020A,false,Rx,0,8,F6,15,09,82,18,01,00,00,
19450540,00000212,false,Rx,0,8,B9,1C,94,AD,C1,15,36,6B,
19456705,0000076C,false,Rx,0,8,0E,87,AA,C6,BD,02,00,00,
19458064,0000022A,false,Rx,0,4,00,00,70,18,00,00,00,00,
19458301,000003B2,false,Rx,0,8,5D,0F,F9,FF,00,CB,B6,04,
19466732,0000076C,false,Rx,0,8,14,11,40,00,64,00,00,00,
19468061,0000022A,false,Rx,0,4,00,00,70,18,00,00,00,00,
19468298,000003B2,false,Rx,0,8,5E,0F,F9,FF,00,CB,B6,04,
19468874,000002C4,false,Rx,0,8,07,00,00,04,00,00,00,00,
19469134,00000204,false,Rx,0,8,09,00,00,00,00,00,00,10,
19469342,00000264,false,Rx,0,6,24,00,00,00,00,00,00,00,
19469683,00000224,false,Rx,0,8,00,04,00,00,00,00,00,08,
19476726,0000076C,false,Rx,0,8,15,00,00,D0,20,00,00,00,
19478065,0000022A,false,Rx,0,4,00,00,70,18,00,00,00,00,
19478303,000003B2,false,Rx,0,8,5D,0F,F9,FF,00,CB,B6,04,
19486724,0000076C,false,Rx,0,8,16,00,00,00,20,00,00,00,
19488063,0000022A,false,Rx,0,4,00,00,70,18,00,00,00,00,
19488310,000003B2,false,Rx,0,8,5E,0F,F9,FF,00,CB,B6,04,
19496720,0000076C,false,Rx,0,8,17,04,32,8F,BB,28,00,00,
19498059,0000022A,false,Rx,0,4,00,00,70,18,00,00,00,00,
19498306,000003B2,false,Rx,0,8,5D,0F,F9,FF,00,CB,B6,04,
19498534,00000545,false,Rx,0,8,03,19,64,32,19,00,D0,E5,
19506710,0000076C,false,Rx,0,8,18,86,AA,C7,BD,02,00,00,
19508059,0000022A,false,Rx,0,4,00,00,70,18,00,00,00,00,
19508296,000003B2,false,Rx,0,8,5E,0F,F9,FF,00,CB,B6,04,
19516726,0000076C,false,Rx,0,8,1E,0E,20,00,64,00,00,00,
19518066,0000022A,false,Rx,0,4,00,00,70,18,00,00,00,00,
19518303,000003B2,false,Rx,0,8,5D,0F,F9,FF,00,CB,B6,04,
19526724,0000076C,false,Rx,0,8,1F,00,00,D0,20,00,00,00,
19528063,0000022A,false,Rx,0,4,00,00,70,18,00,00,00,00,
19528310,000003B2,false,Rx,0,8,5E,0F,F9,FF,00,CB,B6,04,
19536721,0000076C,false,Rx,0,8,20,00,00,00,30,00,00,00,
19538069,0000022A,false,Rx,0,4,00,00,70,18,00,00,00,00,
19538307,000003B2,false,Rx,0,8,5D,0F,F9,FF,00,CB,B6,04,
19546706,0000076C,false,Rx,0,8,21,04,32,8F,BB,28,00,00,
19548065,0000022A,false,Rx,0,4,00,00,70,18,00,00,00,00,
19548303,000003B2,false,Rx,0,8,5E,0F,F9,FF,00,CB,B6,04,
19548551,00000545,false,Rx,0,8,14,00,3F,70,9F,01,EA,97,
19548718,00000333,false,Rx,0,4,04,30,29,07,00,00,00,00,
19548916,000002B2,false,Rx,0,5,00,00,00,00,00,00,00,00,
19549155,000003A1,false,Rx,0,8,09,62,78,9D,08,2C,12,5A,
19549405,00000321,false,Rx,0,8,2C,B6,A8,7F,02,7F,00,00,
19549632,0000025D,false,Rx,0,8,D9,8C,01,B5,4A,C1,0A,E0,
19549819,0000023D,false,Rx,0,4,40,00,00,00,00,00,00,00,
19550068,0000021D,false,Rx,0,8,5D,20,00,20,80,00,60,10,
19550308,0000020A,false,Rx,0,8,F6,15,09,82,18,01,00,00,
19550546,00000212,false,Rx,0,8,B9,1C,94,AD,C1,15,36,6B,
19556701,0000076C,false,Rx,0,8,22,86,AA,C7,BD,02,00,00,
19558060,0000022A,false,Rx,0,4,00,00,70,18,00,00,00,00,
19558307,000003B2,false,Rx,0,8,5D,0F,F9,FF,00,CB,B6,04,
19566719,0000076C,false,Rx,0,8,33,00,00,00,00,44,08,21,
19568067,0000022A,false,Rx,0,4,00,00,70,18,00,00,00,00,
19568305,000003B2,false,Rx,0,8,5E,0F,F9,FF,00,CB,B6,04,
19568860,000002C4,false,Rx,0,8,08,00,00,00,1C,00,00,00,
19569120,00000204,false,Rx,0,8,09,00,00,00,00,00,00,10,
19569339,00000264,false,Rx,0,6,2C,00,00,00,00,00,00,00,
19569669,00000224,false,Rx,0,8,00,04,00,00,00,00,00,08,
19576713,0000076C,false,Rx,0,8,34,00,00,00,00,00,00,00,
19578052,0000022A,false,Rx,0,4,00,00,70,18,00,00,00,00,
19578300,000003B2,false,Rx,0,8,5D,0F,F9,FF,00,CB,B6,04,
19586710,0000076C,false,Rx,0,8,35,2A,00,00,00,00,00,00,
19588068,0000022A,false,Rx,0,4,00,00,70,18,00,00,00,00,
19588306,000003B2,false,Rx,0,8,5E,0F,F9,FF,00,CB,B6,04,
19596726,0000076C,false,Rx,0,8,64,00,00,42,6A,51,00,00,
19598066,0000022A,false,Rx,0,4,00,00,70,18,00,00,00,00,
19598303,000003B2,false,Rx,0,8,5D,0F,F9,FF,00,CB,B6,04,
19598542,00000545,false,Rx,0,8,03,19,64,32,19,00,F0,05,
19606708,0000076C,false,Rx,0,8,66,00,00,00,00,00,00,00,
19608057,0000022A,false,Rx,0,4,00,00,70,18,00,00,00,00,
19608304,000003B2,false,Rx,0,8,5E,0F,F9,FF,00,CB,B6,04,
19616715,0000076C,false,Rx,0,8,67,00,00,00,00,00,00,00,
19618063,0000022A,false,Rx,0,4,00,00,70,18,00,00,00,00,
19618301,000003B2,false,Rx,0,8,5D,0F,F9,FF,00,CB,B6,04,
19626711,0000076C,false,Rx,0,8,68,00,00,00,00,00,00,00,
19628060,0000022A,false,Rx,0,4,00,00,70,18,00,00,00,00,
19628297,000003B2,false,Rx,0,8,5E,0F,F9,FF,00,CB,B6,04,
19636698,0000076C,false,Rx,0,8,69,00,00,00,00,00,9D,FF,
19638067,0000022A,false,Rx,0,4,00,00,70,18,00,00,00,00,
19638304,000003B2,false,Rx,0,8,5D,0F,F9,FF,00,CB,B6,04,
19646714,0000076C,false,Rx,0,8,6A,00,00,00,00,00,00,00,
19648063,0000022A,false,Rx,0,4,00,00,70,18,00,00,00,00,
19648311,000003B2,false,Rx,0,8,5E,0F,F9,FF,00,CB,B6,04,
19648550,00000545,false,Rx,0,8,14,00,3F,70,9F,01,0A,B7,
19648726,00000333,false,Rx,0,4,04,30,29,07,00,00,00,00,
19648924,000002B2,false,Rx,0,5,00,00,00,00,00,00,00,00,
19649163,000003A1,false,Rx,0,8,09,62,78,9D,08,2C,12,5A,
19649402,00000321,false,Rx,0,8,2C,B6,A8,7F,02,7F,00,00,
19649641,0000025D,false,Rx,0,8,D9,8C,01,B5,4A,C1,0A,E0,
19649817,0000023D,false,Rx,0,4,40,00,00,00,00,00,00,00,
19650067,0000021D,false,Rx,0,8,5D,20,00,20,80,00,60,10,
19650305,0000020A,false,Rx,0,8,F6,15,09,82,18,01,00,00,
19650544,00000212,false,Rx,0,8,B9,1C,94,AD,C1,15,36,6B,
19656698,0000076C,false,Rx,0,8,6B,CD,06,00,00,00,00,00,
19658067,0000022A,false,Rx,0,4,00,00,70,18,00,00,00,00,
19658304,000003B2,false,Rx,0,8,5D,0F,F9,FF,00,CB,B6,04,
19666715,0000076C,false,Rx,0,8,6C,00,00,00,00,00,1C,00,
19668063,0000022A,false,Rx,0,4,00,00,70,18,00,00,00,00,
19668311,000003B2,false,Rx,0,8,5E,0F,F9,FF,00,CB,B6,04,
19668825,000002C4,false,Rx,0,8,49,DC,E5,2E,B0,84,25,87,
19669096,00000204,false,Rx,0,8,09,00,00,00,00,00,00,10,
19669315,00000264,false,Rx,0,6,2F,00,00,00,00,00,00,00,
19669573,00000224,false,Rx,0,8,00,04,00,00,00,00,00,08,
19676709,0000076C,false,Rx,0,8,6D,00,00,00,00,00,00,00,
19678057,0000022A,false,Rx,0,4,00,00,70,18,00,00,00,00,
19678305,000003B2,false,Rx,0,8,5D,0F,F9,FF,00,CB,B6,04,
19686694,0000076C,false,Rx,0,8,6E,00,00,00,00,00,00,00,
19688053,0000022A,false,Rx,0,4,00,00,70,18,00,00,00,00,
19688300,000003B2,false,Rx,0,8,5E,0F,F9,FF,00,CB,B6,04,
19696713,0000076C,false,Rx,0,8,6F,00,00,00,00,00,00,00,
19698124,00000545,false,Rx,0,8,03,19,64,32,19,00,10,25,
19698300,0000022A,false,Rx,0,4,00,00,70,18,00,00,00,00,
19698539,000003B2,false,Rx,0,8,5D,0F,F9,FF,00,CB,B6,04,
19706703,0000076C,false,Rx,0,8,70,00,00,00,00,00,00,00,
19708062,0000022A,false,Rx,0,4,00,00,70,18,00,00,00,00,
19708300,000003B2,false,Rx,0,8,5E,0F,F9,FF,00,CB,B6,04,
19716700,0000076C,false,Rx,0,8,71,33,30,00,33,38,80,00,
19718059,0000022A,false,Rx,0,4,00,00,70,18,00,00,00,00,
19718297,000003B2,false,Rx,0,8,5D,0F,F9,FF,00,CB,B6,04,
19726706,0000076C,false,Rx,0,8,77,00,00,00,00,00,00,00,
19728055,0000022A,false,Rx,0,4,00,00,70,18,00,00,00,00,
19728304,000003B2,false,Rx,0,8,5E,0F,F9,FF,00,CB,B6,04,
19736693,0000076C,false,Rx,0,8,78,00,00,00,00,00,00,00,
19738062,0000022A,false,Rx,0,4,00,00,70,18,00,00,00,00,
19738300,000003B2,false,Rx,0,8,5D,0F,F9,FF,00,CB,B6,04,
19746699,0000076C,false,Rx,0,8,79,00,00,00,00,00,00,00,
19748119,00000545,false,Rx,0,8,14,00,3F,70,9F,01,2A,D7,
19748297,00000333,false,Rx,0,4,04,30,29,07,00,00,00,00,
19748493,000002B2,false,Rx,0,5,00,00,00,00,00,00,00,00,
19748731,000003A1,false,Rx,0,8,09,62,78,9D,08,2C,12,5A,
19748983,00000321,false,Rx,0,8,2C,B6,A8,7F,02,7F,00,00,
19749212,0000025D,false,Rx,0,8,D9,8C,01,B5,4A,C1,0A,E0,
19749389,0000023D,false,Rx,0,4,40,00,00,00,00,00,00,00,
19749637,0000021D,false,Rx,0,8,5D,20,00,20,80,00,60,10,
19749886,0000020A,false,Rx,0,8,F6,15,09,82,18,01,00,00,
19750115,00000212,false,Rx,0,8,B9,1C,94,AD,C1,15,36,6B,
19750292,0000022A,false,Rx,0,4,00,00,70,18,00,00,00,00,
19750540,000003B2,false,Rx,0,8,5E,0F,F9,FF,00,CB,B6,04,
19756684,0000076C,false,Rx,0,8,7A,01,09,00,00,00,00,00,
19758054,0000022A,false,Rx,0,4,00,00,70,18,00,00,00,00,
19758293,000003B2,false,Rx,0,8,5D,0F,F9,FF,00,CB,B6,04,
19766683,0000076C,false,Rx,0,8,7E,85,50,01,9A,00,B2,21,
19768062,0000022A,false,Rx,0,4,00,00,70,18,00,00,00,00,
19768300,000003B2,false,Rx,0,8,5E,0F,F9,FF,00,CB,B6,04,
19768855,000002C4,false,Rx,0,8,0A,00,00,00,97,DF,00,00,
19769116,00000204,false,Rx,0,8,09,00,00,00,00,00,00,10,
19769354,00000264,false,Rx,0,6,31,00,00,00,00,00,00,00,
19769664,00000224,false,Rx,0,8,00,04,00,00,00,00,00,08,
19769913,000003C4,false,Rx,0,8,0A,01,13,02,FC,00,1B,00,
19776745,0000076C,false,Rx,0,8,01,0D,0D,0E,19,17,25,00,
19778062,0000022A,false,Rx,0,4,00,00,70,18,00,00,00,00,
19778300,000003B2,false,Rx,0,8,5D,0F,F9,FF,00,CB,B6,04,
19786679,0000076C,false,Rx,0,8,02,02,02,03,03,00,01,00,
19788057,0000022A,false,Rx,0,4,00,00,70,18,00,00,00,00,
19788306,000003B2,false,Rx,0,8,5E,0F,F9,FF,00,CB,B6,04,
19796675,0000076C,false,Rx,0,8,03,62,62,4B,4B,62,6E,00,
19798063,0000022A,false,Rx,0,4,00,00,70,18,00,00,00,00,
19798302,000003B2,false,Rx,0,8,5D,0F,F9,FF,00,CB,B6,04,
19798540,00000545,false,Rx,0,8,03,19,64,32,19,00,30,45,
19806685,0000076C,false,Rx,0,8,04,15,18,00,07,00,02,00,
19808063,0000022A,false,Rx,0,4,00,00,70,18,00,00,00,00,
19808312,000003B2,false,Rx,0,8,5E,0F,F9,FF,00,CB,B6,04,
19816671,0000076C,false,Rx,0,8,05,AC,B4,36,41,E4,2E,00,
19818061,0000022A,false,Rx,0,4,00,00,70,18,00,00,00,00,
19818299,000003B2,false,Rx,0,8,5D,0F,F9,FF,00,CB,B6,04,
19826689,0000076C,false,Rx,0,8,8A,12,A0,01,64,00,00,00,
19828067,0000022A,false,Rx,0,4,00,00,70,18,00,00,00,00,
19828306,000003B2,false,Rx,0,8,5E,0F,F9,FF,00,CB,B6,04,
19836685,0000076C,false,Rx,0,8,0B,0F,00,D0,20,00,00,00,
19838063,0000022A,false,Rx,0,4,00,00,70,18,00,00,00,00,
19838302,000003B2,false,Rx,0,8,5D,0F,F9,FF,00,CB,B6,04,
19846691,0000076C,false,Rx,0,8,0C,00,00,00,20,20,40,00,
19849134,0000022A,false,Rx,0,4,00,00,70,18,00,00,00,00,
19849377,000003B2,false,Rx,0,8,5E,0F,F9,FF,00,CB,B6,04,
19849627,00000545,false,Rx,0,8,14,00,3F,70,9F,01,4A,F7,
19849793,00000333,false,Rx,0,4,04,30,29,07,00,00,00,00,
19849991,000002B2,false,Rx,0,5,00,00,00,00,00,00,00,00,
19850228,000003A1,false,Rx,0,8,09,62,78,9D,08,2C,12,5A,
19850478,00000321,false,Rx,0,8,2C,B6,A8,7F,02,7F,00,00,
19850716,0000025D,false,Rx,0,8,D9,8C,01,B5,4A,C1,0A,E0,
19850893,0000023D,false,Rx,0,4,40,00,00,00,00,00,00,00,
19851142,0000021D,false,Rx,0,8,5D,20,00,20,80,00,60,10,
19851383,0000020A,false,Rx,0,8,F6,15,09,82,18,01,00,00,
19851621,00000212,false,Rx,0,8,B9,1C,94,AD,C1,15,36,6B,
19856678,0000076C,false,Rx,0,8,0D,04,32,8F,BB,28,00,00,
19858056,0000022A,false,Rx,0,4,00,00,70,18,00,00,00,00,
19858295,000003B2,false,Rx,0,8,5D,0F,F9,FF,00,CB,B6,04,
19866674,0000076C,false,Rx,0,8,0E,89,AA,C4,BD,02,00,00,
19868053,0000022A,false,Rx,0,4,00,00,70,18,00,00,00,00,
19868301,000003B2,false,Rx,0,8,5E,0F,F9,FF,00,CB,B6,04,
19868825,000002C4,false,Rx,0,8,0B,00,00,80,FD,CC,00,00,
19869086,00000204,false,Rx,0,8,09,00,00,00,00,00,00,10,
19869304,00000264,false,Rx,0,6,32,00,00,00,00,00,00,00,
19869562,00000224,false,Rx,0,8,00,04,00,00,00,00,00,08,
19876689,0000076C,false,Rx,0,8,14,19,60,00,64,00,00,00,
19878058,0000022A,false,Rx,0,4,00,00,70,18,00,00,00,00,
19878305,000003B2,false,Rx,0,8,5D,0F,F9,FF,00,CB,B6,04,
19886674,0000076C,false,Rx,0,8,15,00,00,D0,20,00,00,00,
19888064,0000022A,false,Rx,0,4,00,00,70,18,00,00,00,00,
19888302,000003B2,false,Rx,0,8,5E,0F,F9,FF,00,CB,B6,04,
19896691,0000076C,false,Rx,0,8,16,00,00,00,20,00,00,00,
19898060,0000022A,false,Rx,0,4,00,00,70,18,00,00,00,00,
19898297,000003B2,false,Rx,0,8,5D,0F,F9,FF,00,CB,B6,04,
19898535,00000545,false,Rx,0,8,03,19,64,32,19,00,50,65,
19906670,0000076C,false,Rx,0,8,17,04,32,8F,BB,28,00,00,
19908070,0000022A,false,Rx,0,4,00,00,70,18,00,00,00,00,
19908307,000003B2,false,Rx,0,8,5E,0F,F9,FF,00,CB,B6,04,
19916665,0000076C,false,Rx,0,8,18,88,AA,C6,BD,02,00,00,
19918066,0000022A,false,Rx,0,4,00,00,70,18,00,00,00,00,
19918303,000003B2,false,Rx,0,8,5D,0F,F9,FF,00,CB,B6,04,
19926683,0000076C,false,Rx,0,8,1E,14,20,00,64,00,00,00,
19928062,0000022A,false,Rx,0,4,00,00,70,18,00,00,00,00,
19928299,000003B2,false,Rx,0,8,5E,0F,F9,FF,00,CB,B6,04,
19936679,0000076C,false,Rx,0,8,1F,00,00,D0,20,00,00,00,
19938058,0000022A,false,Rx,0,4,00,00,70,18,00,00,00,00,
19938295,000003B2,false,Rx,0,8,5D,0F,F9,FF,00,CB,B6,04,
19946685,0000076C,false,Rx,0,8,20,00,00,00,30,00,00,00,
19948054,0000022A,false,Rx,0,4,00,00,70,18,00,00,00,00,
19948302,000003B2,false,Rx,0,8,5E,0F,F9,FF,00,CB,B6,04,
19948540,00000545,false,Rx,0,8,14,00,3F,70,9F,01,6A,17,
19948718,00000333,false,Rx,0,4,04,30,29,07,00,00,00,00,
19948916,000002B2,false,Rx,0,5,00,00,00,00,00,00,00,00,
19949155,000003A1,false,Rx,0,8,09,62,78,9D,08,2C,12,5A,
19949393,00000321,false,Rx,0,8,2C,B6,A8,7F,02,7F,00,00,
19949632,0000025D,false,Rx,0,8,D9,8C,01,B5,4A,C1,0A,E0,
19949809,0000023D,false,Rx,0,4,40,00,00,00,00,00,00,00,
19950058,0000021D,false,Rx,0,8,5D,20,00,20,80,00,60,10,
19950307,0000020A,false,Rx,0,8,F6,15,09,82,18,01,00,00,
19950535,00000212,false,Rx,0,8,B9,1C,94,AD,C1,15,36,6B,
19956660,0000076C,false,Rx,0,8,21,04,32,8F,BB,28,00,00,
19958061,0000022A,false,Rx,0,4,00,00,70,18,00,00,00,00,
19958298,000003B2,false,Rx,0,8,5D,0F,F9,FF,00,CB,B6,04,
19966658,0000076C,false,Rx,0,8,22,88,AA,C6,BD,02,00,00,
19968058,0000022A,false,Rx,0,4,00,00,70,18,00,00,00,00,
19968305,000003B2,false,Rx,0,8,5E,0F,F9,FF,00,CB,B6,04,
19968809,000002C4,false,Rx,0,8,0C,00,00,80,E4,CC,00,00,
19969069,00000204,false,Rx,0,8,09,00,00,00,00,00,00,10,
19969287,00000264,false,Rx,0,6,33,00,00,00,00,00,00,00,
19969547,00000224,false,Rx,0,8,00,04,00,00,00,00,00,08,
19976673,0000076C,false,Rx,0,8,33,00,00,00,00,44,20,84,
19978063,0000022A,false,Rx,0,4,00,00,70,18,00,00,00,00,
19978300,000003B2,false,Rx,0,8,5D,0F,F9,FF,00,CB,B6,04,
19986669,0000076C,false,Rx,0,8,34,00,00,00,00,00,00,00,
19988059,0000022A,false,Rx,0,4,00,00,70,18,00,00,00,00,
19988307,000003B2,false,Rx,0,8,5E,0F,F9,FF,00,CB,B6,04,
19996675,0000076C,false,Rx,0,8,35,2A,00,00,00,00,00,00,
19998065,0000022A,false,Rx,0,4,00,00,70,18,00,00,00,00,
19998303,000003B2,false,Rx,0,8,5D,0F,F9,FF,00,CB,B6,04,
19998531,00000545,false,Rx,0,8,03,19,64,32,19,00,70,85,
20006676,0000076C,false,Rx,0,8,64,00,00,43,7A,51,1C,00,
20008055,0000022A,false,Rx,0,4,00,00,70,18,00,00,00,00,
20008303,000003B2,false,Rx,0,8,5E,0F,F9,FF,00,CB,B6,04,
20016662,0000076C,false,Rx,0,8,66,00,00,00,00,00,00,00,
20018062,0000022A,false,Rx,0,4,00,00,70,18,00,00,00,00,
20018309,000003B2,false,Rx,0,8,5D,0F,F9,FF,00,CB,B6,04,
20026668,0000076C,false,Rx,0,8,67,00,00,00,00,00,00,00,
20028068,0000022A,false,Rx,0,4,00,00,70,18,00,00,00,00,
20028306,000003B2,false,Rx,0,8,5E,0F,F9,FF,00,CB,B6,04,
20036664,0000076C,false,Rx,0,8,68,00,00,00,00,00,00,00,
20038064,0000022A,false,Rx,0,4,00,00,70,18,00,00,00,00,
20038302,000003B2,false,Rx,0,8,5D,0F,F9,FF,00,CB,B6,04,
20046662,0000076C,false,Rx,0,8,69,00,00,00,00,00,9D,FF,
20048062,0000022A,false,Rx,0,4,00,00,70,18,00,00,00,00,
20048300,000003B2,false,Rx,0,8,5E,0F,F9,FF,00,CB,B6,04,
20048549,00000545,false,Rx,0,8,14,00,3F,70,9F,01,8A,37,
20048715,00000333,false,Rx,0,4,04,30,29,07,00,00,00,00,
20048922,000002B2,false,Rx,0,5,00,00,00,00,00,00,00,00,
20049151,000003A1,false,Rx,0,8,09,62,78,9D,08,2C,12,5A,
20049400,00000321,false,Rx,0,8,2C,B6,A8,7F,02,7F,00,00,
20049638,0000025D,false,Rx,0,8,D9,8C,01,B5,4A,C1,0A,E0,
20049815,0000023D,false,Rx,0,4,40,00,00,00,00,00,00,00,
20050064,0000021D,false,Rx,0,8,5D,20,00,20,80,00,60,10,
20050303,0000020A,false,Rx,0,8,F6,15,09,82,18,01,00,00,
20050541,00000212,false,Rx,0,8,B9,1C,94,AD,C1,15,36,6B,
20056668,0000076C,false,Rx,0,8,6A,00,00,00,00,00,00,00,
20058057,0000022A,false,Rx,0,4,00,00,70,18,00,00,00,00,
20058305,000003B2,false,Rx,0,8,5D,0F,F9,FF,00,CB,B6,04,
20066654,0000076C,false,Rx,0,8,6B,CD,06,00,00,00,00,00,
20068064,0000022A,false,Rx,0,4,00,00,70,18,00,00,00,00,
20068301,000003B2,false,Rx,0,8,5E,0F,F9,FF,00,CB,B6,04,
20068816,000002C4,false,Rx,0,8,0D,00,00,00,00,00,00,00,
20069076,00000204,false,Rx,0,8,09,00,00,00,00,00,00,10,
20069295,00000264,false,Rx,0,6,33,00,00,00,00,00,00,00,
20069635,00000224,false,Rx,0,8,00,04,00,00,00,00,00,08,
20076668,0000076C,false,Rx,0,8,6C,00,00,00,00,00,1C,00,
20078058,0000022A,false,Rx,0,4,00,00,70,18,00,00,00,00,
20078295,000003B2,false,Rx,0,8,5D,0F,F9,FF,00,CB,B6,04,
20086654,0000076C,false,Rx,0,8,6D,00,00,00,00,00,00,00,
20088064,0000022A,false,Rx,0,4,00,00,70,18,00,00,00,00,
20088302,000003B2,false,Rx,0,8,5E,0F,F9,FF,00,CB,B6,04,
20096662,0000076C,false,Rx,0,8,6E,00,00,00,00,00,00,00,
20098062,0000022A,false,Rx,0,4,00,00,70,18,00,00,00,00,
20098299,000003B2,false,Rx,0,8,5D,0F,F9,FF,00,CB,B6,04,
20098539,00000545,false,Rx,0,8,03,19,64,32,19,00,90,A5,
20106663,0000076C,false,Rx,0,8,6F,00,00,00,00,00,00,00,
20108063,0000022A,false,Rx,0,4,00,00,70,18,00,00,00,00,
20108300,000003B2,false,Rx,0,8,5E,0F,F9,FF,00,CB,B6,04,
20116658,0000076C,false,Rx,0,8,70,00,00,00,00,00,00,00,
20118059,0000022A,false,Rx,0,4,00,00,70,18,00,00,00,00,
20118296,000003B2,false,Rx,0,8,5D,0F,F9,FF,00,CB,B6,04,
20126654,0000076C,false,Rx,0,8,71,33,30,00,33,38,80,00,
20128055,0000022A,false,Rx,0,4,00,00,70,18,00,00,00,00,
20128303,000003B2,false,Rx,0,8,5E,0F,F9,FF,00,CB,B6,04,
20136652,0000076C,false,Rx,0,8,77,00,00,08,EF,0F,00,00,
20138062,0000022A,false,Rx,0,4,00,00,70,18,00,00,00,00,
20138310,000003B2,false,Rx,0,8,5D,0F,F9,FF,00,CB,B6,04,
20146658,0000076C,false,Rx,0,8,78,00,00,00,00,00,00,00,
20148058,0000022A,false,Rx,0,4,00,00,70,18,00,00,00,00,
20148306,000003B2,false,Rx,0,8,5E,0F,F9,FF,00,CB,B6,04,
20148545,00000545,false,Rx,0,8,14,00,3F,70,9F,01,AA,57,
20148722,00000333,false,Rx,0,4,04,30,29,07,00,00,00,00,
20148928,000002B2,false,Rx,0,5,00,00,00,00,00,00,00,00,
20149158,000003A1,false,Rx,0,8,09,62,78,9D,08,2C,12,5A,
20149406,00000321,false,Rx,0,8,2C,B6,A8,7F,02,7F,00,00,
20149644,0000025D,false,Rx,0,8,D9,8C,01,B5,4A,C1,0A,E0,
20149821,0000023D,false,Rx,0,4,40,00,00,00,00,00,00,00,
20150071,0000021D,false,Rx,0,8,5D,20,00,20,80,00,60,10,
20150309,0000020A,false,Rx,0,8,F6,15,09,82,18,01,00,00,
20150547,00000212,false,Rx,0,8,B9,1C,94,AD,C1,15,36,6B,
20156653,0000076C,false,Rx,0,8,79,00,00,00,00,00,00,00,
20158063,0000022A,false,Rx,0,4,00,00,70,18,00,00,00,00,
20158300,000003B2,false,Rx,0,8,5D,0F,F9,FF,00,CB,B6,04,
20166649,0000076C,false,Rx,0,8,7A,01,09,00,00,00,00,00,
20168061,0000022A,false,Rx,0,4,00,00,70,18,00,00,00,00,
20168309,000003B2,false,Rx,0,8,5E,0F,F9,FF,00,CB,B6,04,
20168813,000002C4,false,Rx,0,8,12,00,00,00,00,00,00,00,
20169073,00000204,false,Rx,0,8,09,00,00,00,00,00,00,10,
20169291,00000264,false,Rx,0,6,33,00,00,00,00,00,00,00,
20169622,00000224,false,Rx,0,8,00,04,00,00,00,00,00,08,
20176644,0000076C,false,Rx,0,8,7E,85,50,01,9A,00,B2,21,
20178055,0000022A,false,Rx,0,4,00,00,70,18,00,00,00,00,
20178293,000003B2,false,Rx,0,8,5D,0F,F9,FF,00,CB,B6,04,
20186703,0000076C,false,Rx,0,8,01,10,10,16,19,17,25,00,
20188052,0000022A,false,Rx,0,4,00,00,70,18,00,00,00,00,
20188300,000003B2,false,Rx,0,8,5E,0F,F9,FF,00,CB,B6,04,
20196648,0000076C,false,Rx,0,8,02,02,02,02,03,00,01,00,
20198120,00000545,false,Rx,0,8,03,19,64,32,19,00,B0,C5,
20198286,0000022A,false,Rx,0,4,00,00,70,18,00,00,00,00,
20198535,000003B2,false,Rx,0,8,5D,0F,F9,FF,00,CB,B6,04,
20206629,0000076C,false,Rx,0,8,03,62,62,4B,4B,62,6E,00,
20208059,0000022A,false,Rx,0,4,00,00,70,18,00,00,00,00,
20208298,000003B2,false,Rx,0,8,5E,0F,F9,FF,00,CB,B6,04,
20216635,0000076C,false,Rx,0,8,04,15,18,00,07,00,02,00,
20218056,0000022A,false,Rx,0,4,00,00,70,18,00,00,00,00,
20218305,000003B2,false,Rx,0,8,5D,0F,F9,FF,00,CB,B6,04,
20226632,0000076C,false,Rx,0,8,05,AB,B4,36,41,E4,2E,00,
20228052,0000022A,false,Rx,0,4,00,00,70,18,00,00,00,00,
20228301,000003B2,false,Rx,0,8,5E,0F,F9,FF,00,CB,B6,04,
20236638,0000076C,false,Rx,0,8,0A,13,80,01,64,00,40,00,
20238059,0000022A,false,Rx,0,4,00,00,70,18,00,00,00,00,
20238297,000003B2,false,Rx,0,8,5D,0F,F9,FF,00,CB,B6,04,
20246636,0000076C,false,Rx,0,8,0B,0F,00,D0,20,00,00,00,
20248056,0000022A,false,Rx,0,4,00,00,70,18,00,00,00,00,
20248295,000003B2,false,Rx,0,8,5E,0F,F9,FF,00,CB,B6,04,
20248543,00000545,false,Rx,0,8,14,00,3F,70,9F,01,CA,77,
20248719,00000333,false,Rx,0,4,04,30,29,07,00,00,00,00,
20248916,000002B2,false,Rx,0,5,00,00,00,00,00,00,00,00,
20249156,000003A1,false,Rx,0,8,09,62,78,9D,08,2C,12,5A,
20249394,00000321,false,Rx,0,8,2C,B6,A8,7F,02,7F,00,00,
20249632,0000025D,false,Rx,0,8,D9,8C,01,B5,4A,C1,0A,E0,
20249810,0000023D,false,Rx,0,4,40,00,00,00,00,00,00,00,
20250059,0000021D,false,Rx,0,8,5D,20,00,20,80,00,60,10,
20250307,0000020A,false,Rx,0,8,F6,15,09,82,18,01,00,00,
20250536,00000212,false,Rx,0,8,B9,1C,94,AD,C1,15,36,6B,
20256642,0000076C,false,Rx,0,8,0C,00,00,00,20,20,40,00,
20258052,0000022A,false,Rx,0,4,00,00,70,18,00,00,00,00,
20258301,000003B2,false,Rx,0,8,5D,0F,F9,FF,00,CB,B6,04,
20266627,0000076C,false,Rx,0,8,0D,04,32,8F,BB,28,00,00,
20268058,0000022A,false,Rx,0,4,00,00,70,18,00,00,00,00,
20268296,000003B2,false,Rx,0,8,5E,0F,F9,FF,00,CB,B6,04,
20268800,000002C4,false,Rx,0,8,13,00,00,00,00,00,00,00,
20269061,00000204,false,Rx,0,8,09,00,00,00,00,00,00,10,
20269309,00000264,false,Rx,0,6,33,00,00,00,00,00,00,00,
20269609,00000224,false,Rx,0,8,00,04,00,00,00,00,00,08,
20269858,000003C4,false,Rx,0,8,0B,00,05,03,01,00,FF,FF,
20276627,0000076C,false,Rx,0,8,0E,87,AA,C6,BD,02,00,00,
20278057,0000022A,false,Rx,0,4,00,00,70,18,00,00,00,00,
20278306,000003B2,false,Rx,0,8,5D,0F,F9,FF,00,CB,B6,04,
20286634,0000076C,false,Rx,0,8,94,19,40,00,64,00,40,00,
20288063,0000022A,false,Rx,0,4,00,00,70,18,00,00,00,00,
20288302,000003B2,false,Rx,0,8,5E,0F,F9,FF,00,CB,B6,04,
20296629,0000076C,false,Rx,0,8,15,00,00,D0,20,00,00,00,
20298059,0000022A,false,Rx,0,4,00,00,70,18,00,00,00,00,
20298297,000003B2,false,Rx,0,8,5D,0F,F9,FF,00,CB,B6,04,
20298535,00000545,false,Rx,0,8,03,19,64,32,19,00,D0,E5,
20306639,0000076C,false,Rx,0,8,16,00,00,00,20,00,00,00,
20308059,0000022A,false,Rx,0,4,00,00,70,18,00,00,00,00,
20308297,000003B2,false,Rx,0,8,5E,0F,F9,FF,00,CB,B6,04,
20316627,0000076C,false,Rx,0,8,17,04,32,8F,BB,28,00,00,
20318066,0000022A,false,Rx,0,4,00,00,70,18,00,00,00,00,
20318305,000003B2,false,Rx,0,8,5D,0F,F9,FF,00,CB,B6,04,
20326633,0000076C,false,Rx,0,8,18,87,AA,C6,BD,02,00,00,
20328062,0000022A,false,Rx,0,4,00,00,70,18,00,00,00,00,
20328301,000003B2,false,Rx,0,8,5E,0F,F9,FF,00,CB,B6,04,
20336629,0000076C,false,Rx,0,8,9E,13,20,00,64,00,40,00,
20338058,0000022A,false,Rx,0,4,00,00,70,18,00,00,00,00,
20338297,000003B2,false,Rx,0,8,5D,0F,F9,FF,00,CB,B6,04,
20346637,0000076C,false,Rx,0,8,1F,00,00,D0,20,00,00,00,
20348057,0000022A,false,Rx,0,4,00,00,70,18,00,00,00,00,
20348305,000003B2,false,Rx,0,8,5E,0F,F9,FF,00,CB,B6,04,
20348543,00000545,false,Rx,0,8,14,00,3F,70,9F,01,EA,97,
20348719,00000333,false,Rx,0,4,04,30,29,07,00,00,00,00,
20348917,000002B2,false,Rx,0,5,00,00,00,00,00,00,00,00,
20349156,000003A1,false,Rx,0,8,09,62,78,9D,08,2C,12,5A,
20349394,00000321,false,Rx,0,8,2C,B6,A8,7F,02,7F,00,00,
20349633,0000025D,false,Rx,0,8,D9,8C,01,B5,4A,C1,0A,E0,
20349810,0000023D,false,Rx,0,4,40,00,00,00,00,00,00,00,
20350059,0000021D,false,Rx,0,8,5D,20,00,20,80,00,60,10,
20350307,0000020A,false,Rx,0,8,F6,15,09,82,18,01,00,00,
20350536,00000212,false,Rx,0,8,B9,1C,94,AD,C1,15,36,6B,
20356642,0000076C,false,Rx,0,8,20,00,00,00,30,00,00,00,
20358063,0000022A,false,Rx,0,4,00,00,70,18,00,00,00,00,
20358300,000003B2,false,Rx,0,8,5D,0F,F9,FF,00,CB,B6,04,
20366618,0000076C,false,Rx,0,8,21,04,32,8F,BB,28,00,00,
20368059,0000022A,false,Rx,0,4,00,00,70,18,00,00,00,00,
20368306,000003B2,false,Rx,0,8,5E,0F,F9,FF,00,CB,B6,04,
20368778,000002C4,false,Rx,0,8,14,00,00,00,19,02,00,00,
20369040,00000204,false,Rx,0,8,09,00,00,00,00,00,00,10,
20369258,00000264,false,Rx,0,6,33,00,00,00,00,00,00,00,
20369589,00000224,false,Rx,0,8,00,04,00,00,00,00,00,08,
20370622,000002A4,false,Rx,0,8,6A,0F,FB,D8,ED,BE,F6,29,
20370761,00000364,false,Rx,0,2,00,78,00,00,00,00,00,00,
20371030,000003A4,false,Rx,0,8,01,00,00,00,00,00,00,00,
20376627,0000076C,false,Rx,0,8,22,87,AA,C6,BD,02,00,00,
20378057,0000022A,false,Rx,0,4,00,00,70,18,00,00,00,00,
20378295,000003B2,false,Rx,0,8,5D,0F,F9,FF,00,CB,B6,04,
20386623,0000076C,false,Rx,0,8,33,00,00,00,00,44,20,84,
20388053,0000022A,false,Rx,0,4,00,00,70,18,00,00,00,00,
20388301,000003B2,false,Rx,0,8,5E,0F,F9,FF,00,CB,B6,04,
20396629,0000076C,false,Rx,0,8,34,00,00,00,00,00,00,00,
20398060,0000022A,false,Rx,0,4,00,00,70,18,00,00,00,00,
20398297,000003B2,false,Rx,0,8,5D,0F,F9,FF,00,CB,B6,04,
20398535,00000545,false,Rx,0,8,03,19,64,32,19,00,F0,05,
20406629,0000076C,false,Rx,0,8,35,2A,00,00,00,00,00,00,
20408060,0000022A,false,Rx,0,4,00,00,70,18,00,00,00,00,
20408307,000003B2,false,Rx,0,8,5E,0F,F9,FF,00,CB,B6,04,
20416636,0000076C,false,Rx,0,8,64,00,00,43,7A,51,1C,00,
20418057,0000022A,false,Rx,0,4,00,00,70,18,00,00,00,00,
20418304,000003B2,false,Rx,0,8,5D,0F,F9,FF,00,CB,B6,04,
20426632,0000076C,false,Rx,0,8,66,00,00,00,00,00,00,00,
20428063,0000022A,false,Rx,0,4,00,00,70,18,00,00,00,00,
20428300,000003B2,false,Rx,0,8,5E,0F,F9,FF,00,CB,B6,04,
20436618,0000076C,false,Rx,0,8,67,00,00,00,00,00,00,00,
20438059,0000022A,false,Rx,0,4,00,00,70,18,00,00,00,00,
20438296,000003B2,false,Rx,0,8,5D,0F,F9,FF,00,CB,B6,04,
20446624,0000076C,false,Rx,0,8,68,00,00,00,00,00,00,00,
20448055,0000022A,false,Rx,0,4,00,00,70,18,00,00,00,00,
20448303,000003B2,false,Rx,0,8,5E,0F,F9,FF,00,CB,B6,04,
20448541,00000545,false,Rx,0,8,14,00,3F,70,9F,01,0A,B7,
20448718,00000333,false,Rx,0,4,04,30,29,07,00,00,00,00,
20448915,000002B2,false,Rx,0,5,00,00,00,00,00,00,00,00,
20449153,000003A1,false,Rx,0,8,09,62,78,9D,08,2C,12,5A,
20449392,00000321,false,Rx,0,8,2C,B6,A8,7F,02,7F,00,00,
20449631,0000025D,false,Rx,0,8,D9,8C,01,B5,4A,C1,0A,E0,
20449807,0000023D,false,Rx,0,4,40,00,00,00,00,00,00,00,
20450056,0000021D,false,Rx,0,8,5D,20,00,20,80,00,60,10,
20450295,0000020A,false,Rx,0,8,F6,15,09,82,18,01,00,00,
20450533,00000212,false,Rx,0,8,B9,1C,94,AD,C1,15,36,6B,
20456618,0000076C,false,Rx,0,8,69,00,00,00,00,00,9D,FF,
20458059,0000022A,false,Rx,0,4,00,00,70,18,00,00,00,00,
20458296,000003B2,false,Rx,0,8,5D,0F,F9,FF,00,CB,B6,04,
20466624,0000076C,false,Rx,0,8,6A,00,00,00,00,00,00,00,
20468055,0000022A,false,Rx,0,4,00,00,70,18,00,00,00,00,
20468303,000003B2,false,Rx,0,8,5E,0F,F9,FF,00,CB,B6,04,
20468766,000002C4,false,Rx,0,8,35,00,01,04,10,80,FF,00,
20469026,00000204,false,Rx,0,8,01,00,00,00,00,00,00,10,
20469244,00000264,false,Rx,0,6,34,00,00,00,00,00,00,00,
20469493,00000224,false,Rx,0,8,00,04,00,00,00,00,00,08,
20476619,0000076C,false,Rx,0,8,6B,CD,06,00,00,00,00,00,
20478060,0000022A,false,Rx,0,4,00,00,70,18,00,00,00,00,
20478298,000003B2,false,Rx,0,8,5D,0F,F9,FF,00,CB,B6,04,
20486616,0000076C,false,Rx,0,8,6C,00,00,00,00,00,1C,00,
20488057,0000022A,false,Rx,0,4,00,00,70,18,00,00,00,00,
20488305,000003B2,false,Rx,0,8,5E,0F,F9,FF,00,CB,B6,04,
20496612,0000076C,false,Rx,0,8,6D,00,00,00,00,00,00,00,
20498053,0000022A,false,Rx,0,4,00,00,70,18,00,00,00,00,
20498301,000003B2,false,Rx,0,8,5D,0F,F9,FF,00,CB,B6,04,
20498539,00000545,false,Rx,0,8,03,19,64,32,19,00,10,25,
20506622,0000076C,false,Rx,0,8,6E,00,00,00,00,00,00,00,
20508063,0000022A,false,Rx,0,4,00,00,70,18,00,00,00,00,
20508311,000003B2,false,Rx,0,8,5E,0F,F9,FF,00,CB,B6,04,
20516618,0000076C,false,Rx,0,8,6F,00,00,00,00,00,00,00,
20518059,0000022A,false,Rx,0,4,00,00,70,18,00,00,00,00,
20518307,000003B2,false,Rx,0,8,5D,0F,F9,FF,00,CB,B6,04,
20526624,0000076C,false,Rx,0,8,70,00,00,00,00,00,00,00,
20528065,0000022A,false,Rx,0,4,00,00,70,18,00,00,00,00,
20528303,000003B2,false,Rx,0,8,5E,0F,F9,FF,00,CB,B6,04,
20536600,0000076C,false,Rx,0,8,71,33,30,00,33,38,80,00,
20538062,0000022A,false,Rx,0,4,00,00,70,18,00,00,00,00,
20538299,000003B2,false,Rx,0,8,5D,0F,F9,FF,00,CB,B6,04,
20546607,0000076C,false,Rx,0,8,77,00,00,08,EF,0F,00,00,
20548058,0000022A,false,Rx,0,4,00,00,70,18,00,00,00,00,
20548295,000003B2,false,Rx,0,8,5E,0F,F9,FF,00,CB,B6,04,
20548545,00000545,false,Rx,0,8,14,00,3F,70,9F,01,2A,D7,
20548711,00000333,false,Rx,0,4,04,30,29,07,00,00,00,00,
20548918,000002B2,false,Rx,0,5,00,00,00,00,00,00,00,00,
20549156,000003A1,false,Rx,0,8,09,62,78,9D,08,2C,12,5A,
20549396,00000321,false,Rx,0,8,2C,B6,A8,7F,02,7F,00,00,
20549634,0000025D,false,Rx,0,8,D9,8C,01,B5,4A,C1,0A,E0,
20549810,0000023D,false,Rx,0,4,40,00,00,00,00,00,00,00,
20550060,0000021D,false,Rx,0,8,5D,20,00,20,80,00,60,10,
20550299,0000020A,false,Rx,0,8,F6,15,09,82,18,01,00,00,
20550537,00000212,false,Rx,0,8,B9,1C,94,AD,C1,15,36,6B,
20556611,0000076C,false,Rx,0,8,78,00,00,00,00,00,00,00,
20558063,0000022A,false,Rx,0,4,00,00,70,18,00,00,00,00,
20558300,000003B2,false,Rx,0,8,5D,0F,F9,FF,00,CB,B6,04,
20566607,0000076C,false,Rx,0,8,79,00,00,00,00,00,00,00,
20568058,0000022A,false,Rx,0,4,00,00,70,18,00,00,00,00,
20568296,000003B2,false,Rx,0,8,5E,0F,F9,FF,00,CB,B6,04,
20568759,000002C4,false,Rx,0,8,16,1F,D9,00,00,00,00,01,
20569010,00000204,false,Rx,0,8,01,00,00,00,00,00,00,10,
20569239,00000264,false,Rx,0,6,33,00,00,00,00,00,00,00,
20569569,00000224,false,Rx,0,8,00,04,00,00,00,00,00,08,
20576612,0000076C,false,Rx,0,8,7A,01,09,00,00,00,00,00,
20578065,0000022A,false,Rx,0,4,00,00,70,18,00,00,00,00,
20578303,000003B2,false,Rx,0,8,5D,0F,F9,FF,00,CB,B6,04,
20586590,0000076C,false,Rx,0,8,7E,85,50,01,9A,00,B2,21,
20588062,0000022A,false,Rx,0,4,00,00,70,18,00,00,00,00,
20588300,000003B2,false,Rx,0,8,5E,0F,F9,FF,00,CB,B6,04,
20596658,0000076C,false,Rx,0,8,01,10,10,16,19,17,25,00,
20598058,0000022A,false,Rx,0,4,00,00,70,18,00,00,00,00,
20598296,000003B2,false,Rx,0,8,5D,0F,F9,FF,00,CB,B6,04,
20598535,00000545,false,Rx,0,8,03,19,64,32,19,00,30,45,
20606607,0000076C,false,Rx,0,8,02,02,02,02,03,01,01,00,
20608058,0000022A,false,Rx,0,4,00,00,70,18,00,00,00,00,
20608295,000003B2,false,Rx,0,8,5E,0F,F9,FF,00,CB,B6,04,
20616582,0000076C,false,Rx,0,8,03,62,62,4B,4B,62,6E,00,
20618055,0000022A,false,Rx,0,4,00,00,70,18,00,00,00,00,
20618293,000003B2,false,Rx,0,8,5D,0F,F9,FF,00,CB,B6,04,
20626600,0000076C,false,Rx,0,8,04,15,18,00,07,00,02,00,
20628062,0000022A,false,Rx,0,4,00,00,70,18,00,00,00,00,
20628309,000003B2,false,Rx,0,8,5E,0F,F9,FF,00,CB,B6,04,
20636586,0000076C,false,Rx,0,8,05,AC,B4,36,41,E4,2E,00,
20638058,0000022A,false,Rx,0,4,00,00,70,18,00,00,00,00,
20638306,000003B2,false,Rx,0,8,5D,0F,F9,FF,00,CB,B6,04,
20646593,0000076C,false,Rx,0,8,8A,13,40,01,64,00,40,00,
20648065,0000022A,false,Rx,0,4,00,00,70,18,00,00,00,00,
20648303,000003B2,false,Rx,0,8,5E,0F,F9,FF,00,CB,B6,04,
20648552,00000545,false,Rx,0,8,14,00,3F,70,9F,01,4A,F7,
20648729,00000333,false,Rx,0,4,04,30,29,07,00,00,00,00,
20648925,000002B2,false,Rx,0,5,00,00,00,00,00,00,00,00,
20649165,000003A1,false,Rx,0,8,09,62,78,9D,08,2C,12,5A,
20649403,00000321,false,Rx,0,8,2C,B6,A8,7F,02,7F,00,00,
20649641,0000025D,false,Rx,0,8,D9,8C,01,B5,4A,C1,0A,E0,
20649818,0000023D,false,Rx,0,4,40,00,00,00,00,00,00,00,
20650068,0000021D,false,Rx,0,8,5D,20,00,20,80,00,60,10,
20650306,0000020A,false,Rx,0,8,F6,15,09,82,18,01,00,00,
20650544,00000212,false,Rx,0,8,B9,1C,94,AD,C1,15,36,6B,
20656598,0000076C,false,Rx,0,8,0B,0F,00,D0,20,FF,0F,00,
20658060,0000022A,false,Rx,0,4,00,00,70,18,00,00,00,00,
20658307,000003B2,false,Rx,0,8,5D,0F,F9,FF,00,CB,B6,04,
20666594,0000076C,false,Rx,0,8,0C,00,00,00,20,20,40,00,
20668056,0000022A,false,Rx,0,4,00,00,70,18,00,00,00,00,
20668304,000003B2,false,Rx,0,8,5E,0F,F9,FF,00,CB,B6,04,
20668746,000002C4,false,Rx,0,8,20,40,00,D2,00,00,00,00,
20669006,00000204,false,Rx,0,8,01,00,00,00,00,00,00,10,
20669225,00000264,false,Rx,0,6,33,00,00,00,00,00,00,00,
20669565,00000224,false,Rx,0,8,00,04,00,00,00,00,00,08,
20676600,0000076C,false,Rx,0,8,0D,04,32,8F,BB,28,00,00,
20678051,0000022A,false,Rx,0,4,00,00,70,18,00,00,00,00,
20678300,000003B2,false,Rx,0,8,5D,0F,F9,FF,00,CB,B6,04,
20686585,0000076C,false,Rx,0,8,0E,86,AA,C7,BD,02,00,00,
20688068,0000022A,false,Rx,0,4,00,00,70,18,00,00,00,00,
20688306,000003B2,false,Rx,0,8,5E,0F,F9,FF,00,CB,B6,04,
20696591,0000076C,false,Rx,0,8,94,19,40,00,64,00,40,00,
20698063,0000022A,false,Rx,0,4,00,00,70,18,00,00,00,00,
20698302,000003B2,false,Rx,0,8,5D,0F,F9,FF,00,CB,B6,04,
20698540,00000545,false,Rx,0,8,03,19,64,32,19,00,50,65,
20706602,0000076C,false,Rx,0,8,15,00,00,D0,20,00,00,00,
20708054,0000022A,false,Rx,0,4,00,00,70,18,00,00,00,00,
20708303,000003B2,false,Rx,0,8,5E,0F,F9,FF,00,CB,B6,04,
20716590,0000076C,false,Rx,0,8,16,00,00,00,20,00,00,00,
20718062,0000022A,false,Rx,0,4,00,00,70,18,00,00,00,00,
20718301,000003B2,false,Rx,0,8,5D,0F,F9,FF,00,CB,B6,04,
20726586,0000076C,false,Rx,0,8,17,04,32,8F,BB,28,00,00,
20728058,0000022A,false,Rx,0,4,00,00,70,18,00,00,00,00,
20728297,000003B2,false,Rx,0,8,5E,0F,F9,FF,00,CB,B6,04,
20736573,0000076C,false,Rx,0,8,18,86,AA,C8,BD,02,00,00,
20738055,0000022A,false,Rx,0,4,00,00,70,18,00,00,00,00,
20738294,000003B2,false,Rx,0,8,5D,0F,F9,FF,00,CB,B6,04,
20746580,0000076C,false,Rx,0,8,1E,14,20,00,64,00,40,00,
20748052,00000333,false,Rx,0,4,04,30,29,07,00,00,00,00,
20748259,000002B2,false,Rx,0,5,00,00,00,00,00,00,00,00,
20748487,000003A1,false,Rx,0,8,09,62,78,9D,08,2C,12,5A,
20748735,00000321,false,Rx,0,8,2C,B6,A8,7F,02,7F,00,00,
20748975,0000025D,false,Rx,0,8,D9,8C,01,B5,4A,C1,0A,E0,
20749152,0000023D,false,Rx,0,4,40,00,00,00,00,00,00,00,
20749400,0000021D,false,Rx,0,8,5D,20,00,20,80,00,60,10,
20749638,0000020A,false,Rx,0,8,F6,15,09,82,18,01,00,00,
20749877,00000212,false,Rx,0,8,B9,1C,94,AD,C1,15,36,6B,
20750055,0000022A,false,Rx,0,4,00,00,70,18,00,00,00,00,
20750292,000003B2,false,Rx,0,8,5E,0F,F9,FF,00,CB,B6,04,
20750532,00000545,false,Rx,0,8,14,00,3F,70,9F,01,6A,17,
20756594,0000076C,false,Rx,0,8,1F,00,00,D0,20,00,00,00,
20758056,0000022A,false,Rx,0,4,00,00,70,18,00,00,00,00,
20758295,000003B2,false,Rx,0,8,5D,0F,F9,FF,00,CB,B6,04,
20766591,0000076C,false,Rx,0,8,20,00,00,00,30,00,00,00,
20768062,0000022A,false,Rx,0,4,00,00,70,18,00,00,00,00,
20768301,000003B2,false,Rx,0,8,5E,0F,F9,FF,00,CB,B6,04,
20768742,000002C4,false,Rx,0,8,01,00,00,D2,00,00,00,00,
20769004,00000204,false,Rx,0,8,01,00,00,00,00,00,00,10,
20769221,00000264,false,Rx,0,6,34,00,00,00,00,00,00,00,
20769551,00000224,false,Rx,0,8,00,04,00,00,00,00,00,08,
20769811,000003C4,false,Rx,0,8,0D,03,00,00,F8,3F,81,AA,
20776580,0000076C,false,Rx,0,8,21,04,32,8F,BB,28,00,00,
20778062,0000022A,false,Rx,0,4,00,00,70,18,00,00,00,00,
20778300,000003B2,false,Rx,0,8,5D,0F,F9,FF,00,CB,B6,04,
20786575,0000076C,false,Rx,0,8,22,86,AA,C7,BD,02,00,00,
20788058,0000022A,false,Rx,0,4,00,00,70,18,00,00,00,00,
20788296,000003B2,false,Rx,0,8,5E,0F,F9,FF,00,CB,B6,04,
20796583,0000076C,false,Rx,0,8,33,00,00,00,00,44,20,84,
20798054,0000022A,false,Rx,0,4,00,00,70,18,00,00,00,00,
20798293,000003B2,false,Rx,0,8,5D,0F,F9,FF,00,CB,B6,04,
20798531,00000545,false,Rx,0,8,03,19,64,32,19,00,70,85,
20806585,0000076C,false,Rx,0,8,34,00,00,00,00,00,00,00,
20808056,0000022A,false,Rx,0,4,00,00,70,18,00,00,00,00,
20808305,000003B2,false,Rx,0,8,5E,0F,F9,FF,00,CB,B6,04,
20816581,0000076C,false,Rx,0,8,35,2A,00,00,00,00,00,00,
20818063,0000022A,false,Rx,0,4,00,00,70,18,00,00,00,00,
20818301,000003B2,false,Rx,0,8,5D,0F,F9,FF,00,CB,B6,04,
20826598,0000076C,false,Rx,0,8,64,00,00,42,7A,51,0E,00,
20828060,0000022A,false,Rx,0,4,00,00,70,18,00,00,00,00,
20828297,000003B2,false,Rx,0,8,5E,0F,F9,FF,00,CB,B6,04,
20836585,0000076C,false,Rx,0,8,66,00,00,00,00,00,00,00,
20838057,0000022A,false,Rx,0,4,00,00,70,18,00,00,00,00,
20838294,000003B2,false,Rx,0,8,5D,0F,F9,FF,00,CB,B6,04,
20846571,0000076C,false,Rx,0,8,67,00,00,00,00,00,00,00,
20848053,0000022A,false,Rx,0,4,00,00,70,18,00,00,00,00,
20848301,000003B2,false,Rx,0,8,5E,0F,F9,FF,00,CB,B6,04,
20848539,00000545,false,Rx,0,8,14,00,3F,70,9F,01,8A,37,
20848715,00000333,false,Rx,0,4,04,30,29,07,00,00,00,00,
20848913,000002B2,false,Rx,0,5,00,00,00,00,00,00,00,00,
20849151,000003A1,false,Rx,0,8,09,62,78,9D,08,2C,12,5A,
20849390,00000321,false,Rx,0,8,2C,B6,A8,7F,02,7F,00,00,
20849629,0000025D,false,Rx,0,8,D9,8C,01,B5,4A,C1,0A,E0,
20849806,0000023D,false,Rx,0,4,40,00,00,00,00,00,00,00,
20850055,0000021D,false,Rx,0,8,5D,20,00,20,80,00,60,10,
20850304,0000020A,false,Rx,0,8,F6,15,09,82,18,01,00,00,
20850533,00000212,false,Rx,0,8,B9,1C,94,AD,C1,15,36,6B,
20856587,0000076C,false,Rx,0,8,68,00,00,00,00,00,00,00,
20858059,0000022A,false,Rx,0,4,00,00,70,18,00,00,00,00,
20858296,000003B2,false,Rx,0,8,5D,0F,F9,FF,00,CB,B6,04,
20866574,0000076C,false,Rx,0,8,69,00,00,00,00,00,9D,FF,
20868056,0000022A,false,Rx,0,4,00,00,70,18,00,00,00,00,
20868294,000003B2,false,Rx,0,8,5E,0F,F9,FF,00,CB,B6,04,
20868725,000002C4,false,Rx,0,8,02,00,00,D2,00,00,00,00,
20868986,00000204,false,Rx,0,8,01,00,00,00,00,00,00,10,
20869204,00000264,false,Rx,0,6,34,00,00,00,00,00,00,00,
20869545,00000224,false,Rx,0,8,00,04,00,00,00,00,00,08,
20876591,0000076C,false,Rx,0,8,6A,00,00,00,00,00,00,00,
20878063,0000022A,false,Rx,0,4,00,00,70,18,00,00,00,00,
20878300,000003B2,false,Rx,0,8,5D,0F,F9,FF,00,CB,B6,04,
20886576,0000076C,false,Rx,0,8,6B,CD,06,00,00,00,00,00,
20888058,0000022A,false,Rx,0,4,00,00,70,18,00,00,00,00,
20888296,000003B2,false,Rx,0,8,5E,0F,F9,FF,00,CB,B6,04,
20896572,0000076C,false,Rx,0,8,6C,00,00,00,00,00,1C,00,
20898054,0000022A,false,Rx,0,4,00,00,70,18,00,00,00,00,
20898292,000003B2,false,Rx,0,8,5D,0F,F9,FF,00,CB,B6,04,
20898530,00000545,false,Rx,0,8,03,19,64,32,19,00,90,A5,
20906574,0000076C,false,Rx,0,8,6D,00,00,00,00,00,00,00,
20908067,0000022A,false,Rx,0,4,00,00,70,18,00,00,00,00,
20908304,000003B2,false,Rx,0,8,5E,0F,F9,FF,00,CB,B6,04,
20916570,0000076C,false,Rx,0,8,6E,00,00,00,00,00,00,00,
20918063,0000022A,false,Rx,0,4,00,00,70,18,00,00,00,00,
20918300,000003B2,false,Rx,0,8,5D,0F,F9,FF,00,CB,B6,04,
20926577,0000076C,false,Rx,0,8,6F,00,00,00,00,00,00,00,
20928059,0000022A,false,Rx,0,4,00,00,70,18,00,00,00,00,
20928306,000003B2,false,Rx,0,8,5E,0F,F9,FF,00,CB,B6,04,
20936575,0000076C,false,Rx,0,8,70,00,00,00,00,00,00,00,
20938047,0000022A,false,Rx,0,4,00,00,79,18,00,00,00,00,
20938294,000003B2,false,Rx,0,8,5D,0F,F9,FF,00,CB,B6,04,
20938563,00000424,false,Rx,0,8,4C,80,05,00,00,00,00,A0,
20946554,0000076C,false,Rx,0,8,71,33,30,00,33,38,80,00,
20949017,0000022A,false,Rx,0,4,00,00,79,18,00,00,00,00,
20949260,000003B2,false,Rx,0,8,5E,0F,F9,FF,00,CB,B6,04,
20949510,00000545,false,Rx,0,8,14,00,3F,70,9F,01,AA,57,
20949676,00000333,false,Rx,0,4,04,30,29,07,00,00,00,00,
20949883,000002B2,false,Rx,0,5,00,00,00,00,00,00,00,00,
20950112,000003A1,false,Rx,0,8,09,62,78,9D,08,2C,12,5A,
20950361,00000321,false,Rx,0,8,2C,B6,A8,7F,02,7F,00,00,
20950600,0000025D,false,Rx,0,8,D9,8C,01,B5,4A,C1,0A,E0,
20950776,0000023D,false,Rx,0,4,40,00,00,00,00,00,00,00,
20951026,0000021D,false,Rx,0,8,5D,20,00,20,80,00,60,10,
20951266,0000020A,false,Rx,0,8,F6,15,09,82,18,01,00,00,
20951504,00000212,false,Rx,0,8,B9,1C,94,AD,C1,15,36,6B,
20951743,0000076C,false,Rx,0,8,7B,00,00,00,00,00,00,00,
20952014,0000076C,false,Rx,0,8,7C,00,00,00,00,00,00,00,
20952283,0000076C,false,Rx,0,8,7D,00,00,00,00,00,00,00,
20952574,0000076C,false,Rx,0,8,7B,00,00,00,00,00,00,00,
20952833,0000076C,false,Rx,0,8,7C,00,00,00,00,00,00,00,
20953101,0000076C,false,Rx,0,8,7D,00,00,00,00,00,00,00,
20953557,0000076C,false,Rx,0,8,7B,00,00,00,00,00,00,00,
20953825,0000076C,false,Rx,0,8,7C,00,00,00,00,00,00,00,
20954077,0000076C,false,Rx,0,8,7D,00,00,00,00,00,00,00,
20954562,0000076C,false,Rx,0,8,7B,00,00,00,00,00,00,00,
20954832,0000076C,false,Rx,0,8,7C,00,00,00,00,00,00,00,
20955092,0000076C,false,Rx,0,8,7D,00,00,00,00,00,00,00,
20955556,0000076C,false,Rx,0,8,7B,00,00,00,00,00,00,00,
20955825,0000076C,false,Rx,0,8,7C,00,00,00,00,00,00,00,
20956084,0000076C,false,Rx,0,8,7D,00,00,00,00,00,00,00,
20956591,0000076C,false,Rx,0,8,77,00,00,08,EF,0F,00,00,
20956839,0000076C,false,Rx,0,8,7B,00,00,00,00,00,00,00,
20957100,0000076C,false,Rx,0,8,7C,00,00,00,00,00,00,00,
20957355,0000076C,false,Rx,0,8,7D,00,00,00,00,00,00,00,
20957614,0000076C,false,Rx,0,8,7B,00,00,00,00,00,00,00,
20957884,0000076C,false,Rx,0,8,7C,00,00,00,00,00,00,00,
20958144,0000076C,false,Rx,0,8,7D,00,00,00,00,00,00,00,
20958310,0000022A,false,Rx,0,4,00,00,79,18,00,00,00,00,
20958548,000003B2,false,Rx,0,8,5D,0F,F9,FF,00,CB,B6,04,
20958798,0000076C,false,Rx,0,8,7B,00,00,00,00,00,00,00,
20959078,0000076C,false,Rx,0,8,7C,00,00,00,00,00,00,00,
20959347,0000076C,false,Rx,0,8,7D,00,00,00,00,00,00,00,
20959607,0000076C,false,Rx,0,8,7B,00,00,00,00,00,00,00,
20959887,0000076C,false,Rx,0,8,7C,00,00,00,00,00,00,00,
20960146,0000076C,false,Rx,0,8,7D,00,00,00,00,00,00,00,
20960560,0000076C,false,Rx,0,8,7B,00,00,00,00,00,00,00,
20960819,0000076C,false,Rx,0,8,7C,00,00,00,00,00,00,00,
20961080,0000076C,false,Rx,0,8,7D,00,00,00,00,00,00,00,
20961563,0000076C,false,Rx,0,8,7B,00,00,00,00,00,00,00,
20961823,0000076C,false,Rx,0,8,7C,00,00,00,00,00,00,00,
20962083,0000076C,false,Rx,0,8,7D,00,00,00,00,00,00,00,
20962559,0000076C,false,Rx,0,8,7B,00,00,00,00,00,00,00,
20962818,0000076C,false,Rx,0,8,7C,00,00,00,00,00,00,00,
20963077,0000076C,false,Rx,0,8,7D,00,00,00,00,00,00,00,
20963560,0000076C,false,Rx,0,8,7B,00,00,00,00,00,00,00,
20963839,0000076C,false,Rx,0,8,7C,00,00,00,00,00,00,00,
20964090,0000076C,false,Rx,0,8,7D,00,00,00,00,00,00,00,
20964554,0000076C,false,Rx,0,8,7B,00,00,00,00,00,00,00,
20964814,0000076C,false,Rx,0,8,7C,00,00,00,00,00,00,00,
20965084,0000076C,false,Rx,0,8,7D,00,00,00,00,00,00,00,
20965566,0000076C,false,Rx,0,8,7B,00,00,00,00,00,00,00,
20965835,0000076C,false,Rx,0,8,7C,00,00,00,00,00,00,00,
20966096,0000076C,false,Rx,0,8,7D,00,00,00,00,00,00,00,
20966582,0000076C,false,Rx,0,8,78,00,00,06,EF,0F,00,00,
20966831,0000076C,false,Rx,0,8,7B,00,00,00,00,00,00,00,
20967093,0000076C,false,Rx,0,8,7C,00,00,00,00,00,00,00,
20967358,0000076C,false,Rx,0,8,7D,00,00,00,00,00,00,00,
20967617,0000076C,false,Rx,0,8,7B,00,00,00,00,00,00,00,
20967887,0000076C,false,Rx,0,8,7C,00,00,00,00,00,00,00,
20968055,0000022A,false,Rx,0,4,00,00,79,18,00,00,00,00,
20968313,0000076C,false,Rx,0,8,7D,00,00,00,00,00,00,00,
20968541,000003B2,false,Rx,0,8,5E,0F,F9,FF,00,CB,B6,04,
20968790,0000076C,false,Rx,0,8,7B,00,00,00,00,00,00,00,
20969030,000002C4,false,Rx,0,8,C3,00,12,C0,00,06,80,00,
20969278,0000076C,false,Rx,0,8,7C,00,00,00,00,00,00,00,
20969530,00000204,false,Rx,0,8,01,00,00,00,00,00,00,10,
20969778,0000076C,false,Rx,0,8,7D,00,00,00,00,00,00,00,
20969987,00000264,false,Rx,0,6,34,00,00,00,00,00,00,00,
20970257,00000224,false,Rx,0,8,84,35,00,00,00,10,10,08,
20970577,0000076C,false,Rx,0,8,7B,00,00,00,00,00,00,00,
20970836,0000076C,false,Rx,0,8,7C,00,00,00,00,00,00,00,
20971097,0000076C,false,Rx,0,8,7D,00,00,00,00,00,00,00,
20971559,0000076C,false,Rx,0,8,7B,00,00,00,00,00,00,00,
20971819,0000076C,false,Rx,0,8,7C,00,00,00,00,00,00,00,
20972079,0000076C,false,Rx,0,8,7D,00,00,00,00,00,00,00,
20972565,0000076C,false,Rx,0,8,7B,00,00,00,00,00,00,00,
20972834,0000076C,false,Rx,0,8,7C,00,00,00,00,00,00,00,
20973094,0000076C,false,Rx,0,8,7D,00,00,00,00,00,00,00,
20973556,0000076C,false,Rx,0,8,7B,00,00,00,00,00,00,00,
20973814,0000076C,false,Rx,0,8,7C,00,00,00,00,00,00,00,
20974086,0000076C,false,Rx,0,8,7D,00,00,00,00,00,00,00,
20974560,0000076C,false,Rx,0,8,7B,00,00,00,00,00,00,00,
20974831,0000076C,false,Rx,0,8,7C,00,00,00,00,00,00,00,
20975102,0000076C,false,Rx,0,8,7D,00,00,00,00,00,00,00,
20975554,0000076C,false,Rx,0,8,7B,00,00,00,00,00,00,00,
20975823,0000076C,false,Rx,0,8,7C,00,00,00,00,00,00,00,
20976083,0000076C,false,Rx,0,8,7D,00,00,00,00,00,00,00,
20976589,0000076C,false,Rx,0,8,79,3F,05,14,06,00,00,00,
20976838,0000076C,false,Rx,0,8,7B,00,00,00,00,00,00,00,
20977109,0000076C,false,Rx,0,8,7C,00,00,00,00,00,00,00,
20977368,0000076C,false,Rx,0,8,7D,00,00,00,00,00,00,00,
20977625,0000076C,false,Rx,0,8,7B,00,00,00,00,00,00,00,
20977885,0000076C,false,Rx,0,8,7C,00,00,00,00,00,00,00,
20978052,0000022A,false,Rx,0,4,00,00,79,18,00,00,00,00,
20978300,0000076C,false,Rx,0,8,7D,00,00,00,00,00,00,00,
20978538,000003B2,false,Rx,0,8,5D,0F,F9,FF,00,CB,B6,04,
20978778,0000076C,false,Rx,0,8,7B,00,00,00,00,00,00,00,
20979068,0000076C,false,Rx,0,8,7C,00,00,00,00,00,00,00,
20979327,0000076C,false,Rx,0,8,7D,00,00,00,00,00,00,00,
20979587,0000076C,false,Rx,0,8,7B,00,00,00,00,00,00,00,
20979866,0000076C,false,Rx,0,8,7C,00,00,00,00,00,00,00,
20980138,0000076C,false,Rx,0,8,7D,00,00,00,00,00,00,00,
20980551,0000076C,false,Rx,0,8,7B,00,00,00,00,00,00,00,
20980820,0000076C,false,Rx,0,8,7C,00,00,00,00,00,00,00,
20981081,0000076C,false,Rx,0,8,7D,00,00,00,00,00,00,00,
20981563,0000076C,false,Rx,0,8,7B,00,00,00,00,00,00,00,
20981833,0000076C,false,Rx,0,8,7C,00,00,00,00,00,00,00,
20982093,0000076C,false,Rx,0,8,7D,00,00,00,00,00,00,00,
20982558,0000076C,false,Rx,0,8,7B,00,00,00,00,00,00,00,
20982817,0000076C,false,Rx,0,8,7C,00,00,00,00,00,00,00,
20983087,0000076C,false,Rx,0,8,7D,00,00,00,00,00,00,00,
20983559,0000076C,false,Rx,0,8,7B,00,00,00,00,00,00,00,
20983828,0000076C,false,Rx,0,8,7C,00,00,00,00,00,00,00,
20984099,0000076C,false,Rx,0,8,7D,00,00,00,00,00,00,00,
20984553,0000076C,false,Rx,0,8,7B,00,00,00,00,00,00,00,
20984824,0000076C,false,Rx,0,8,7C,00,00,00,00,00,00,00,
20985084,0000076C,false,Rx,0,8,7D,00,00,00,00,00,00,00,
20985557,0000076C,false,Rx,0,8,7B,00,00,00,00,00,00,00,
20985816,0000076C,false,Rx,0,8,7C,00,00,00,00,00,00,00,
20986076,0000076C,false,Rx,0,8,7D,00,00,00,00,00,00,00,
20986582,0000076C,false,Rx,0,8,7A,0D,09,00,00,00,00,00,
20986830,0000076C,false,Rx,0,8,7B,00,00,00,00,00,00,00,
20987092,0000076C,false,Rx,0,8,7C,00,00,00,00,00,00,00,
20987350,0000076C,false,Rx,0,8,7D,00,00,00,00,00,00,00,
20987608,0000076C,false,Rx,0,8,7B,00,00,00,00,00,00,00,
20987878,0000076C,false,Rx,0,8,7C,00,00,00,00,00,00,00,
20988066,0000022A,false,Rx,0,4,00,00,79,18,00,00,00,00,
20988313,0000076C,false,Rx,0,8,7D,00,00,00,00,00,00,00,
20988541,000003B2,false,Rx,0,8,5E,0F,F9,FF,00,CB,B6,04,
20988791,0000076C,false,Rx,0,8,7B,00,00,00,00,00,00,00,
20989071,0000076C,false,Rx,0,8,7C,00,00,00,00,00,00,00,
20989341,0000076C,false,Rx,0,8,7D,00,00,00,00,00,00,00,
20989600,0000076C,false,Rx,0,8,7B,00,00,00,00,00,00,00,
20989880,0000076C,false,Rx,0,8,7C,00,00,00,00,00,00,00,
20990141,0000076C,false,Rx,0,8,7D,00,00,00,00,00,00,00,
20990564,0000076C,false,Rx,0,8,7B,00,00,00,00,00,00,00,
20990833,0000076C,false,Rx,0,8,7C,00,00,00,00,00,00,00,
20991094,0000076C,false,Rx,0,8,7D,00,00,00,00,00,00,00,
20991558,0000076C,false,Rx,0,8,7B,00,00,00,00,00,00,00,
20991817,0000076C,false,Rx,0,8,7C,00,00,00,00,00,00,00,
20992087,0000076C,false,Rx,0,8,7D,00,00,00,00,00,00,00,
20992553,0000076C,false,Rx,0,8,7B,00,00,00,00,00,00,00,
20992811,0000076C,false,Rx,0,8,7C,00,00,00,00,00,00,00,
20993082,0000076C,false,Rx,0,8,7D,00,00,00,00,00,00,00,
20993557,0000076C,false,Rx,0,8,7B,00,00,00,00,00,00,00,
20993823,0000076C,false,Rx,0,8,7C,00,00,00,00,00,00,00,
20994084,0000076C,false,Rx,0,8,7D,00,00,00,00,00,00,00,
20994558,0000076C,false,Rx,0,8,7B,00,00,00,00,00,00,00,
20994819,0000076C,false,Rx,0,8,7C,00,00,00,00,00,00,00,
20995078,0000076C,false,Rx,0,8,7D,00,00,00,00,00,00,00,
20995564,0000076C,false,Rx,0,8,7B,00,00,00,00,00,00,00,
20995830,0000076C,false,Rx,0,8,7C,00,00,00,00,00,00,00,
20996090,0000076C,false,Rx,0,8,7D,00,00,00,00,00,00,00,
20996575,0000076C,false,Rx,0,8,7E,85,50,01,9A,00,B2,21,
20996824,0000076C,false,Rx,0,8,7B,00,00,00,00,00,00,00,
20997085,0000076C,false,Rx,0,8,7C,00,00,00,00,00,00,00,
20997354,0000076C,false,Rx,0,8,7D,00,00,00,00,00,00,00,
20997623,0000076C,false,Rx,0,8,7B,00,00,00,00,00,00,00,
20997892,0000076C,false,Rx,0,8,7C,00,00,00,00,00,00,00,
20998059,0000022A,false,Rx,0,4,00,00,79,18,00,00,00,00,
20998307,0000076C,false,Rx,0,8,7D,00,00,00,00,00,00,00,
20998534,000003B2,false,Rx,0,8,5D,0F,F9,FF,00,CB,B6,04,
20998784,0000076C,false,Rx,0,8,7B,00,00,00,00,00,00,00,
20999004,00000545,false,Rx,0,8,03,19,64,32,19,00,B0,C5,
20999263,0000076C,false,Rx,0,8,7C,00,00,00,00,00,00,00,
20999543,0000076C,false,Rx,0,8,7D,00,00,00,00,00,00,00,
21000555,0000076C,false,Rx,0,8,7B,00,00,00,00,00,00,00,
21000814,0000076C,false,Rx,0,8,7C,00,00,00,00,00,00,00,
21001086,0000076C,false,Rx,0,8,7D,00,00,00,00,00,00,00,
21001550,0000076C,false,Rx,0,8,7B,00,00,00,00,00,00,00,
21001812,0000076C,false,Rx,0,8,7C,00,00,00,00,00,00,00,
21002083,0000076C,false,Rx,0,8,7D,00,00,00,00,00,00,00,
21002558,0000076C,false,Rx,0,8,7B,00,00,00,00,00,00,00,
21002817,0000076C,false,Rx,0,8,7C,00,00,00,00,00,00,00,
21003087,0000076C,false,Rx,0,8,7D,00,00,00,00,00,00,00,
21003553,0000076C,false,Rx,0,8,7B,00,00,00,00,00,00,00,
21003818,0000076C,false,Rx,0,8,7C,00,00,00,00,00,00,00,
21004079,0000076C,false,Rx,0,8,7D,00,00,00,00,00,00,00,
21004564,0000076C,false,Rx,0,8,7B,00,00,00,00,00,00,00,
21004824,0000076C,false,Rx,0,8,7C,00,00,00,00,00,00,00,
21005084,0000076C,false,Rx,0,8,7D,00,00,00,00,00,00,00,
21005549,0000076C,false,Rx,0,8,7B,00,00,00,00,00,00,00,
21005815,0000076C,false,Rx,0,8,7C,00,00,00,00,00,00,00,
21006075,0000076C,false,Rx,0,8,7D,00,00,00,00,00,00,00,
21006673,0000076C,false,Rx,0,8,01,13,13,28,28,1C,25,00,
21006912,0000076C,false,Rx,0,8,7B,00,00,00,00,00,00,00,
21007183,0000076C,false,Rx,0,8,7C,00,00,00,00,00,00,00,
21007514,0000076C,false,Rx,0,8,7D,00,00,00,00,00,00,00,
21008059,0000022A,false,Rx,0,4,00,00,79,18,00,00,00,00,
21008296,000003B2,false,Rx,0,8,5E,0F,F9,FF,00,CB,B6,04,
21008577,0000076C,false,Rx,0,8,7B,00,00,00,00,00,00,00,
21008846,0000076C,false,Rx,0,8,7C,00,00,00,00,00,00,00,
21009107,0000076C,false,Rx,0,8,7D,00,00,00,00,00,00,00,
21009562,0000076C,false,Rx,0,8,7B,00,00,00,00,00,00,00,
21009821,0000076C,false,Rx,0,8,7C,00,00,00,00,00,00,00,
21010090,0000076C,false,Rx,0,8,7D,00,00,00,00,00,00,00,
21010554,0000076C,false,Rx,0,8,7B,00,00,00,00,00,00,00,
21010813,0000076C,false,Rx,0,8,7C,00,00,00,00,00,00,00,
21011074,0000076C,false,Rx,0,8,7D,00,00,00,00,00,00,00,
21011559,0000076C,false,Rx,0,8,7B,00,00,00,00,00,00,00,
21011829,0000076C,false,Rx,0,8,7C,00,00,00,00,00,00,00,
21012086,0000076C,false,Rx,0,8,7D,00,00,00,00,00,00,00,
21012551,0000076C,false,Rx,0,8,7B,00,00,00,00,00,00,00,
21012810,0000076C,false,Rx,0,8,7C,00,00,00,00,00,00,00,
21013070,0000076C,false,Rx,0,8,7D,00,00,00,00,00,00,00,
21013556,0000076C,false,Rx,0,8,7B,00,00,00,00,00,00,00,
21013825,0000076C,false,Rx,0,8,7C,00,00,00,00,00,00,00,
21014093,0000076C,false,Rx,0,8,7D,00,00,00,00,00,00,00,
21014547,0000076C,false,Rx,0,8,7B,00,00,00,00,00,00,00,
21014817,0000076C,false,Rx,0,8,7C,00,00,00,00,00,00,00,
21015077,0000076C,false,Rx,0,8,7D,00,00,00,00,00,00,00,
21015563,0000076C,false,Rx,0,8,7B,00,00,00,00,00,00,00,
21015832,0000076C,false,Rx,0,8,7C,00,00,00,00,00,00,00,
21016088,0000076C,false,Rx,0,8,7D,00,00,00,00,00,00,00,
21016584,0000076C,false,Rx,0,8,02,02,02,02,03,00,01,00,
21016833,0000076C,false,Rx,0,8,7B,00,00,00,00,00,00,00,
21017094,0000076C,false,Rx,0,8,7C,00,00,00,00,00,00,00,
21017363,0000076C,false,Rx,0,8,7D,00,00,00,00,00,00,00,
21017632,0000076C,false,Rx,0,8,7B,00,00,00,00,00,00,00,
21017892,0000076C,false,Rx,0,8,7C,00,00,00,00,00,00,00,
21018058,0000022A,false,Rx,0,4,00,00,79,18,00,00,00,00,
21018306,0000076C,false,Rx,0,8,7D,00,00,00,00,00,00,00,
21018535,000003B2,false,Rx,0,8,5D,0F,F9,FF,00,CB,B6,04,
21018783,0000076C,false,Rx,0,8,7B,04,00,00,27,00,00,00,
21019064,0000076C,false,Rx,0,8,7C,FF,FF,7F,28,00,00,00,
21019323,0000076C,false,Rx,0,8,7D,00,00,00,14,00,00,00,
21019582,0000076C,false,Rx,0,8,7B,0C,00,00,27,00,00,00,
21019861,0000076C,false,Rx,0,8,7C,FF,FF,7F,28,00,00,00,
21020112,0000076C,false,Rx,0,8,7D,00,00,00,14,00,00,00,
21020556,0000076C,false,Rx,0,8,7B,0C,00,00,27,00,00,00,
21020815,0000076C,false,Rx,0,8,7C,FF,FF,7F,28,00,00,00,
21021076,0000076C,false,Rx,0,8,7D,00,00,00,13,00,00,00,
21021550,0000076C,false,Rx,0,8,7B,0C,00,00,27,00,00,00,
21021800,0000076C,false,Rx,0,8,7C,FF,FF,7F,28,00,00,00,
21022067,0000076C,false,Rx,0,8,7D,00,00,00,13,00,00,00,
21022553,0000076C,false,Rx,0,8,7B,0C,00,00,2A,00,00,00,
21022822,0000076C,false,Rx,0,8,7C,FF,FF,7F,28,00,00,00,
21023082,0000076C,false,Rx,0,8,7D,00,00,00,16,00,00,00,
21023547,0000076C,false,Rx,0,8,7B,0C,00,00,2A,00,00,00,
21023806,0000076C,false,Rx,0,8,7C,FF,FF,7F,28,00,00,00,
21024074,0000076C,false,Rx,0,8,7D,00,00,00,16,00,00,00,
21024559,0000076C,false,Rx,0,8,7B,0C,00,00,2D,00,00,00,
21024819,0000076C,false,Rx,0,8,7C,FF,FF,7F,28,00,00,00,
21025089,0000076C,false,Rx,0,8,7D,00,00,00,18,00,00,00,
21025544,0000076C,false,Rx,0,8,7B,0C,00,00,2D,00,00,00,
21025813,0000076C,false,Rx,0,8,7C,FF,FF,7F,28,00,00,00,
21026079,0000076C,false,Rx,0,8,7D,00,00,00,18,00,00,00,
21026576,0000076C,false,Rx,0,8,03,62,62,4B,4B,62,70,00,
21026814,0000076C,false,Rx,0,8,7B,0C,00,00,2C,00,00,00,
21027075,0000076C,false,Rx,0,8,7C,FF,FF,7F,28,00,00,00,
21027344,0000076C,false,Rx,0,8,7D,00,00,00,16,00,00,00,
21027603,0000076C,false,Rx,0,8,7B,0C,00,00,2C,00,00,00,
21027873,0000076C,false,Rx,0,8,7C,FF,FF,7F,28,00,00,00,
21028131,0000076C,false,Rx,0,8,7D,00,00,00,16,00,00,00,
21028298,0000022A,false,Rx,0,4,00,00,79,18,00,00,00,00,
21028546,000003B2,false,Rx,0,8,5E,0F,F9,FF,00,CB,B6,04,
21028785,0000076C,false,Rx,0,8,7B,0C,00,00,2B,00,00,00,
21029065,0000076C,false,Rx,0,8,7C,FF,FF,7F,28,00,00,00,
21029325,0000076C,false,Rx,0,8,7D,00,00,00,16,00,00,00,
21029563,0000076C,false,Rx,0,8,7B,0C,00,00,2B,00,00,00,
21029822,0000076C,false,Rx,0,8,7C,FF,FF,7F,28,00,00,00,
21030083,0000076C,false,Rx,0,8,7D,00,00,00,16,00,00,00,
21030550,0000076C,false,Rx,0,8,7B,0C,00,00,2C,00,00,00,
21030798,0000076C,false,Rx,0,8,7C,FF,FF,7F,28,00,00,00,
21031070,0000076C,false,Rx,0,8,7D,09,00,00,17,00,00,00,
21031554,0000076C,false,Rx,0,8,7B,04,00,00,2C,00,00,00,
21031825,0000076C,false,Rx,0,8,7C,FF,FF,7F,28,00,00,00,
21032084,0000076C,false,Rx,0,8,7D,09,00,00,17,00,00,00,
21032546,0000076C,false,Rx,0,8,7B,04,00,00,2C,00,00,00,
21032805,0000076C,false,Rx,0,8,7C,FF,FF,7F,28,00,00,00,
21033075,0000076C,false,Rx,0,8,7D,10,00,00,17,00,00,00,
21033551,0000076C,false,Rx,0,8,7B,04,00,00,2C,00,00,00,
21033800,0000076C,false,Rx,0,8,7C,FF,FF,7F,28,00,00,00,
21034081,0000076C,false,Rx,0,8,7D,10,00,00,17,00,00,00,
21034542,0000076C,false,Rx,0,8,7B,04,00,00,2C,00,00,00,
21034812,0000076C,false,Rx,0,8,7C,FF,FF,7F,29,00,00,00,
21035072,0000076C,false,Rx,0,8,7D,15,00,00,17,00,00,00,
21035548,0000076C,false,Rx,0,8,7B,04,00,00,2C,00,00,00,
21035806,0000076C,false,Rx,0,8,7C,FF,FF,7F,29,00,00,00,
21036066,0000076C,false,Rx,0,8,7D,15,00,00,17,00,00,00,
21036579,0000076C,false,Rx,0,8,04,15,18,00,07,00,02,00,
21036818,0000076C,false,Rx,0,8,7B,04,00,00,2C,00,00,00,
21037079,0000076C,false,Rx,0,8,7C,FF,FF,7F,29,00,00,00,
21037327,0000076C,false,Rx,0,8,7D,1A,00,00,17,00,00,00,
21037586,0000076C,false,Rx,0,8,7B,04,00,00,2C,00,00,00,
21037867,0000076C,false,Rx,0,8,7C,FF,FF,7F,29,00,00,00,
21038117,0000076C,false,Rx,0,8,7D,1A,00,00,17,00,00,00,
21038281,0000022A,false,Rx,0,4,00,00,79,18,00,00,00,00,
21038520,000003B2,false,Rx,0,8,5D,0F,F9,FF,00,CB,B6,04,
21038768,0000076C,false,Rx,0,8,7B,04,00,00,2C,00,00,00,
21039028,0000076C,false,Rx,0,8,7C,FF,FF,7F,29,00,00,00,
21039278,0000076C,false,Rx,0,8,7D,1D,00,00,17,00,00,00,
21039557,0000076C,false,Rx,0,8,7B,04,00,00,2C,00,00,00,
21039816,0000076C,false,Rx,0,8,7C,FF,FF,7F,29,00,00,00,
21040067,0000076C,false,Rx,0,8,7D,1D,00,00,17,00,00,00,
21040552,0000076C,false,Rx,0,8,7B,04,00,00,2C,00,00,00,
21040822,0000076C,false,Rx,0,8,7C,FF,FF,7F,29,00,00,00,
21041082,0000076C,false,Rx,0,8,7D,20,00,00,17,00,00,00,
21041546,0000076C,false,Rx,0,8,7B,04,00,00,2C,00,00,00,
21041806,0000076C,false,Rx,0,8,7C,FF,FF,7F,29,00,00,00,
21042076,0000076C,false,Rx,0,8,7D,20,00,00,17,00,00,00,
21042548,0000076C,false,Rx,0,8,7B,04,00,00,2E,00,00,00,
21042807,0000076C,false,Rx,0,8,7C,FF,FF,7F,29,00,00,00,
21043077,0000076C,false,Rx,0,8,7D,23,00,00,16,00,00,00,
21043543,0000076C,false,Rx,0,8,7B,04,00,00,2E,00,00,00,
21043812,0000076C,false,Rx,0,8,7C,FF,FF,7F,29,00,00,00,
21044073,0000076C,false,Rx,0,8,7D,23,00,00,16,00,00,00,
21044544,0000076C,false,Rx,0,8,7B,04,00,00,2E,00,00,00,
21044804,0000076C,false,Rx,0,8,7C,FF,FF,7F,29,00,00,00,
21045064,0000076C,false,Rx,0,8,7D,24,00,00,17,00,00,00,
21045550,0000076C,false,Rx,0,8,7B,04,00,00,2E,00,00,00,
21045819,0000076C,false,Rx,0,8,7C,FF,FF,7F,29,00,00,00,
21046078,0000076C,false,Rx,0,8,7D,24,00,00,17,00,00,00,
21046571,0000076C,false,Rx,0,8,05,AC,BC,36,41,DC,2E,00,
21046809,0000076C,false,Rx,0,8,7B,04,00,00,2F,00,00,00,
21047070,0000076C,false,Rx,0,8,7C,FF,FF,7F,29,00,00,00,
21047319,0000076C,false,Rx,0,8,7D,26,00,00,17,00,00,00,
21047577,0000076C,false,Rx,0,8,7B,04,00,00,2F,00,00,00,
21047837,0000076C,false,Rx,0,8,7C,FF,FF,7F,29,00,00,00,
21048087,0000076C,false,Rx,0,8,7D,26,00,00,17,00,00,00,
21048253,0000022A,false,Rx,0,4,00,00,79,18,00,00,00,00,
21048492,000003B2,false,Rx,0,8,5E,0F,F9,FF,00,CB,B6,04,
21048741,0000076C,false,Rx,0,8,7B,04,00,00,2F,00,00,00,
21048980,00000545,false,Rx,0,8,14,00,3F,70,9F,01,CA,77,
21049218,0000076C,false,Rx,0,8,7C,FF,FF,7F,29,00,00,00,
21049385,00000333,false,Rx,0,4,04,30,29,07,00,00,00,00,
21049623,0000076C,false,Rx,0,8,7D,27,00,00,17,00,00,00,
21049820,000002B2,false,Rx,0,5,00,00,00,00,00,00,00,00,
21050060,000003A1,false,Rx,0,8,09,62,78,9D,08,2C,12,5A,
21050298,00000321,false,Rx,0,8,2C,B6,A8,7F,02,7F,00,00,
21050538,0000025D,false,Rx,0,8,D9,8C,01,B5,4A,C1,0A,E0,
21050777,0000076C,false,Rx,0,8,7B,04,00,00,2F,00,00,00,
21050945,0000023D,false,Rx,0,4,40,00,00,00,00,00,00,00,
21051192,0000076C,false,Rx,0,8,7C,FF,FF,7F,29,00,00,00,
21051431,0000021D,false,Rx,0,8,5D,20,00,20,80,00,60,10,
21051670,0000076C,false,Rx,0,8,7D,27,00,00,17,00,00,00,
21051908,0000020A,false,Rx,0,8,F6,15,09,82,18,01,00,00,
21052148,00000212,false,Rx,0,8,B9,1C,94,AD,C1,15,36,6B,
21052562,0000076C,false,Rx,0,8,7B,04,00,00,2F,00,00,00,
21052810,0000076C,false,Rx,0,8,7C,FF,FF,7F,29,00,00,00,
21053071,0000076C,false,Rx,0,8,7D,29,00,00,17,00,00,00,
21053546,0000076C,false,Rx,0,8,7B,04,00,00,2F,00,00,00,
21053795,0000076C,false,Rx,0,8,7C,FF,FF,7F,29,00,00,00,
21054066,0000076C,false,Rx,0,8,7D,29,00,00,17,00,00,00,
21054547,0000076C,false,Rx,0,8,7B,04,00,00,2F,00,00,00,
21054817,0000076C,false,Rx,0,8,7C,FF,FF,7F,29,00,00,00,
21055067,0000076C,false,Rx,0,8,7D,2A,00,00,17,00,00,00,
21055543,0000076C,false,Rx,0,8,7B,04,00,00,2F,00,00,00,
21055802,0000076C,false,Rx,0,8,7C,FF,FF,7F,29,00,00,00,
21056061,0000076C,false,Rx,0,8,7D,2A,00,00,17,00,00,00,
21056585,0000076C,false,Rx,0,8,8A,13,20,01,64,00,40,00,
21056823,0000076C,false,Rx,0,8,7B,04,00,00,30,00,00,00,
21057084,0000076C,false,Rx,0,8,7C,FF,FF,7F,29,00,00,00,
21057333,0000076C,false,Rx,0,8,7D,2B,00,00,17,00,00,00,
21057591,0000076C,false,Rx,0,8,7B,04,00,00,30,00,00,00,
21057872,0000076C,false,Rx,0,8,7C,FF,FF,7F,29,00,00,00,
21058122,0000076C,false,Rx,0,8,7D,2B,00,00,17,00,00,00,
21058288,0000022A,false,Rx,0,4,00,00,79,18,00,00,00,00,
21058527,000003B2,false,Rx,0,8,5D,0F,F9,FF,00,CB,B6,04,
21058775,0000076C,false,Rx,0,8,7B,04,00,00,30,00,00,00,
21059056,0000076C,false,Rx,0,8,7C,FF,FF,7F,29,00,00,00,
21059306,0000076C,false,Rx,0,8,7D,2B,00,00,17,00,00,00,
21059564,0000076C,false,Rx,0,8,7B,04,00,00,30,00,00,00,
21059813,0000076C,false,Rx,0,8,7C,FF,FF,7F,29,00,00,00,
21060074,0000076C,false,Rx,0,8,7D,2B,00,00,17,00,00,00,
21060547,0000076C,false,Rx,0,8,7B,05,00,00,30,00,00,00,
21060796,0000076C,false,Rx,0,8,7C,FF,FF,7F,29,00,00,00,
21061067,0000076C,false,Rx,0,8,7D,2B,00,00,17,00,00,00,
21061553,0000076C,false,Rx,0,8,7B,05,00,00,30,00,00,00,
21061811,0000076C,false,Rx,0,8,7C,FF,FF,7F,29,00,00,00,
21062071,0000076C,false,Rx,0,8,7D,2B,00,00,17,00,00,00,
21062555,0000076C,false,Rx,0,8,7B,05,00,00,30,00,00,00,
21062803,0000076C,false,Rx,0,8,7C,FF,FF,7F,29,00,00,00,
21063064,0000076C,false,Rx,0,8,7D,2B,00,00,17,00,00,00,
21063549,0000076C,false,Rx,0,8,7B,01,00,00,30,00,00,00,
21063818,0000076C,false,Rx,0,8,7C,FF,FF,7F,29,00,00,00,
21064069,0000076C,false,Rx,0,8,7D,2B,00,00,17,00,00,00,
21064544,0000076C,false,Rx,0,8,7B,01,00,00,2F,00,00,00,
21064781,0000076C,false,Rx,0,8,7C,B7,44,66,29,00,00,00,
21065072,0000076C,false,Rx,0,8,7D,2A,00,00,18,00,00,00,
21065548,0000076C,false,Rx,0,8,7B,11,00,00,2F,00,00,00,
21065796,0000076C,false,Rx,0,8,7C,B7,44,66,29,00,00,00,
21066077,0000076C,false,Rx,0,8,7D,2A,00,00,18,00,00,00,
21066573,0000076C,false,Rx,0,8,0B,10,00,D0,20,FF,0F,00,
21066818,0000076C,false,Rx,0,8,7B,11,00,00,31,00,00,00,
21067079,0000076C,false,Rx,0,8,7C,00,00,80,28,00,00,00,
21067328,0000076C,false,Rx,0,8,7D,2C,00,00,1B,00,00,00,
21067576,0000076C,false,Rx,0,8,7B,11,00,00,31,00,00,00,
21067856,0000076C,false,Rx,0,8,7C,00,00,80,28,00,00,00,
21068106,0000076C,false,Rx,0,8,7D,2C,00,00,1B,00,00,00,
21068272,0000022A,false,Rx,0,4,00,00,79,18,00,00,00,00,
21068521,000003B2,false,Rx,0,8,5E,0F,F9,FF,00,CB,B6,04,
21068760,0000076C,false,Rx,0,8,7B,11,00,00,32,00,00,00,
21069009,000002C4,false,Rx,0,8,04,00,00,00,00,20,19,52,
21069249,0000076C,false,Rx,0,8,7C,00,00,80,28,00,00,00,
21069507,00000204,false,Rx,0,8,01,00,00,00,00,00,00,10,
21069745,0000076C,false,Rx,0,8,7D,2D,00,00,1B,00,00,00,
21069954,00000264,false,Rx,0,6,33,00,00,00,00,00,00,00,
21070203,00000224,false,Rx,0,8,84,35,00,00,00,10,10,08,
21070554,0000076C,false,Rx,0,8,7B,11,00,00,32,00,00,00,
21070815,0000076C,false,Rx,0,8,7C,00,00,80,28,00,00,00,
21071076,0000076C,false,Rx,0,8,7D,2D,00,00,1B,00,00,00,
21071541,0000076C,false,Rx,0,8,7B,11,00,00,32,00,00,00,
21071800,0000076C,false,Rx,0,8,7C,FF,FF,7F,2A,00,00,00,
21072061,0000076C,false,Rx,0,8,7D,2D,00,00,19,00,00,00,
21072547,0000076C,false,Rx,0,8,7B,11,00,00,32,00,00,00,
21072812,0000076C,false,Rx,0,8,7C,FF,FF,7F,2A,00,00,00,
21073073,0000076C,false,Rx,0,8,7D,2D,00,00,19,00,00,00,
21073538,0000076C,false,Rx,0,8,7B,11,00,00,31,00,00,00,
21073786,0000076C,false,Rx,0,8,7C,89,9D,4A,2A,00,00,00,
21074068,0000076C,false,Rx,0,8,7D,2C,00,00,19,00,00,00,
21074542,0000076C,false,Rx,0,8,7B,11,00,00,31,00,00,00,
21074799,0000076C,false,Rx,0,8,7C,89,9D,4A,2A,00,00,00,
21075069,0000076C,false,Rx,0,8,7D,2C,00,00,19,00,00,00,
21075545,0000076C,false,Rx,0,8,7B,11,00,00,34,00,00,00,
21075803,0000076C,false,Rx,0,8,7C,00,00,80,2A,00,00,00,
21076073,0000076C,false,Rx,0,8,7D,2D,00,00,1B,00,00,00,
21076580,0000076C,false,Rx,0,8,0C,00,00,00,10,20,40,00,
21076825,0000076C,false,Rx,0,8,7B,11,00,00,34,00,00,00,
21077086,0000076C,false,Rx,0,8,7C,00,00,80,2A,00,00,00,
21077345,0000076C,false,Rx,0,8,7D,2D,00,00,1B,00,00,00,
21077603,0000076C,false,Rx,0,8,7B,11,00,00,34,00,00,00,
21077873,0000076C,false,Rx,0,8,7C,00,00,80,2A,00,00,00,
21078123,0000076C,false,Rx,0,8,7D,2C,00,00,1B,00,00,00,
21078289,0000022A,false,Rx,0,4,00,00,79,18,00,00,00,00,
21078528,000003B2,false,Rx,0,8,5D,0F,F9,FF,00,CB,B6,04,
21078777,0000076C,false,Rx,0,8,7B,11,00,00,34,00,00,00,
21079057,0000076C,false,Rx,0,8,7C,00,00,80,2A,00,00,00,
21079307,0000076C,false,Rx,0,8,7D,2C,00,00,1B,00,00,00,
21079565,0000076C,false,Rx,0,8,7B,11,00,00,35,00,00,00,
21079824,0000076C,false,Rx,0,8,7C,00,00,80,2A,00,00,00,
21080075,0000076C,false,Rx,0,8,7D,2C,00,00,1A,00,00,00,
21080539,0000076C,false,Rx,0,8,7B,11,00,00,35,00,00,00,
21080798,0000076C,false,Rx,0,8,7C,00,00,80,2A,00,00,00,
21081068,0000076C,false,Rx,0,8,7D,2C,00,00,1A,00,00,00,
21081544,0000076C,false,Rx,0,8,7B,11,00,00,35,00,00,00,
21081813,0000076C,false,Rx,0,8,7C,00,00,80,2A,00,00,00,
21082073,0000076C,false,Rx,0,8,7D,2C,00,00,1A,00,00,00,
21082538,0000076C,false,Rx,0,8,7B,11,00,00,35,00,00,00,
21082814,0000076C,false,Rx,0,8,7C,00,00,80,2A,00,00,00,
21083075,0000076C,false,Rx,0,8,7D,2C,00,00,1A,00,00,00,
21083539,0000076C,false,Rx,0,8,7B,11,00,00,36,00,00,00,
21083799,0000076C,false,Rx,0,8,7C,00,00,80,2A,00,00,00,
21084069,0000076C,false,Rx,0,8,7D,2C,00,00,19,00,00,00,
21084543,0000076C,false,Rx,0,8,7B,11,00,00,36,00,00,00,
21084803,0000076C,false,Rx,0,8,7C,00,00,80,2A,00,00,00,
21085072,0000076C,false,Rx,0,8,7D,2C,00,00,19,00,00,00,
21085537,0000076C,false,Rx,0,8,7B,11,00,00,36,00,00,00,
21085796,0000076C,false,Rx,0,8,7C,00,00,80,2A,00,00,00,
21086056,0000076C,false,Rx,0,8,7D,2B,00,00,19,00,00,00,
21086573,0000076C,false,Rx,0,8,0D,04,32,8F,BB,28,00,00,
21086811,0000076C,false,Rx,0,8,7B,11,00,00,36,00,00,00,
21087068,0000076C,false,Rx,0,8,7C,00,00,80,2A,00,00,00,
21087327,0000076C,false,Rx,0,8,7D,2B,00,00,19,00,00,00,
21087586,0000076C,false,Rx,0,8,7B,11,00,00,36,00,00,00,
21087856,0000076C,false,Rx,0,8,7C,00,00,80,2A,00,00,00,
21088116,0000076C,false,Rx,0,8,7D,2C,00,00,19,00,00,00,
21088282,0000022A,false,Rx,0,4,00,00,79,18,00,00,00,00,
21088521,000003B2,false,Rx,0,8,5E,0F,F9,FF,00,CB,B6,04,
21088769,0000076C,false,Rx,0,8,7B,11,00,00,36,00,00,00,
21089030,0000076C,false,Rx,0,8,7C,00,00,80,2A,00,00,00,
21089279,0000076C,false,Rx,0,8,7D,2C,00,00,19,00,00,00,
21089559,0000076C,false,Rx,0,8,7B,11,00,00,36,00,00,00,
21089817,0000076C,false,Rx,0,8,7C,00,00,80,2A,00,00,00,
21090068,0000076C,false,Rx,0,8,7D,2C,00,00,19,00,00,00,
21090553,0000076C,false,Rx,0,8,7B,11,00,00,36,00,00,00,
21090813,0000076C,false,Rx,0,8,7C,00,00,80,2A,00,00,00,
21091082,0000076C,false,Rx,0,8,7D,2C,00,00,19,00,00,00,
21091537,0000076C,false,Rx,0,8,7B,11,00,00,36,00,00,00,
21091796,0000076C,false,Rx,0,8,7C,00,00,80,2A,00,00,00,
21092066,0000076C,false,Rx,0,8,7D,2C,00,00,18,00,00,00,
21092541,0000076C,false,Rx,0,8,7B,11,00,00,36,00,00,00,
21092800,0000076C,false,Rx,0,8,7C,00,00,80,2A,00,00,00,
21093068,0000076C,false,Rx,0,8,7D,2C,00,00,18,00,00,00,
21093543,0000076C,false,Rx,0,8,7B,11,00,00,36,00,00,00,
21093802,0000076C,false,Rx,0,8,7C,00,00,80,2A,00,00,00,
21094073,0000076C,false,Rx,0,8,7D,2C,00,00,18,00,00,00,
21094537,0000076C,false,Rx,0,8,7B,11,00,00,36,00,00,00,
21094797,0000076C,false,Rx,0,8,7C,00,00,80,2A,00,00,00,
21095064,0000076C,false,Rx,0,8,7D,2C,00,00,18,00,00,00,
21095550,0000076C,false,Rx,0,8,7B,11,00,00,36,00,00,00,
21095808,0000076C,false,Rx,0,8,7C,00,00,80,2A,00,00,00,
21096068,0000076C,false,Rx,0,8,7D,2C,00,00,18,00,00,00,
21096564,0000076C,false,Rx,0,8,0E,85,AA,C8,BD,02,00,00,
21096813,0000076C,false,Rx,0,8,7B,11,00,00,36,00,00,00,
21097070,0000076C,false,Rx,0,8,7C,00,00,80,2A,00,00,00,
21097329,0000076C,false,Rx,0,8,7D,2C,00,00,18,00,00,00,
21097578,0000076C,false,Rx,0,8,7B,11,00,00,37,00,00,00,
21097868,0000076C,false,Rx,0,8,7C,00,00,80,2A,00,00,00,
21098128,0000076C,false,Rx,0,8,7D,2C,00,00,18,00,00,00,
21098294,0000022A,false,Rx,0,4,00,00,79,18,00,00,00,00,
21098533,000003B2,false,Rx,0,8,5D,0F,F9,FF,00,CB,B6,04,
21098771,0000076C,false,Rx,0,8,7B,11,00,00,37,00,00,00,
21099021,00000545,false,Rx,0,8,03,19,64,32,19,00,D0,E5,
21099240,0000076C,false,Rx,0,8,7C,00,00,80,2A,00,00,00,
21099529,0000076C,false,Rx,0,8,7D,2C,00,00,18,00,00,00,
21100541,0000076C,false,Rx,0,8,7B,11,00,00,37,00,00,00,
21100800,0000076C,false,Rx,0,8,7C,00,00,80,2A,00,00,00,
21101065,0000076C,false,Rx,0,8,7D,2C,00,00,18,00,00,00,
21101541,0000076C,false,Rx,0,8,7B,11,00,00,37,00,00,00,
21101799,0000076C,false,Rx,0,8,7C,00,00,80,2A,00,00,00,
21102070,0000076C,false,Rx,0,8,7D,2C,00,00,18,00,00,00,
21102535,0000076C,false,Rx,0,8,7B,11,00,00,37,00,00,00,
21102804,0000076C,false,Rx,0,8,7C,00,00,80,2A,00,00,00,
21103082,0000076C,false,Rx,0,8,7D,2C,00,00,18,00,00,00,
21103536,0000076C,false,Rx,0,8,7B,11,00,00,37,00,00,00,
21103796,0000076C,false,Rx,0,8,7C,00,00,80,2A,00,00,00,
21104066,0000076C,false,Rx,0,8,7D,2C,00,00,18,00,00,00,
21104542,0000076C,false,Rx,0,8,7B,11,00,00,37,00,00,00,
21104811,0000076C,false,Rx,0,8,7C,00,00,80,2A,00,00,00,
21105071,0000076C,false,Rx,0,8,7D,2C,00,00,18,00,00,00,
21105534,0000076C,false,Rx,0,8,7B,11,00,00,37,00,00,00,
21105793,0000076C,false,Rx,0,8,7C,00,00,80,2A,00,00,00,
21106063,0000076C,false,Rx,0,8,7D,2C,00,00,18,00,00,00,
21106580,0000076C,false,Rx,0,8,94,19,40,00,64,00,40,00,
21106818,0000076C,false,Rx,0,8,7B,11,00,00,37,00,00,00,
21107079,0000076C,false,Rx,0,8,7C,00,00,80,2A,00,00,00,
21107334,0000076C,false,Rx,0,8,7D,2C,00,00,18,00,00,00,
21107593,0000076C,false,Rx,0,8,7B,11,00,00,37,00,00,00,
21107863,0000076C,false,Rx,0,8,7C,00,00,80,2A,00,00,00,
21108123,0000076C,false,Rx,0,8,7D,2C,00,00,18,00,00,00,
21108289,0000022A,false,Rx,0,4,00,00,79,18,00,00,00,00,
21108528,000003B2,false,Rx,0,8,5E,0F,F9,FF,00,CB,B6,04,
21109558,0000076C,false,Rx,0,8,72,00,00,00,00,00,00,00,
21109817,0000076C,false,Rx,0,8,73,00,00,00,00,00,00,00,
21110078,0000076C,false,Rx,0,8,74,00,00,00,00,00,00,00,
21110336,0000076C,false,Rx,0,8,75,00,00,00,00,00,00,00,
21110595,0000076C,false,Rx,0,8,76,00,00,00,00,00,00,00,
21110875,0000076C,false,Rx,0,8,72,00,00,00,00,00,00,00,
21111135,0000076C,false,Rx,0,8,73,00,00,00,00,00,00,00,
21111393,0000076C,false,Rx,0,8,74,00,00,00,00,00,00,00,
21111673,0000076C,false,Rx,0,8,75,00,00,00,00,00,00,00,
21111933,0000076C,false,Rx,0,8,76,00,00,00,00,00,00,00,
21112192,0000076C,false,Rx,0,8,72,00,00,00,00,00,00,00,
21112513,0000076C,false,Rx,0,8,73,00,00,00,00,00,00,00,
21113550,0000076C,false,Rx,0,8,74,00,00,00,00,00,00,00,
21113820,0000076C,false,Rx,0,8,75,00,00,00,00,00,00,00,
21114080,0000076C,false,Rx,0,8,76,00,00,00,00,00,00,00,
21114339,0000076C,false,Rx,0,8,72,00,00,00,00,00,00,00,
21114598,0000076C,false,Rx,0,8,73,00,00,00,00,00,00,00,
21114857,0000076C,false,Rx,0,8,74,00,00,00,00,00,00,00,
21115127,0000076C,false,Rx,0,8,75,00,00,00,00,00,00,00,
21115386,0000076C,false,Rx,0,8,76,00,00,00,00,00,00,00,
21115665,0000076C,false,Rx,0,8,72,00,00,00,00,00,00,00,
21115924,0000076C,false,Rx,0,8,73,00,00,00,00,00,00,00,
21116185,0000076C,false,Rx,0,8,74,00,00,00,00,00,00,00,
21116546,0000076C,false,Rx,0,8,15,00,00,D0,20,00,00,00,
21116795,0000076C,false,Rx,0,8,75,00,00,00,00,00,00,00,
21117545,0000076C,false,Rx,0,8,76,00,00,00,00,00,00,00,
21117816,0000076C,false,Rx,0,8,72,00,00,00,00,00,00,00,
21118076,0000076C,false,Rx,0,8,73,00,00,00,00,00,00,00,
21118242,0000022A,false,Rx,0,4,00,00,79,18,00,00,00,00,
21118491,0000076C,false,Rx,0,8,74,00,00,00,00,00,00,00,
21118719,000003B2,false,Rx,0,8,5D,0F,F9,FF,00,CB,B6,04,
21118978,0000076C,false,Rx,0,8,75,00,00,00,00,00,00,00,
21119259,0000076C,false,Rx,0,8,76,00,00,00,00,00,00,00,
21119528,0000076C,false,Rx,0,8,72,00,00,00,00,00,00,00,
21119787,0000076C,false,Rx,0,8,73,00,00,00,00,00,00,00,
21120541,0000076C,false,Rx,0,8,74,00,00,00,00,00,00,00,
21120811,0000076C,false,Rx,0,8,75,00,00,00,00,00,00,00,
21121071,0000076C,false,Rx,0,8,76,00,00,00,00,00,00,00,
21121334,0000076C,false,Rx,0,8,72,00,00,00,00,00,00,00,
21121594,0000076C,false,Rx,0,8,73,00,00,00,00,00,00,00,
21121863,0000076C,false,Rx,0,8,74,00,00,00,00,00,00,00,
21122123,0000076C,false,Rx,0,8,75,00,00,00,00,00,00,00,
21122393,0000076C,false,Rx,0,8,76,00,00,00,00,00,00,00,
21122672,0000076C,false,Rx,0,8,72,00,00,00,00,00,00,00,
21122933,0000076C,false,Rx,0,8,73,00,00,00,00,00,00,00,
21123183,0000076C,false,Rx,0,8,74,00,00,00,00,00,00,00,
21123514,0000076C,false,Rx,0,8,75,00,00,00,00,00,00,00,
21124558,0000076C,false,Rx,0,8,76,00,00,00,00,00,00,00,
21124816,0000076C,false,Rx,0,8,72,00,00,00,00,00,00,00,
21125076,0000076C,false,Rx,0,8,73,00,00,00,00,00,00,00,
21125336,0000076C,false,Rx,0,8,74,00,00,00,00,00,00,00,
21125599,0000076C,false,Rx,0,8,75,00,00,00,00,00,00,00,
21125868,0000076C,false,Rx,0,8,76,00,00,00,00,00,00,00,
21126129,0000076C,false,Rx,0,8,72,00,00,00,00,00,00,00,
21126388,0000076C,false,Rx,0,8,73,00,00,00,00,00,00,00,
21126636,0000076C,false,Rx,0,8,16,00,00,00,20,00,00,00,
21126886,0000076C,false,Rx,0,8,74,00,00,00,00,00,00,00,
21127146,0000076C,false,Rx,0,8,75,00,00,00,00,00,00,00,
21127413,0000076C,false,Rx,0,8,76,00,00,00,00,00,00,00,
21127673,0000076C,false,Rx,0,8,72,00,00,00,00,00,00,00,
21128057,0000022A,false,Rx,0,4,00,00,79,18,00,00,00,00,
21128304,000003B2,false,Rx,0,8,5E,0F,F9,FF,00,CB,B6,04,
21128564,0000076C,false,Rx,0,8,73,00,00,00,00,00,00,00,
21128854,0000076C,false,Rx,0,8,74,00,00,00,00,00,00,00,
21129115,0000076C,false,Rx,0,8,75,00,00,00,00,00,00,00,
21129374,0000076C,false,Rx,0,8,76,00,00,00,00,00,00,00,
21129653,0000076C,false,Rx,0,8,72,00,00,00,00,00,00,00,
21129913,0000076C,false,Rx,0,8,73,00,00,00,00,00,00,00,
21130174,0000076C,false,Rx,0,8,74,00,00,00,00,00,00,00,
21130494,0000076C,false,Rx,0,8,75,00,00,00,00,00,00,00,
21131550,0000076C,false,Rx,0,8,76,00,00,00,00,00,00,00,
21131819,0000076C,false,Rx,0,8,72,00,00,00,00,00,00,00,
21132079,0000076C,false,Rx,0,8,73,00,00,00,00,00,00,00,
21132339,0000076C,false,Rx,0,8,74,00,00,00,00,00,00,00,
21132598,0000076C,false,Rx,0,8,75,00,00,00,00,00,00,00,
21132867,0000076C,false,Rx,0,8,76,00,00,00,00,00,00,00,
21133128,0000076C,false,Rx,0,8,72,00,00,00,00,00,00,00,
21133387,0000076C,false,Rx,0,8,73,00,00,00,00,00,00,00,
21133667,0000076C,false,Rx,0,8,74,00,00,00,00,00,00,00,
21133927,0000076C,false,Rx,0,8,75,00,00,00,00,00,00,00,
21134187,0000076C,false,Rx,0,8,76,00,00,00,00,00,00,00,
21134508,0000076C,false,Rx,0,8,72,00,00,00,00,00,00,00,
21135542,0000076C,false,Rx,0,8,73,00,00,00,00,00,00,00,
21135801,0000076C,false,Rx,0,8,74,00,00,00,00,00,00,00,
21136062,0000076C,false,Rx,0,8,75,00,00,00,00,00,00,00,
21136331,0000076C,false,Rx,0,8,76,00,00,00,00,00,00,00,
21136579,0000076C,false,Rx,0,8,17,04,32,8F,BB,28,00,00,
21136829,0000076C,false,Rx,0,8,72,00,00,00,00,00,00,00,
21137089,0000076C,false,Rx,0,8,73,00,00,00,00,00,00,00,
21137337,0000076C,false,Rx,0,8,74,00,00,00,00,00,00,00,
21137608,0000076C,false,Rx,0,8,75,00,00,00,00,00,00,00,
21138064,0000022A,false,Rx,0,4,00,00,79,18,00,00,00,00,
21138301,000003B2,false,Rx,0,8,5D,0F,F9,FF,00,CB,B6,04,
21138571,0000076C,false,Rx,0,8,76,00,00,00,00,00,00,00,
21138850,0000076C,false,Rx,0,8,72,00,00,00,00,00,00,00,
21139122,0000076C,false,Rx,0,8,73,00,00,00,00,00,00,00,
21139381,0000076C,false,Rx,0,8,74,00,00,00,00,00,00,00,
21139658,0000076C,false,Rx,0,8,75,00,00,00,00,00,00,00,
21139918,0000076C,false,Rx,0,8,76,00,00,00,00,00,00,00,
21140188,0000076C,false,Rx,0,8,72,00,00,00,00,00,00,00,
21140519,0000076C,false,Rx,0,8,73,00,00,00,00,00,00,00,
21141542,0000076C,false,Rx,0,8,74,00,00,00,00,00,00,00,
21141805,0000076C,false,Rx,0,8,75,00,00,00,00,00,00,00,
21142065,0000076C,false,Rx,0,8,76,00,00,00,00,00,00,00,
21142325,0000076C,false,Rx,0,8,72,00,00,00,00,00,00,00,
21142584,0000076C,false,Rx,0,8,73,00,00,00,00,00,00,00,
21142863,0000076C,false,Rx,0,8,74,00,00,00,00,00,00,00,
21143134,0000076C,false,Rx,0,8,75,00,00,00,00,00,00,00,
21143393,0000076C,false,Rx,0,8,76,00,00,00,00,00,00,00,
21143671,0000076C,false,Rx,0,8,72,00,00,00,00,00,00,00,
21143921,0000076C,false,Rx,0,8,73,00,00,00,00,00,00,00,
21144181,0000076C,false,Rx,0,8,74,00,00,00,00,00,00,00,
21144512,0000076C,false,Rx,0,8,75,00,00,00,00,00,00,00,
21145545,0000076C,false,Rx,0,8,76,00,00,00,00,00,00,00,
21145808,0000076C,false,Rx,0,8,72,00,00,00,00,00,00,00,
21146069,0000076C,false,Rx,0,8,73,00,00,00,00,00,00,00,
21146328,0000076C,false,Rx,0,8,74,00,00,00,00,00,00,00,
21146566,0000076C,false,Rx,0,8,18,86,AA,C8,BD,02,00,00,
21146815,0000076C,false,Rx,0,8,75,00,00,00,00,00,00,00,
21147086,0000076C,false,Rx,0,8,76,00,00,00,00,00,00,00,
21147355,0000076C,false,Rx,0,8,72,00,00,00,00,00,00,00,
21147604,0000076C,false,Rx,0,8,73,00,00,00,00,00,00,00,
21148050,0000022A,false,Rx,0,4,00,00,79,18,00,00,00,00,
21148298,000003B2,false,Rx,0,8,5E,0F,F9,FF,00,CB,B6,04,
21148537,00000545,false,Rx,0,8,14,00,3F,70,9F,01,EA,97,
21148785,0000076C,false,Rx,0,8,74,00,00,00,00,00,00,00,
21148952,00000333,false,Rx,0,4,04,30,29,07,00,00,00,00,
21149201,0000076C,false,Rx,0,8,75,00,00,00,00,00,00,00,
21149388,000002B2,false,Rx,0,5,00,00,00,00,00,00,00,00,
21149636,0000076C,false,Rx,0,8,76,00,00,00,00,00,00,00,
21149864,000003A1,false,Rx,0,8,09,62,78,9D,08,2C,12,5A,
21150114,0000076C,false,Rx,0,8,72,00,00,00,00,00,00,00,
21150352,00000321,false,Rx,0,8,2C,B6,A8,7F,02,7F,00,00,
21150601,0000076C,false,Rx,0,8,73,00,00,00,00,00,00,00,
21150820,0000025D,false,Rx,0,8,D9,8C,01,B5,4A,C1,0A,E0,
21151069,0000076C,false,Rx,0,8,74,00,00,00,00,00,00,00,
21151235,0000023D,false,Rx,0,4,40,00,00,00,00,00,00,00,
21151495,0000076C,false,Rx,0,8,75,00,00,00,00,00,00,00,
21151733,0000021D,false,Rx,0,8,5D,20,00,20,80,00,60,10,
21151983,0000076C,false,Rx,0,8,76,00,00,00,00,00,00,00,
21152212,0000020A,false,Rx,0,8,F6,15,09,82,18,01,00,00,
21152450,00000212,false,Rx,0,8,B9,1C,94,AD,C1,15,36,6B,
21152699,0000076C,false,Rx,0,8,72,00,00,00,00,00,00,00,
21152960,0000076C,false,Rx,0,8,73,00,00,00,00,00,00,00,
21153208,0000076C,false,Rx,0,8,74,00,00,00,00,00,00,00,
21153518,0000076C,false,Rx,0,8,75,00,00,00,00,00,00,00,
21154552,0000076C,false,Rx,0,8,76,00,00,00,00,00,00,00,
21154811,0000076C,false,Rx,0,8,72,00,00,00,00,00,00,00,
21155071,0000076C,false,Rx,0,8,73,00,00,00,00,00,00,00,
21155330,0000076C,false,Rx,0,8,74,00,00,00,00,00,00,00,
21155589,0000076C,false,Rx,0,8,75,00,00,00,00,00,00,00,
21155863,0000076C,false,Rx,0,8,76,00,00,00,00,00,00,00,
21156124,0000076C,false,Rx,0,8,72,00,00,00,00,00,00,00,
21156382,0000076C,false,Rx,0,8,73,00,00,00,00,00,00,00,
21156621,0000076C,false,Rx,0,8,9E,13,20,00,64,00,40,00,
21156870,0000076C,false,Rx,0,8,74,00,00,00,00,00,00,00,
21157130,0000076C,false,Rx,0,8,75,00,00,00,00,00,00,00,
21157389,0000076C,false,Rx,0,8,76,00,00,00,00,00,00,00,
21157659,0000076C,false,Rx,0,8,72,00,00,00,00,00,00,00,
21158053,0000022A,false,Rx,0,4,00,00,79,18,00,00,00,00,
21158302,000003B2,false,Rx,0,8,5D,0F,F9,FF,00,CB,B6,04,
21158561,0000076C,false,Rx,0,8,73,00,00,00,00,00,00,00,
21158820,0000076C,false,Rx,0,8,74,00,00,00,00,00,00,00,
21159081,0000076C,false,Rx,0,8,75,00,00,00,00,00,00,00,
21159350,0000076C,false,Rx,0,8,76,00,00,00,00,00,00,00,
21159609,0000076C,false,Rx,0,8,72,00,00,00,00,00,00,00,
21159867,0000076C,false,Rx,0,8,73,00,00,00,00,00,00,00,
21160127,0000076C,false,Rx,0,8,74,00,00,00,00,00,00,00,
21160386,0000076C,false,Rx,0,8,75,00,00,00,00,00,00,00,
21160666,0000076C,false,Rx,0,8,76,00,00,00,00,00,00,00,
21160925,0000076C,false,Rx,0,8,72,00,00,00,00,00,00,00,
21161185,0000076C,false,Rx,0,8,73,00,00,00,00,00,00,00,
21161506,0000076C,false,Rx,0,8,74,00,00,00,00,00,00,00,
21162537,0000076C,false,Rx,0,8,75,00,00,00,00,00,00,00,
21162806,0000076C,false,Rx,0,8,76,00,00,00,00,00,00,00,
21163056,0000076C,false,Rx,0,8,72,00,00,00,00,00,00,00,
21163315,0000076C,false,Rx,0,8,73,00,00,00,00,00,00,00,
21163584,0000076C,false,Rx,0,8,74,00,00,00,00,00,00,00,
21163869,0000076C,false,Rx,0,8,75,00,00,00,00,00,00,00,
21164129,0000076C,false,Rx,0,8,76,00,00,00,00,00,00,00,
21164388,0000076C,false,Rx,0,8,72,00,00,00,00,00,00,00,
21164658,0000076C,false,Rx,0,8,73,00,00,00,00,00,00,00,
21164917,0000076C,false,Rx,0,8,74,00,00,00,00,00,00,00,
21165187,0000076C,false,Rx,0,8,75,00,00,00,00,00,00,00,
21165519,0000076C,false,Rx,0,8,76,00,00,00,00,00,00,00,
21166580,0000076C,false,Rx,0,8,1F,00,00,D0,20,00,00,00,
21166830,0000076C,false,Rx,0,8,72,00,00,00,00,00,00,00,
21167090,0000076C,false,Rx,0,8,73,00,00,00,00,00,00,00,
21167359,0000076C,false,Rx,0,8,74,00,00,00,00,00,00,00,
21167619,0000076C,false,Rx,0,8,75,00,00,00,00,00,00,00,
21168058,0000022A,false,Rx,0,4,00,00,79,18,00,00,00,00,
21168296,000003B2,false,Rx,0,8,5E,0F,F9,FF,00,CB,B6,04,
21168678,000002C4,false,Rx,0,8,25,22,00,00,00,00,00,20,
21168926,0000076C,false,Rx,0,8,76,00,00,00,00,00,00,00,
21169177,00000204,false,Rx,0,8,01,00,00,00,00,00,00,10,
21169426,0000076C,false,Rx,0,8,72,00,00,00,00,00,00,00,
21169633,00000264,false,Rx,0,6,33,00,00,00,00,00,00,00,
21169882,0000076C,false,Rx,0,8,73,00,00,00,00,00,00,00,
21170122,00000224,false,Rx,0,8,84,35,00,00,00,10,10,08,
21170371,0000076C,false,Rx,0,8,74,00,00,00,00,00,00,00,
21170651,0000076C,false,Rx,0,8,75,00,00,00,00,00,00,00,
21170910,0000076C,false,Rx,0,8,76,00,00,00,00,00,00,00,
21171170,0000076C,false,Rx,0,8,72,00,00,00,00,00,00,00,
21171491,0000076C,false,Rx,0,8,73,00,00,00,00,00,00,00,
21172540,0000076C,false,Rx,0,8,74,00,00,00,00,00,00,00,
21172809,0000076C,false,Rx,0,8,75,00,00,00,00,00,00,00,
21173071,0000076C,false,Rx,0,8,76,00,00,00,00,00,00,00,
21173329,0000076C,false,Rx,0,8,72,00,00,00,00,00,00,00,
21173588,0000076C,false,Rx,0,8,73,00,00,00,00,00,00,00,
21173858,0000076C,false,Rx,0,8,74,00,00,00,00,00,00,00,
21174115,0000076C,false,Rx,0,8,75,00,00,00,00,00,00,00,
21174374,0000076C,false,Rx,0,8,76,00,00,00,00,00,00,00,
21174664,0000076C,false,Rx,0,8,72,00,00,00,00,00,00,00,
21174923,0000076C,false,Rx,0,8,73,00,00,00,00,00,00,00,
21175183,0000076C,false,Rx,0,8,74,00,00,00,00,00,00,00,
21175504,0000076C,false,Rx,0,8,75,00,00,00,00,00,00,00,
21176584,0000076C,false,Rx,0,8,20,00,00,00,30,00,00,00,
21176834,0000076C,false,Rx,0,8,76,00,00,00,00,00,00,00,
21177094,0000076C,false,Rx,0,8,72,00,00,00,00,00,00,00,
21177352,0000076C,false,Rx,0,8,73,00,00,00,00,00,00,00,
21177602,0000076C,false,Rx,0,8,74,00,00,00,00,00,00,00,
21178061,0000022A,false,Rx,0,4,00,00,79,18,00,00,00,00,
21178300,000003B2,false,Rx,0,8,5D,0F,F9,FF,00,CB,B6,04,
21178569,0000076C,false,Rx,0,8,75,00,00,00,00,00,00,00,
21178848,0000076C,false,Rx,0,8,76,00,00,00,00,00,00,00,
21179110,0000076C,false,Rx,0,8,72,00,00,00,00,00,00,00,
21179368,0000076C,false,Rx,0,8,73,00,00,00,00,00,00,00,
21179648,0000076C,false,Rx,0,8,74,00,00,00,00,00,00,00,
21179907,0000076C,false,Rx,0,8,75,00,00,00,00,00,00,00,
21180168,0000076C,false,Rx,0,8,76,00,00,00,00,00,00,00,
21180499,0000076C,false,Rx,0,8,72,00,00,00,00,00,00,00,
21181542,0000076C,false,Rx,0,8,73,00,00,00,00,00,00,00,
21181811,0000076C,false,Rx,0,8,74,00,00,00,00,00,00,00,
21182084,0000076C,false,Rx,0,8,75,00,00,00,00,00,00,00,
21182333,0000076C,false,Rx,0,8,76,00,00,00,00,00,00,00,
21182592,0000076C,false,Rx,0,8,72,00,00,00,00,00,00,00,
21182861,0000076C,false,Rx,0,8,73,00,00,00,00,00,00,00,
21183112,0000076C,false,Rx,0,8,74,00,00,00,00,00,00,00,
21183381,0000076C,false,Rx,0,8,75,00,00,00,00,00,00,00,
21183661,0000076C,false,Rx,0,8,76,00,00,00,00,00,00,00,
21183920,0000076C,false,Rx,0,8,72,00,00,00,00,00,00,00,
21184181,0000076C,false,Rx,0,8,73,00,00,00,00,00,00,00,
21184502,0000076C,false,Rx,0,8,74,00,00,00,00,00,00,00,
21185534,0000076C,false,Rx,0,8,75,00,00,00,00,00,00,00,
21185803,0000076C,false,Rx,0,8,76,00,00,00,00,00,00,00,
21186075,0000076C,false,Rx,0,8,72,00,00,00,00,00,00,00,
21186338,0000076C,false,Rx,0,8,73,00,00,00,00,00,00,00,
21186576,0000076C,false,Rx,0,8,21,04,32,8F,BB,28,00,00,
21186815,0000076C,false,Rx,0,8,74,00,00,00,00,00,00,00,
21187086,0000076C,false,Rx,0,8,75,00,00,00,00,00,00,00,
21187345,0000076C,false,Rx,0,8,76,00,00,00,00,00,00,00,
21187605,0000076C,false,Rx,0,8,72,00,00,00,00,00,00,00,
21188061,0000022A,false,Rx,0,4,00,00,79,18,00,00,00,00,
21188297,000003B2,false,Rx,0,8,5E,0F,F9,FF,00,CB,B6,04,
21188566,0000076C,false,Rx,0,8,73,00,00,00,00,00,00,00,
21188846,0000076C,false,Rx,0,8,74,00,00,00,00,00,00,00,
21189118,0000076C,false,Rx,0,8,75,00,00,00,00,00,00,00,
21189377,0000076C,false,Rx,0,8,76,00,00,00,00,00,00,00,
21189656,0000076C,false,Rx,0,8,72,00,00,00,00,00,00,00,
21189906,0000076C,false,Rx,0,8,73,00,00,00,00,00,00,00,
21190185,0000076C,false,Rx,0,8,74,00,00,00,00,00,00,00,
21190505,0000076C,false,Rx,0,8,75,00,00,00,00,00,00,00,
21191538,0000076C,false,Rx,0,8,76,00,00,00,00,00,00,00,
21191797,0000076C,false,Rx,0,8,72,00,00,00,00,00,00,00,
21192057,0000076C,false,Rx,0,8,73,00,00,00,00,00,00,00,
21192322,0000076C,false,Rx,0,8,74,00,00,00,00,00,00,00,
21192581,0000076C,false,Rx,0,8,75,00,00,00,00,00,00,00,
