Time Stamp,ID,Extended,Dir,Bus,LEN,D1,D2,D3,D4,D5,D6,D7,D8
4285406728,0000022A,false,Rx,0,4,00,00,70,17,00,00,00,00,
4285406983,000003B2,false,Rx,0,8,5D,0F,F9,FF,00,CB,B6,04,
4285416721,0000022A,false,Rx,0,4,00,00,70,17,00,00,00,00,
4285416975,000003B2,false,Rx,0,8,5E,0F,F9,FF,00,CB,B6,04,
4285426733,0000022A,false,Rx,0,4,00,00,70,17,00,00,00,00,
4285426977,000003B2,false,Rx,0,8,5D,0F,F9,FF,00,CB,B6,04,
4285436726,0000022A,false,Rx,0,4,00,00,70,17,00,00,00,00,
4285436980,000003B2,false,Rx,0,8,5E,0F,F9,FF,00,CB,B6,04,
4285446721,0000022A,false,Rx,0,4,00,00,70,17,00,00,00,00,
4285446976,000003B2,false,Rx,0,8,5D,0F,F9,FF,00,CB,B6,04,
4285447234,00000545,false,Rx,0,8,14,00,3F,70,9F,01,6A,17,
4285447411,00000333,false,Rx,0,4,04,30,29,07,00,00,00,00,
4285447620,000002B2,false,Rx,0,5,C8,00,00,05,78,00,00,00,
4285447868,000003A1,false,Rx,0,8,09,62,78,9D,08,2C,12,5A,
4285448116,00000321,false,Rx,0,8,2C,B6,A8,7F,02,7F,00,00,
4285448366,0000025D,false,Rx,0,8,D9,8C,01,B5,4A,C1,0A,E0,
4285448553,0000023D,false,Rx,0,4,0A,40,FF,00,00,00,00,00,
4285448811,0000021D,false,Rx,0,8,2D,20,00,20,80,00,60,10,
4285449061,00000232,false,Rx,0,8,0A,02,D5,09,CB,04,00,00,
4285449279,0000020A,false,Rx,0,6,F6,15,09,82,18,01,00,00,
4285449527,00000212,false,Rx,0,8,B9,1C,94,AD,C3,15,06,63,
4285456738,0000022A,false,Rx,0,4,00,00,70,17,00,00,00,00,
4285456981,000003B2,false,Rx,0,8,5E,0F,F9,FF,00,CB,B6,04,
4285466732,0000022A,false,Rx,0,4,00,00,70,17,00,00,00,00,
4285466975,000003B2,false,Rx,0,8,5D,0F,F9,FF,00,CB,B6,04,
4285476724,0000022A,false,Rx,0,4,00,00,70,17,00,00,00,00,
4285476977,000003B2,false,Rx,0,8,5E,0F,F9,FF,00,CB,B6,04,
4285486717,0000022A,false,Rx,0,4,00,00,70,17,00,00,00,00,
4285486970,000003B2,false,Rx,0,8,5D,0F,F9,FF,00,CB,B6,04,
4285487424,00000504,false,Rx,0,8,00,1B,05,03,00,01,00,01,
4285496734,0000022A,false,Rx,0,4,00,00,70,17,00,00,00,00,
4285496977,000003B2,false,Rx,0,8,5E,0F,F9,FF,00,CB,B6,04,
4285497205,00000545,false,Rx,0,8,03,19,64,32,19,00,70,85,
4285506730,0000022A,false,Rx,0,4,00,00,70,17,00,00,00,00,
4285506963,000003B2,false,Rx,0,8,5D,0F,F9,FF,00,CB,B6,04,
4285516722,0000022A,false,Rx,0,4,00,00,70,17,00,00,00,00,
4285516965,000003B2,false,Rx,0,8,5E,0F,F9,FF,00,CB,B6,04,
4285526727,0000022A,false,Rx,0,4,00,00,70,17,00,00,00,00,
4285526970,000003B2,false,Rx,0,8,5D,0F,F9,FF,00,CB,B6,04,
4285536732,0000022A,false,Rx,0,4,00,00,70,17,00,00,00,00,
4285536965,000003B2,false,Rx,0,8,5E,0F,F9,FF,00,CB,B6,04,
4285546727,0000022A,false,Rx,0,4,00,00,70,17,00,00,00,00,
4285546960,000003B2,false,Rx,0,8,5D,0F,F9,FF,00,CB,B6,04,
4285547446,00000545,false,Rx,0,8,14,00,3F,70,9F,01,8A,37,
4285547624,00000333,false,Rx,0,4,04,30,29,07,00,00,00,00,
4285547820,000002B2,false,Rx,0,5,C8,00,00,05,78,00,00,00,
4285548058,000003A1,false,Rx,0,8,09,62,78,9D,08,2C,12,5A,
4285548297,00000321,false,Rx,0,8,2C,B6,A8,7F,02,7F,00,00,
4285548535,0000025D,false,Rx,0,8,D9,8C,01,B5,4A,C1,0A,E0,
4285548713,0000023D,false,Rx,0,4,0A,40,FF,00,00,00,00,00,
4285548961,0000021D,false,Rx,0,8,2D,20,00,20,80,00,60,10,
4285549199,00000232,false,Rx,0,8,0A,02,D5,09,CB,04,00,00,
4285549407,0000020A,false,Rx,0,6,F6,15,09,82,18,01,00,00,
4285549646,00000212,false,Rx,0,8,B9,1C,94,AD,C3,15,06,63,
4285556732,0000022A,false,Rx,0,4,00,00,70,17,00,00,00,00,
4285556975,000003B2,false,Rx,0,8,5E,0F,F9,FF,00,CB,B6,04,
4285566726,0000022A,false,Rx,0,4,00,00,70,17,00,00,00,00,
4285566969,000003B2,false,Rx,0,8,5D,0F,F9,FF,00,CB,B6,04,
4285576720,0000022A,false,Rx,0,4,00,00,70,17,00,00,00,00,
4285576964,000003B2,false,Rx,0,8,5E,0F,F9,FF,00,CB,B6,04,
4285586733,0000022A,false,Rx,0,4,00,00,70,17,00,00,00,00,
4285586976,000003B2,false,Rx,0,8,5D,0F,F9,FF,00,CB,B6,04,
4285596727,0000022A,false,Rx,0,4,00,00,70,17,00,00,00,00,
4285596970,000003B2,false,Rx,0,8,5E,0F,F9,FF,00,CB,B6,04,
4285597208,00000545,false,Rx,0,8,03,19,64,32,19,00,90,A5,
4285606724,0000022A,false,Rx,0,4,00,00,70,17,00,00,00,00,
4285606967,000003B2,false,Rx,0,8,5D,0F,F9,FF,00,CB,B6,04,
4285616726,0000022A,false,Rx,0,4,00,00,70,17,00,00,00,00,
4285616969,000003B2,false,Rx,0,8,5E,0F,F9,FF,00,CB,B6,04,
4285626732,0000022A,false,Rx,0,4,00,00,70,17,00,00,00,00,
4285626965,000003B2,false,Rx,0,8,5D,0F,F9,FF,00,CB,B6,04,
4285636727,0000022A,false,Rx,0,4,00,00,70,17,00,00,00,00,
4285636970,000003B2,false,Rx,0,8,5E,0F,F9,FF,00,CB,B6,04,
4285646721,0000022A,false,Rx,0,4,00,00,70,17,00,00,00,00,
4285646964,000003B2,false,Rx,0,8,5D,0F,F9,FF,00,CB,B6,04,
4285647203,00000545,false,Rx,0,8,14,00,3F,70,9F,01,AA,57,
4285647380,00000333,false,Rx,0,4,04,30,29,07,00,00,00,00,
4285647577,000002B2,false,Rx,0,5,C8,00,00,05,78,00,00,00,
4285647815,000003A1,false,Rx,0,8,09,62,78,9D,08,2C,12,5A,
4285648054,00000321,false,Rx,0,8,2C,B6,A8,7F,02,7F,00,00,
4285648292,0000025D,false,Rx,0,8,D9,8C,01,B5,4A,C1,0A,E0,
4285648469,0000023D,false,Rx,0,4,0A,40,FF,00,00,00,00,00,
4285648718,0000021D,false,Rx,0,8,2D,20,00,20,80,00,60,10,
4285648959,00000232,false,Rx,0,8,0A,02,D5,09,CB,04,00,00,
4285649166,0000020A,false,Rx,0,6,F6,15,09,82,18,01,00,00,
4285649404,00000212,false,Rx,0,8,B9,1C,94,AD,C3,15,06,63,
4285656725,0000022A,false,Rx,0,4,00,00,70,17,00,00,00,00,
4285656968,000003B2,false,Rx,0,8,5E,0F,F9,FF,00,CB,B6,04,
4285666727,0000022A,false,Rx,0,4,00,00,70,17,00,00,00,00,
4285666970,000003B2,false,Rx,0,8,5D,0F,F9,FF,00,CB,B6,04,
4285676721,0000022A,false,Rx,0,4,00,00,70,17,00,00,00,00,
4285676964,000003B2,false,Rx,0,8,5E,0F,F9,FF,00,CB,B6,04,
4285686727,0000022A,false,Rx,0,4,00,00,70,17,00,00,00,00,
4285686970,000003B2,false,Rx,0,8,5D,0F,F9,FF,00,CB,B6,04,
4285696721,0000022A,false,Rx,0,4,00,00,70,17,00,00,00,00,
4285696964,000003B2,false,Rx,0,8,5E,0F,F9,FF,00,CB,B6,04,
4285697204,00000545,false,Rx,0,8,03,19,64,32,19,00,B0,C5,
4285706728,0000022A,false,Rx,0,4,00,00,70,17,00,00,00,00,
4285706971,000003B2,false,Rx,0,8,5D,0F,F9,FF,00,CB,B6,04,
4285716732,0000022A,false,Rx,0,4,00,00,70,17,00,00,00,00,
4285716975,000003B2,false,Rx,0,8,5E,0F,F9,FF,00,CB,B6,04,
4285726726,0000022A,false,Rx,0,4,00,00,70,17,00,00,00,00,
4285726969,000003B2,false,Rx,0,8,5D,0F,F9,FF,00,CB,B6,04,
4285736720,0000022A,false,Rx,0,4,00,00,70,17,00,00,00,00,
4285736964,000003B2,false,Rx,0,8,5E,0F,F9,FF,00,CB,B6,04,
4285746733,0000022A,false,Rx,0,4,00,00,70,17,00,00,00,00,
4285746966,000003B2,false,Rx,0,8,5D,0F,F9,FF,00,CB,B6,04,
4285747215,00000545,false,Rx,0,8,14,00,3F,70,9F,01,CA,77,
4285747392,00000333,false,Rx,0,4,04,30,29,07,00,00,00,00,
4285747589,000002B2,false,Rx,0,5,C8,00,00,05,78,00,00,00,
4285747818,000003A1,false,Rx,0,8,09,62,78,9D,08,2C,12,5A,
4285748066,00000321,false,Rx,0,8,2C,B6,A8,7F,02,7F,00,00,
4285748304,0000025D,false,Rx,0,8,D9,8C,01,B5,4A,C1,0A,E0,
4285748471,0000023D,false,Rx,0,4,0A,40,FF,00,00,00,00,00,
4285748721,0000021D,false,Rx,0,8,2D,20,00,20,80,00,60,10,
4285748961,00000232,false,Rx,0,8,0A,02,D5,09,CB,04,00,00,
4285749178,0000020A,false,Rx,0,6,F6,15,09,82,18,01,00,00,
4285749407,00000212,false,Rx,0,8,B9,1C,94,AD,C3,15,06,63,
4285756727,0000022A,false,Rx,0,4,00,00,70,17,00,00,00,00,
4285756970,000003B2,false,Rx,0,8,5E,0F,F9,FF,00,CB,B6,04,
4285766721,0000022A,false,Rx,0,4,00,00,70,17,00,00,00,00,
4285766964,000003B2,false,Rx,0,8,5D,0F,F9,FF,00,CB,B6,04,
4285776727,0000022A,false,Rx,0,4,00,00,70,17,00,00,00,00,
4285776970,000003B2,false,Rx,0,8,5E,0F,F9,FF,00,CB,B6,04,
4285786721,0000022A,false,Rx,0,4,00,00,70,17,00,00,00,00,
4285786966,000003B2,false,Rx,0,8,5D,0F,F9,FF,00,CB,B6,04,
4285796726,0000022A,false,Rx,0,4,00,00,70,17,00,00,00,00,
4285796970,000003B2,false,Rx,0,8,5E,0F,F9,FF,00,CB,B6,04,
4285797198,00000545,false,Rx,0,8,03,19,64,32,19,00,D0,E5,
4285806732,0000022A,false,Rx,0,4,00,00,70,17,00,00,00,00,
4285806966,000003B2,false,Rx,0,8,5D,0F,F9,FF,00,CB,B6,04,
4285816726,0000022A,false,Rx,0,4,00,00,70,17,00,00,00,00,
4285816971,000003B2,false,Rx,0,8,5E,0F,F9,FF,00,CB,B6,04,
4285826718,0000022A,false,Rx,0,4,00,00,70,17,00,00,00,00,
4285826963,000003B2,false,Rx,0,8,5D,0F,F9,FF,00,CB,B6,04,
4285836733,0000022A,false,Rx,0,4,00,00,70,17,00,00,00,00,
4285836967,000003B2,false,Rx,0,8,5E,0F,F9,FF,00,CB,B6,04,
4285847763,0000022A,false,Rx,0,4,00,00,70,17,00,00,00,00,
4285848006,000003B2,false,Rx,0,8,5D,0F,F9,FF,00,CB,B6,04,
4285848244,00000545,false,Rx,0,8,14,00,3F,70,9F,01,EA,97,
4285848422,00000333,false,Rx,0,4,04,30,29,07,00,00,00,00,
4285848620,000002B2,false,Rx,0,5,C8,00,00,05,78,00,00,00,
4285848847,000003A1,false,Rx,0,8,09,62,78,9D,08,2C,12,5A,
4285849095,00000321,false,Rx,0,8,2C,B6,A8,7F,02,7F,00,00,
4285849335,0000025D,false,Rx,0,8,D9,8C,01,B5,4A,C1,0A,E0,
4285849501,0000023D,false,Rx,0,4,0A,40,FF,00,00,00,00,00,
4285849750,0000021D,false,Rx,0,8,2D,20,00,20,80,00,60,10,
4285849991,00000232,false,Rx,0,8,0A,02,D5,09,CB,04,00,00,
4285850209,0000020A,false,Rx,0,6,F6,15,09,82,18,01,00,00,
4285850436,00000212,false,Rx,0,8,B9,1C,94,AD,C3,15,06,63,
4285856720,0000022A,false,Rx,0,4,00,00,70,17,00,00,00,00,
4285856965,000003B2,false,Rx,0,8,5E,0F,F9,FF,00,CB,B6,04,
4285866733,0000022A,false,Rx,0,4,00,00,70,17,00,00,00,00,
4285866967,000003B2,false,Rx,0,8,5D,0F,F9,FF,00,CB,B6,04,
4285876726,0000022A,false,Rx,0,4,00,00,70,17,00,00,00,00,
4285876970,000003B2,false,Rx,0,8,5E,0F,F9,FF,00,CB,B6,04,
4285886728,0000022A,false,Rx,0,4,00,00,70,17,00,00,00,00,
4285886962,000003B2,false,Rx,0,8,5D,0F,F9,FF,00,CB,B6,04,
4285896782,00000545,false,Rx,0,8,03,19,64,32,19,00,F0,05,
4285896956,0000022A,false,Rx,0,4,00,00,70,17,00,00,00,00,
4285897203,000003B2,false,Rx,0,8,5E,0F,F9,FF,00,CB,B6,04,
4285906727,0000022A,false,Rx,0,4,00,00,70,17,00,00,00,00,
4285906961,000003B2,false,Rx,0,8,5D,0F,F9,FF,00,CB,B6,04,
4285916721,0000022A,false,Rx,0,4,00,00,70,17,00,00,00,00,
4285916965,000003B2,false,Rx,0,8,5E,0F,F9,FF,00,CB,B6,04,
4285926726,0000022A,false,Rx,0,4,00,00,70,17,00,00,00,00,
4285926970,000003B2,false,Rx,0,8,5D,0F,F9,FF,00,CB,B6,04,
4285936730,0000022A,false,Rx,0,4,00,00,70,17,00,00,00,00,
4285936973,000003B2,false,Rx,0,8,5E,0F,F9,FF,00,CB,B6,04,
4285946722,0000022A,false,Rx,0,4,00,00,70,17,00,00,00,00,
4285946965,000003B2,false,Rx,0,8,5D,0F,F9,FF,00,CB,B6,04,
4285947460,00000545,false,Rx,0,8,14,00,3F,70,9F,01,0A,B7,
4285947628,00000333,false,Rx,0,4,04,30,29,07,00,00,00,00,
4285947825,000002B2,false,Rx,0,5,C8,00,00,05,78,00,00,00,
4285948062,000003A1,false,Rx,0,8,09,62,78,9D,08,2C,12,5A,
4285948302,00000321,false,Rx,0,8,2C,B6,A8,7F,02,7F,00,00,
4285948540,0000025D,false,Rx,0,8,D9,8C,01,B5,4A,C1,0A,E0,
4285948717,0000023D,false,Rx,0,4,0A,40,FF,00,00,00,00,00,
4285948965,0000021D,false,Rx,0,8,2D,20,00,20,80,00,60,10,
4285949204,00000232,false,Rx,0,8,0A,02,D5,09,CB,04,00,00,
4285949422,0000020A,false,Rx,0,6,F6,15,09,82,18,01,00,00,
4285949650,00000212,false,Rx,0,8,B9,1C,94,AD,C3,15,06,63,
4285956727,0000022A,false,Rx,0,4,00,00,70,17,00,00,00,00,
4285956970,000003B2,false,Rx,0,8,5E,0F,F9,FF,00,CB,B6,04,
4285966722,0000022A,false,Rx,0,4,00,00,70,17,00,00,00,00,
4285966965,000003B2,false,Rx,0,8,5D,0F,F9,FF,00,CB,B6,04,
4285976727,0000022A,false,Rx,0,4,00,00,70,17,00,00,00,00,
4285976970,000003B2,false,Rx,0,8,5E,0F,F9,FF,00,CB,B6,04,
4285986722,0000022A,false,Rx,0,4,00,00,70,17,00,00,00,00,
4285986965,000003B2,false,Rx,0,8,5D,0F,F9,FF,00,CB,B6,04,
4285996728,0000022A,false,Rx,0,4,00,00,70,17,00,00,00,00,
4285996971,000003B2,false,Rx,0,8,5E,0F,F9,FF,00,CB,B6,04,
4285997457,00000545,false,Rx,0,8,03,19,64,32,19,00,10,25,
4286006724,0000022A,false,Rx,0,4,00,00,70,17,00,00,00,00,
4286006967,000003B2,false,Rx,0,8,5D,0F,F9,FF,00,CB,B6,04,
4286016727,0000022A,false,Rx,0,4,00,00,70,17,00,00,00,00,
4286016970,000003B2,false,Rx,0,8,5E,0F,F9,FF,00,CB,B6,04,
4286026732,0000022A,false,Rx,0,4,00,00,70,17,00,00,00,00,
4286026964,000003B2,false,Rx,0,8,5D,0F,F9,FF,00,CB,B6,04,
4286036727,0000022A,false,Rx,0,4,00,00,70,17,00,00,00,00,
4286036970,000003B2,false,Rx,0,8,5E,0F,F9,FF,00,CB,B6,04,
4286046720,0000022A,false,Rx,0,4,00,00,70,17,00,00,00,00,
4286046963,000003B2,false,Rx,0,8,5D,0F,F9,FF,00,CB,B6,04,
4286047201,00000545,false,Rx,0,8,14,00,3F,70,9F,01,2A,D7,
4286047379,00000333,false,Rx,0,4,04,30,29,07,00,00,00,00,
4286047577,000002B2,false,Rx,0,5,C8,00,00,05,78,00,00,00,
4286047815,000003A1,false,Rx,0,8,09,62,78,9D,08,2C,12,5A,
4286048053,00000321,false,Rx,0,8,2C,B6,A8,7F,02,7F,00,00,
4286048292,0000025D,false,Rx,0,8,D9,8C,01,B5,4A,C1,0A,E0,
4286048469,0000023D,false,Rx,0,4,0A,40,FF,00,00,00,00,00,
4286048707,0000021D,false,Rx,0,8,2D,20,00,20,80,00,60,10,
4286048959,00000232,false,Rx,0,8,0A,02,D5,09,CB,04,00,00,
4286049166,0000020A,false,Rx,0,6,F6,15,09,82,18,01,00,00,
4286049393,00000212,false,Rx,0,8,B9,1C,94,AD,C3,15,06,63,
4286056726,0000022A,false,Rx,0,4,00,00,70,17,00,00,00,00,
4286056969,000003B2,false,Rx,0,8,5E,0F,F9,FF,00,CB,B6,04,
4286066728,0000022A,false,Rx,0,4,00,00,70,17,00,00,00,00,
4286066961,000003B2,false,Rx,0,8,5D,0F,F9,FF,00,CB,B6,04,
4286076722,0000022A,false,Rx,0,4,00,00,70,17,00,00,00,00,
4286076965,000003B2,false,Rx,0,8,5E,0F,F9,FF,00,CB,B6,04,
4286086727,0000022A,false,Rx,0,4,00,00,70,17,00,00,00,00,
4286086970,000003B2,false,Rx,0,8,5D,0F,F9,FF,00,CB,B6,04,
4286096721,0000022A,false,Rx,0,4,00,00,70,17,00,00,00,00,
4286096965,000003B2,false,Rx,0,8,5E,0F,F9,FF,00,CB,B6,04,
4286097203,00000545,false,Rx,0,8,03,19,64,32,19,00,30,45,
4286106728,0000022A,false,Rx,0,4,00,00,70,17,00,00,00,00,
4286106971,000003B2,false,Rx,0,8,5D,0F,F9,FF,00,CB,B6,04,
4286116732,0000022A,false,Rx,0,4,00,00,70,17,00,00,00,00,
4286116975,000003B2,false,Rx,0,8,5E,0F,F9,FF,00,CB,B6,04,
4286126727,0000022A,false,Rx,0,4,00,00,70,17,00,00,00,00,
4286126960,000003B2,false,Rx,0,8,5D,0F,F9,FF,00,CB,B6,04,
4286136721,0000022A,false,Rx,0,4,00,00,70,17,00,00,00,00,
4286136964,000003B2,false,Rx,0,8,5E,0F,F9,FF,00,CB,B6,04,
4286146726,0000022A,false,Rx,0,4,00,00,70,17,00,00,00,00,
4286146969,000003B2,false,Rx,0,8,5D,0F,F9,FF,00,CB,B6,04,
4286147219,00000545,false,Rx,0,8,14,00,3F,70,9F,01,4A,F7,
4286147395,00000333,false,Rx,0,4,04,30,29,07,00,00,00,00,
4286147593,000002B2,false,Rx,0,5,C8,00,00,05,78,00,00,00,
4286147820,000003A1,false,Rx,0,8,09,62,78,9D,08,2C,12,5A,
4286148069,00000321,false,Rx,0,8,2C,B6,A8,7F,02,7F,00,00,
4286148297,0000025D,false,Rx,0,8,D9,8C,01,B5,4A,C1,0A,E0,
4286148474,0000023D,false,Rx,0,4,0A,40,FF,00,00,00,00,00,
4286148724,0000021D,false,Rx,0,8,2D,20,00,20,80,00,60,10,
4286148964,00000232,false,Rx,0,8,0A,02,D5,09,CB,04,00,00,
4286149181,0000020A,false,Rx,0,6,F6,15,09,82,18,01,00,00,
4286149409,00000212,false,Rx,0,8,B9,1C,94,AD,C3,15,06,63,
4286156729,0000022A,false,Rx,0,4,00,00,70,17,00,00,00,00,
4286156962,000003B2,false,Rx,0,8,5E,0F,F9,FF,00,CB,B6,04,
4286165384,0000076C,false,Rx,0,8,01,0D,0D,20,20,25,25,00,
4286166722,0000022A,false,Rx,0,4,00,00,70,17,00,00,00,00,
4286166960,000003B2,false,Rx,0,8,5D,0F,F9,FF,00,CB,B6,04,
4286167505,000002C4,false,Rx,0,8,E6,29,3D,0A,00,00,00,7D,
4286167765,00000224,false,Rx,0,8,00,00,00,00,00,00,00,08,
4286169394,000002A4,false,Rx,0,8,68,EF,FA,D7,F9,1E,F8,32,
4286169531,00000364,false,Rx,0,2,00,78,00,00,00,00,00,00,
4286169800,000003A4,false,Rx,0,8,00,00,00,00,00,00,00,00,
4286175374,0000076C,false,Rx,0,8,02,01,01,02,02,01,01,00,
4286176723,0000022A,false,Rx,0,4,00,00,70,17,00,00,00,00,
4286176971,000003B2,false,Rx,0,8,5E,0F,F9,FF,00,CB,B6,04,
4286185371,0000076C,false,Rx,0,8,03,62,62,4B,4B,6E,6E,00,
4286186730,0000022A,false,Rx,0,4,00,00,70,17,00,00,00,00,
4286186967,000003B2,false,Rx,0,8,5D,0F,F9,FF,00,CB,B6,04,
4286195378,0000076C,false,Rx,0,8,04,15,15,00,05,00,02,00,
4286196727,0000022A,false,Rx,0,4,00,00,70,17,00,00,00,00,
4286196964,000003B2,false,Rx,0,8,5E,0F,F9,FF,00,CB,B6,04,
4286197204,00000545,false,Rx,0,8,03,19,64,32,19,00,50,65,
4286205378,0000076C,false,Rx,0,8,05,AB,CC,36,42,D4,2E,00,
4286206727,0000022A,false,Rx,0,4,00,00,70,17,00,00,00,00,
4286206964,000003B2,false,Rx,0,8,5D,0F,F9,FF,00,CB,B6,04,
4286215374,0000076C,false,Rx,0,8,0A,09,E0,00,64,00,00,00,
4286216733,0000022A,false,Rx,0,4,00,00,70,17,00,00,00,00,
4286216971,000003B2,false,Rx,0,8,5E,0F,F9,FF,00,CB,B6,04,
4286225370,0000076C,false,Rx,0,8,0B,13,00,D0,20,00,00,00,
4286226729,0000022A,false,Rx,0,4,00,00,70,17,00,00,00,00,
4286226966,000003B2,false,Rx,0,8,5D,0F,F9,FF,00,CB,B6,04,
4286235388,0000076C,false,Rx,0,8,0C,00,00,00,20,20,40,00,
4286236727,0000022A,false,Rx,0,4,00,00,70,17,00,00,00,00,
4286236964,000003B2,false,Rx,0,8,5E,0F,F9,FF,00,CB,B6,04,
4286245364,0000076C,false,Rx,0,8,0D,04,32,8F,BB,28,00,00,
4286246723,0000022A,false,Rx,0,4,00,00,70,17,00,00,00,00,
4286246960,000003B2,false,Rx,0,8,5D,0F,F9,FF,00,CB,B6,04,
4286247210,00000545,false,Rx,0,8,14,00,3F,70,9F,01,6A,17,
4286247387,00000333,false,Rx,0,4,04,30,29,07,00,00,00,00,
4286247574,000002B2,false,Rx,0,5,C8,00,00,05,78,00,00,00,
4286247814,000003A1,false,Rx,0,8,09,62,78,9D,08,2C,12,5A,
4286248063,00000321,false,Rx,0,8,2C,B6,A8,7F,02,7F,00,00,
4286248290,0000025D,false,Rx,0,8,D9,8C,01,B5,4A,C1,0A,E0,
4286248467,0000023D,false,Rx,0,4,0A,40,FF,00,00,00,00,00,
4286248717,0000021D,false,Rx,0,8,2D,20,00,20,80,00,60,10,
4286248955,00000232,false,Rx,0,8,0A,02,D5,09,CB,04,00,00,
4286249173,0000020A,false,Rx,0,6,F6,15,09,82,18,01,00,00,
4286249401,00000212,false,Rx,0,8,B9,1C,94,AD,C3,15,06,63,
4286255373,0000076C,false,Rx,0,8,0E,A2,AA,B2,BD,02,00,00,
4286256721,0000022A,false,Rx,0,4,00,00,70,17,00,00,00,00,
4286256969,000003B2,false,Rx,0,8,5E,0F,F9,FF,00,CB,B6,04,
4286265379,0000076C,false,Rx,0,8,14,11,40,00,64,00,00,00,
4286266717,0000022A,false,Rx,0,4,00,00,70,17,00,00,00,00,
4286266966,000003B2,false,Rx,0,8,5D,0F,F9,FF,00,CB,B6,04,
4286267531,000002C4,false,Rx,0,8,07,00,00,08,00,00,00,00,
4286267792,00000204,false,Rx,0,8,09,00,00,00,00,00,00,10,
4286268009,00000264,false,Rx,0,6,23,00,00,00,00,00,00,00,
4286268339,00000224,false,Rx,0,8,00,04,00,00,00,00,00,08,
4286275373,0000076C,false,Rx,0,8,15,00,00,D0,20,00,00,00,
4286276732,0000022A,false,Rx,0,4,00,00,70,17,00,00,00,00,
4286276970,000003B2,false,Rx,0,8,5E,0F,F9,FF,00,CB,B6,04,
4286285379,0000076C,false,Rx,0,8,16,00,00,00,20,00,00,00,
4286286727,0000022A,false,Rx,0,4,00,00,70,17,00,00,00,00,
4286286966,000003B2,false,Rx,0,8,5D,0F,F9,FF,00,CB,B6,04,
4286295364,0000076C,false,Rx,0,8,17,04,32,8F,BB,28,00,00,
4286296723,0000022A,false,Rx,0,4,00,00,70,17,00,00,00,00,
4286296962,000003B2,false,Rx,0,8,5E,0F,F9,FF,00,CB,B6,04,
4286297200,00000545,false,Rx,0,8,03,19,64,32,19,00,70,85,
4286305376,0000076C,false,Rx,0,8,18,A1,AA,B2,BD,02,00,00,
4286306733,0000022A,false,Rx,0,4,00,00,70,17,00,00,00,00,
4286306972,000003B2,false,Rx,0,8,5D,0F,F9,FF,00,CB,B6,04,
4286315371,0000076C,false,Rx,0,8,1E,0F,20,00,64,00,00,00,
4286316730,0000022A,false,Rx,0,4,00,00,70,17,00,00,00,00,
4286316969,000003B2,false,Rx,0,8,5E,0F,F9,FF,00,CB,B6,04,
4286325379,0000076C,false,Rx,0,8,1F,00,00,D0,20,00,00,00,
4286326727,0000022A,false,Rx,0,4,00,00,70,17,00,00,00,00,
4286326965,000003B2,false,Rx,0,8,5D,0F,F9,FF,00,CB,B6,04,
4286335385,0000076C,false,Rx,0,8,20,00,00,00,30,00,00,00,
4286336722,0000022A,false,Rx,0,4,00,00,70,17,00,00,00,00,
4286336971,000003B2,false,Rx,0,8,5E,0F,F9,FF,00,CB,B6,04,
4286345360,0000076C,false,Rx,0,8,21,04,32,8F,BB,28,00,00,
4286346720,0000022A,false,Rx,0,4,00,00,70,17,00,00,00,00,
4286346959,000003B2,false,Rx,0,8,5D,0F,F9,FF,00,CB,B6,04,
4286347207,00000545,false,Rx,0,8,14,00,3F,70,9F,01,8A,37,
4286347384,00000333,false,Rx,0,4,04,30,29,07,00,00,00,00,
4286347571,000002B2,false,Rx,0,5,C8,00,00,05,78,00,00,00,
4286347811,000003A1,false,Rx,0,8,09,62,78,9D,08,2C,12,5A,
4286348060,00000321,false,Rx,0,8,2C,B6,A8,7F,02,7F,00,00,
4286348288,0000025D,false,Rx,0,8,D9,8C,01,B5,4A,C1,0A,E0,
4286348465,0000023D,false,Rx,0,4,0A,40,FF,00,00,00,00,00,
4286348715,0000021D,false,Rx,0,8,2D,20,00,20,80,00,60,10,
4286348953,00000232,false,Rx,0,8,0A,02,D5,09,CB,04,00,00,
4286349172,0000020A,false,Rx,0,6,F6,15,09,82,18,01,00,00,
4286349400,00000212,false,Rx,0,8,B9,1C,94,AD,C3,15,06,63,
4286355364,0000076C,false,Rx,0,8,22,A0,AA,B3,BD,02,00,00,
4286356721,0000022A,false,Rx,0,4,00,00,70,17,00,00,00,00,
4286356960,000003B2,false,Rx,0,8,5E,0F,F9,FF,00,CB,B6,04,
4286365370,0000076C,false,Rx,0,8,33,00,00,00,00,44,08,21,
4286366717,0000022A,false,Rx,0,4,00,00,70,17,00,00,00,00,
4286366956,000003B2,false,Rx,0,8,5D,0F,F9,FF,00,CB,B6,04,
4286367520,000002C4,false,Rx,0,8,08,00,00,00,1C,00,00,00,
4286367782,00000204,false,Rx,0,8,09,00,00,00,00,00,00,10,
4286367999,00000264,false,Rx,0,6,2C,00,00,00,A0,00,00,00,
4286368319,00000224,false,Rx,0,8,00,04,00,00,00,00,00,08,
4286375365,0000076C,false,Rx,0,8,34,00,00,00,00,00,00,00,
4286376723,0000022A,false,Rx,0,4,00,00,70,17,00,00,00,00,
4286376972,000003B2,false,Rx,0,8,5E,0F,F9,FF,00,CB,B6,04,
4286385373,0000076C,false,Rx,0,8,35,2A,00,00,00,00,00,00,
4286386730,0000022A,false,Rx,0,4,00,00,70,17,00,00,00,00,
4286386969,000003B2,false,Rx,0,8,5D,0F,F9,FF,00,CB,B6,04,
4286395389,0000076C,false,Rx,0,8,64,00,00,3D,CA,53,2A,00,
4286396727,0000022A,false,Rx,0,4,00,00,70,17,00,00,00,00,
4286396965,000003B2,false,Rx,0,8,5E,0F,F9,FF,00,CB,B6,04,
4286397204,00000545,false,Rx,0,8,03,19,64,32,19,00,90,A5,
4286405369,0000076C,false,Rx,0,8,66,00,00,00,00,00,00,00,
4286406717,0000022A,false,Rx,0,4,00,00,70,17,00,00,00,00,
4286406955,000003B2,false,Rx,0,8,5D,0F,F9,FF,00,CB,B6,04,
4286415365,0000076C,false,Rx,0,8,67,00,00,00,00,00,00,00,
4286416735,0000022A,false,Rx,0,4,00,00,70,17,00,00,00,00,
4286416972,000003B2,false,Rx,0,8,5E,0F,F9,FF,00,CB,B6,04,
4286425374,0000076C,false,Rx,0,8,68,00,00,00,00,00,00,00,
4286426732,0000022A,false,Rx,0,4,00,00,70,17,00,00,00,00,
4286426970,000003B2,false,Rx,0,8,5D,0F,F9,FF,00,CB,B6,04,
4286435359,0000076C,false,Rx,0,8,69,00,00,00,00,00,9D,FF,
4286436728,0000022A,false,Rx,0,4,00,00,70,17,00,00,00,00,
4286436966,000003B2,false,Rx,0,8,5E,0F,F9,FF,00,CB,B6,04,
4286445365,0000076C,false,Rx,0,8,6A,00,00,00,00,00,00,00,
4286446724,0000022A,false,Rx,0,4,00,00,70,17,00,00,00,00,
4286446962,000003B2,false,Rx,0,8,5D,0F,F9,FF,00,CB,B6,04,
4286447466,00000545,false,Rx,0,8,14,00,3F,70,9F,01,AA,57,
4286447643,00000333,false,Rx,0,4,04,30,29,07,00,00,00,00,
4286447840,000002B2,false,Rx,0,5,C8,00,00,05,78,00,00,00,
4286448067,000003A1,false,Rx,0,8,09,62,78,9D,08,2C,12,5A,
4286448317,00000321,false,Rx,0,8,2C,B6,A8,7F,02,7F,00,00,
4286448555,0000025D,false,Rx,0,8,D9,8C,01,B5,4A,C1,0A,E0,
4286448722,0000023D,false,Rx,0,4,0A,40,FF,00,00,00,00,00,
4286448970,0000021D,false,Rx,0,8,2D,20,00,20,80,00,60,10,
4286449220,00000232,false,Rx,0,8,0A,02,D5,09,CB,04,00,00,
4286449439,0000020A,false,Rx,0,6,F6,15,09,82,18,01,00,00,
4286449658,00000212,false,Rx,0,8,B9,1C,94,AD,C3,15,06,63,
4286455358,0000076C,false,Rx,0,8,6B,CD,06,00,00,00,00,00,
4286456727,0000022A,false,Rx,0,4,00,00,70,17,00,00,00,00,
4286456965,000003B2,false,Rx,0,8,5E,0F,F9,FF,00,CB,B6,04,
4286465365,0000076C,false,Rx,0,8,6C,00,00,00,00,00,1C,00,
4286466724,0000022A,false,Rx,0,4,00,00,70,17,00,00,00,00,
4286466961,000003B2,false,Rx,0,8,5D,0F,F9,FF,00,CB,B6,04,
4286467486,000002C4,false,Rx,0,8,49,DC,E5,2E,B0,84,25,87,
4286467745,00000204,false,Rx,0,8,09,00,00,00,00,00,00,10,
4286467963,00000264,false,Rx,0,6,2F,00,00,00,A0,00,00,00,
4286468223,00000224,false,Rx,0,8,00,04,00,00,00,00,00,08,
4286475360,0000076C,false,Rx,0,8,6D,00,00,00,00,00,00,00,
4286476729,0000022A,false,Rx,0,4,00,00,70,17,00,00,00,00,
4286476976,000003B2,false,Rx,0,8,5E,0F,F9,FF,00,CB,B6,04,
4286485355,0000076C,false,Rx,0,8,6E,00,00,00,00,00,00,00,
4286486727,0000022A,false,Rx,0,4,00,00,70,17,00,00,00,00,
4286486964,000003B2,false,Rx,0,8,5D,0F,F9,FF,00,CB,B6,04,
4286495354,0000076C,false,Rx,0,8,6F,00,00,00,00,00,00,00,
4286496723,0000022A,false,Rx,0,4,00,00,70,17,00,00,00,00,
4286496970,000003B2,false,Rx,0,8,5E,0F,F9,FF,00,CB,B6,04,
4286497198,00000545,false,Rx,0,8,03,19,64,32,19,00,B0,C5,
4286505364,0000076C,false,Rx,0,8,70,00,00,00,00,00,00,00,
4286506723,0000022A,false,Rx,0,4,00,00,70,17,00,00,00,00,
4286506960,000003B2,false,Rx,0,8,5D,0F,F9,FF,00,CB,B6,04,
4286515340,0000076C,false,Rx,0,8,71,33,30,00,33,38,80,00,
4286516720,0000022A,false,Rx,0,4,00,00,70,17,00,00,00,00,
4286516957,000003B2,false,Rx,0,8,5E,0F,F9,FF,00,CB,B6,04,
4286525368,0000076C,false,Rx,0,8,77,00,00,00,00,00,00,00,
4286526727,0000022A,false,Rx,0,4,00,00,70,17,00,00,00,00,
4286526964,000003B2,false,Rx,0,8,5D,0F,F9,FF,00,CB,B6,04,
4286535354,0000076C,false,Rx,0,8,78,00,00,00,00,00,00,00,
4286536723,0000022A,false,Rx,0,4,00,00,70,17,00,00,00,00,
4286536971,000003B2,false,Rx,0,8,5E,0F,F9,FF,00,CB,B6,04,
4286545350,0000076C,false,Rx,0,8,79,00,00,00,00,00,00,00,
4286546730,0000022A,false,Rx,0,4,00,00,70,17,00,00,00,00,
4286546968,000003B2,false,Rx,0,8,5D,0F,F9,FF,00,CB,B6,04,
4286547216,00000545,false,Rx,0,8,14,00,3F,70,9F,01,CA,77,
4286547383,00000333,false,Rx,0,4,04,30,29,07,00,00,00,00,
4286547582,000002B2,false,Rx,0,5,C8,00,00,05,78,00,00,00,
4286547820,000003A1,false,Rx,0,8,09,62,78,9D,08,2C,12,5A,
4286548059,00000321,false,Rx,0,8,2C,B6,A8,7F,02,7F,00,00,
4286548297,0000025D,false,Rx,0,8,D9,8C,01,B5,4A,C1,0A,E0,
4286548474,0000023D,false,Rx,0,4,0A,40,FF,00,00,00,00,00,
4286548723,0000021D,false,Rx,0,8,2D,20,00,20,80,00,60,10,
4286548962,00000232,false,Rx,0,8,0A,02,D5,09,CB,04,00,00,
4286549170,0000020A,false,Rx,0,6,F6,15,09,82,18,01,00,00,
4286549408,00000212,false,Rx,0,8,B9,1C,94,AD,C3,15,06,63,
4286555348,0000076C,false,Rx,0,8,7A,01,09,00,00,00,00,00,
4286556728,0000022A,false,Rx,0,4,00,00,70,17,00,00,00,00,
4286556965,000003B2,false,Rx,0,8,5E,0F,F9,FF,00,CB,B6,04,
4286565334,0000076C,false,Rx,0,8,7E,75,50,01,8A,00,19,21,
4286566724,0000022A,false,Rx,0,4,00,00,70,17,00,00,00,00,
4286566961,000003B2,false,Rx,0,8,5D,0F,F9,FF,00,CB,B6,04,
4286567506,000002C4,false,Rx,0,8,0A,00,00,00,97,DF,00,00,
4286567766,00000204,false,Rx,0,8,09,00,00,00,00,00,00,10,
4286567984,00000264,false,Rx,0,6,31,00,00,00,A0,00,00,00,
4286568315,00000224,false,Rx,0,8,00,04,00,00,00,00,00,08,
4286568574,000003C4,false,Rx,0,8,0A,01,13,02,FC,00,1B,00,
4286575405,0000076C,false,Rx,0,8,01,10,10,0E,20,15,25,00,
4286576723,0000022A,false,Rx,0,4,00,00,70,17,00,00,00,00,
4286576960,000003B2,false,Rx,0,8,5E,0F,F9,FF,00,CB,B6,04,
4286585349,0000076C,false,Rx,0,8,02,02,02,03,03,00,01,00,
4286586718,0000022A,false,Rx,0,4,00,00,70,17,00,00,00,00,
4286586956,000003B2,false,Rx,0,8,5D,0F,F9,FF,00,CB,B6,04,
4286595324,0000076C,false,Rx,0,8,03,62,62,4B,4B,62,6E,00,
4286596776,00000545,false,Rx,0,8,03,19,64,32,19,00,D0,E5,
4286596952,0000022A,false,Rx,0,4,00,00,70,17,00,00,00,00,
4286597201,000003B2,false,Rx,0,8,5E,0F,F9,FF,00,CB,B6,04,
4286605344,0000076C,false,Rx,0,8,04,15,18,00,07,00,02,00,
4286606723,0000022A,false,Rx,0,4,00,00,70,17,00,00,00,00,
4286606961,000003B2,false,Rx,0,8,5D,0F,F9,FF,00,CB,B6,04,
4286615331,0000076C,false,Rx,0,8,05,AB,C4,36,42,E4,2E,00,
4286616721,0000022A,false,Rx,0,4,00,00,70,17,00,00,00,00,
4286616969,000003B2,false,Rx,0,8,5E,0F,F9,FF,00,CB,B6,04,
4286625348,0000076C,false,Rx,0,8,8A,12,A0,01,64,00,00,00,
4286626728,0000022A,false,Rx,0,4,00,00,70,17,00,00,00,00,
4286626965,000003B2,false,Rx,0,8,5D,0F,F9,FF,00,CB,B6,04,
4286635344,0000076C,false,Rx,0,8,0B,14,00,D0,20,00,00,00,
4286636723,0000022A,false,Rx,0,4,00,00,70,17,00,00,00,00,
4286636961,000003B2,false,Rx,0,8,5E,0F,F9,FF,00,CB,B6,04,
4286645340,0000076C,false,Rx,0,8,0C,00,00,00,20,20,40,00,
4286646720,0000022A,false,Rx,0,4,00,00,70,17,00,00,00,00,
4286646957,000003B2,false,Rx,0,8,5D,0F,F9,FF,00,CB,B6,04,
4286647197,00000545,false,Rx,0,8,14,00,3F,70,9F,01,EA,97,
4286647373,00000333,false,Rx,0,4,04,30,29,07,00,00,00,00,
4286647571,000002B2,false,Rx,0,5,C8,00,00,05,78,00,00,00,
4286647810,000003A1,false,Rx,0,8,09,62,78,9D,08,2C,12,5A,
4286648049,00000321,false,Rx,0,8,2C,B6,A8,7F,02,7F,00,00,
4286648287,0000025D,false,Rx,0,8,D9,8C,01,B5,4A,C1,0A,E0,
4286648464,0000023D,false,Rx,0,4,0A,40,FF,00,00,00,00,00,
4286648714,0000021D,false,Rx,0,8,2D,20,00,20,80,00,60,10,
4286648952,00000232,false,Rx,0,8,0A,02,D5,09,CB,04,00,00,
4286649159,0000020A,false,Rx,0,6,F6,15,09,82,18,01,00,00,
4286649397,00000212,false,Rx,0,8,B9,1C,94,AD,C3,15,06,63,
4286655338,0000076C,false,Rx,0,8,0D,04,32,8F,BB,28,00,00,
4286656728,0000022A,false,Rx,0,4,00,00,70,17,00,00,00,00,
4286656965,000003B2,false,Rx,0,8,5E,0F,F9,FF,00,CB,B6,04,
4286665335,0000076C,false,Rx,0,8,0E,9F,AA,B3,BD,02,00,00,
4286666725,0000022A,false,Rx,0,4,00,00,70,17,00,00,00,00,
4286666963,000003B2,false,Rx,0,8,5D,0F,F9,FF,00,CB,B6,04,
4286667487,000002C4,false,Rx,0,8,0B,00,00,80,FD,CC,00,00,
4286667747,00000204,false,Rx,0,8,09,00,00,00,00,00,00,10,
4286667966,00000264,false,Rx,0,6,32,00,00,00,A0,00,00,00,
4286668286,00000224,false,Rx,0,8,00,04,00,00,00,00,00,08,
4286675340,0000076C,false,Rx,0,8,14,19,60,00,64,00,00,00,
4286676719,0000022A,false,Rx,0,4,00,00,70,17,00,00,00,00,
4286676967,000003B2,false,Rx,0,8,5E,0F,F9,FF,00,CB,B6,04,
4286685338,0000076C,false,Rx,0,8,15,00,00,D0,20,00,00,00,
4286686717,0000022A,false,Rx,0,4,00,00,70,17,00,00,00,00,
4286686965,000003B2,false,Rx,0,8,5D,0F,F9,FF,00,CB,B6,04,
4286695333,0000076C,false,Rx,0,8,16,00,00,00,20,00,00,00,
4286696723,0000022A,false,Rx,0,4,00,00,70,17,00,00,00,00,
4286696960,000003B2,false,Rx,0,8,5E,0F,F9,FF,00,CB,B6,04,
4286697200,00000545,false,Rx,0,8,03,19,64,32,19,00,F0,05,
4286705333,0000076C,false,Rx,0,8,17,04,32,8F,BB,28,00,00,
4286706723,0000022A,false,Rx,0,4,00,00,70,17,00,00,00,00,
4286706971,000003B2,false,Rx,0,8,5D,0F,F9,FF,00,CB,B6,04,
4286715329,0000076C,false,Rx,0,8,18,9F,AA,B3,BD,02,00,00,
4286716719,0000022A,false,Rx,0,4,00,00,70,17,00,00,00,00,
4286716967,000003B2,false,Rx,0,8,5E,0F,F9,FF,00,CB,B6,04,
4286725337,0000076C,false,Rx,0,8,1E,13,20,00,64,00,00,00,
4286726727,0000022A,false,Rx,0,4,00,00,70,17,00,00,00,00,
4286726964,000003B2,false,Rx,0,8,5D,0F,F9,FF,00,CB,B6,04,
4286735333,0000076C,false,Rx,0,8,1F,00,00,D0,20,00,00,00,
4286736723,0000022A,false,Rx,0,4,00,00,70,17,00,00,00,00,
4286736960,000003B2,false,Rx,0,8,5E,0F,F9,FF,00,CB,B6,04,
4286745339,0000076C,false,Rx,0,8,20,00,00,00,30,00,00,00,
4286746718,0000022A,false,Rx,0,4,00,00,70,17,00,00,00,00,
4286746956,000003B2,false,Rx,0,8,5D,0F,F9,FF,00,CB,B6,04,
4286747205,00000545,false,Rx,0,8,14,00,3F,70,9F,01,0A,B7,
4286747392,00000333,false,Rx,0,4,04,30,29,07,00,00,00,00,
4286747579,000002B2,false,Rx,0,5,C8,00,00,05,78,00,00,00,
4286747807,000003A1,false,Rx,0,8,09,62,78,9D,08,2C,12,5A,
4286748056,00000321,false,Rx,0,8,2C,B6,A8,7F,02,7F,00,00,
4286748294,0000025D,false,Rx,0,8,D9,8C,01,B5,4A,C1,0A,E0,
4286748460,0000023D,false,Rx,0,4,0A,40,FF,00,00,00,00,00,
4286748710,0000021D,false,Rx,0,8,2D,20,00,20,80,00,60,10,
4286748959,00000232,false,Rx,0,8,0A,02,D5,09,CB,04,00,00,
4286749166,0000020A,false,Rx,0,6,F6,15,09,82,18,01,00,00,
4286749395,00000212,false,Rx,0,8,B9,1C,94,AD,C3,15,06,63,
4286755326,0000076C,false,Rx,0,8,21,04,32,8F,BB,28,00,00,
4286756726,0000022A,false,Rx,0,4,00,00,70,17,00,00,00,00,
4286756975,000003B2,false,Rx,0,8,5E,0F,F9,FF,00,CB,B6,04,
4286765312,0000076C,false,Rx,0,8,22,A1,AA,B2,BD,02,00,00,
4286766733,0000022A,false,Rx,0,4,00,00,70,17,00,00,00,00,
4286766971,000003B2,false,Rx,0,8,5D,0F,F9,FF,00,CB,B6,04,
4286767474,000002C4,false,Rx,0,8,0C,00,00,80,E4,CC,00,00,
4286767735,00000204,false,Rx,0,8,09,00,00,00,00,00,00,10,
4286767953,00000264,false,Rx,0,6,32,00,00,00,A0,00,00,00,
4286768283,00000224,false,Rx,0,8,00,04,00,00,00,00,00,08,
4286775338,0000076C,false,Rx,0,8,33,00,00,00,00,44,20,84,
4286776727,0000022A,false,Rx,0,4,00,00,70,17,00,00,00,00,
4286776966,000003B2,false,Rx,0,8,5E,0F,F9,FF,00,CB,B6,04,
4286785334,0000076C,false,Rx,0,8,34,00,00,00,00,00,00,00,
4286786725,0000022A,false,Rx,0,4,00,00,70,17,00,00,00,00,
4286786964,000003B2,false,Rx,0,8,5D,0F,F9,FF,00,CB,B6,04,
4286795321,0000076C,false,Rx,0,8,35,2A,00,00,00,00,00,00,
4286796721,0000022A,false,Rx,0,4,00,00,70,17,00,00,00,00,
4286796960,000003B2,false,Rx,0,8,5E,0F,F9,FF,00,CB,B6,04,
4286797198,00000545,false,Rx,0,8,03,19,64,32,19,00,10,25,
4286805343,0000076C,false,Rx,0,8,64,00,00,3E,BA,53,0E,00,
4286806732,0000022A,false,Rx,0,4,00,00,70,17,00,00,00,00,
4286806970,000003B2,false,Rx,0,8,5D,0F,F9,FF,00,CB,B6,04,
4286815319,0000076C,false,Rx,0,8,66,00,00,00,00,00,00,00,
4286816728,0000022A,false,Rx,0,4,00,00,70,17,00,00,00,00,
4286816966,000003B2,false,Rx,0,8,5E,0F,F9,FF,00,CB,B6,04,
4286825325,0000076C,false,Rx,0,8,67,00,00,00,00,00,00,00,
4286826724,0000022A,false,Rx,0,4,00,00,70,17,00,00,00,00,
4286826963,000003B2,false,Rx,0,8,5D,0F,F9,FF,00,CB,B6,04,
4286835322,0000076C,false,Rx,0,8,68,00,00,00,00,00,00,00,
4286836721,0000022A,false,Rx,0,4,00,00,70,17,00,00,00,00,
4286836970,000003B2,false,Rx,0,8,5E,0F,F9,FF,00,CB,B6,04,
4286845318,0000076C,false,Rx,0,8,69,00,00,00,00,00,9D,FF,
4286846727,0000022A,false,Rx,0,4,00,00,70,17,00,00,00,00,
4286846965,000003B2,false,Rx,0,8,5D,0F,F9,FF,00,CB,B6,04,
4286847203,00000545,false,Rx,0,8,14,00,3F,70,9F,01,2A,D7,
4286847380,00000333,false,Rx,0,4,04,30,29,07,00,00,00,00,
4286847579,000002B2,false,Rx,0,5,C8,00,00,05,78,00,00,00,
4286847806,000003A1,false,Rx,0,8,09,62,78,9D,08,2C,12,5A,
4286848054,00000321,false,Rx,0,8,2C,B6,A8,7F,02,7F,00,00,
4286848293,0000025D,false,Rx,0,8,D9,8C,01,B5,4A,C1,0A,E0,
4286848460,0000023D,false,Rx,0,4,0A,40,FF,00,00,00,00,00,
4286848709,0000021D,false,Rx,0,8,2D,20,00,20,80,00,60,10,
4286848958,00000232,false,Rx,0,8,0A,02,D5,09,CB,04,00,00,
4286849166,0000020A,false,Rx,0,6,F6,15,09,82,18,01,00,00,
4286849395,00000212,false,Rx,0,8,B9,1C,94,AD,C3,15,06,63,
4286855329,0000076C,false,Rx,0,8,6A,00,00,00,00,00,00,00,
4286856717,0000022A,false,Rx,0,4,00,00,70,17,00,00,00,00,
4286856966,000003B2,false,Rx,0,8,5E,0F,F9,FF,00,CB,B6,04,
4286865317,0000076C,false,Rx,0,8,6B,CD,06,00,00,00,00,00,
4286866726,0000022A,false,Rx,0,4,00,00,70,17,00,00,00,00,
4286866964,000003B2,false,Rx,0,8,5D,0F,F9,FF,00,CB,B6,04,
4286867478,000002C4,false,Rx,0,8,0D,00,00,00,00,00,00,00,
4286867739,00000204,false,Rx,0,8,09,00,00,00,00,00,00,10,
4286867946,00000264,false,Rx,0,6,33,00,00,00,A0,00,00,00,
4286868276,00000224,false,Rx,0,8,00,04,00,00,00,00,00,08,
4286875322,0000076C,false,Rx,0,8,6C,00,00,00,00,00,1C,00,
4286876721,0000022A,false,Rx,0,4,00,00,70,17,00,00,00,00,
4286876970,000003B2,false,Rx,0,8,5E,0F,F9,FF,00,CB,B6,04,
4286885318,0000076C,false,Rx,0,8,6D,00,00,00,00,00,00,00,
4286886728,0000022A,false,Rx,0,4,00,00,70,17,00,00,00,00,
4286886966,000003B2,false,Rx,0,8,5D,0F,F9,FF,00,CB,B6,04,
4286895314,0000076C,false,Rx,0,8,6E,00,00,00,00,00,00,00,
4286896725,0000022A,false,Rx,0,4,00,00,70,17,00,00,00,00,
4286896962,000003B2,false,Rx,0,8,5E,0F,F9,FF,00,CB,B6,04,
4286897200,00000545,false,Rx,0,8,03,19,64,32,19,00,30,45,
4286905324,0000076C,false,Rx,0,8,6F,00,00,00,00,00,00,00,
4286906724,0000022A,false,Rx,0,4,00,00,70,17,00,00,00,00,
4286906962,000003B2,false,Rx,0,8,5D,0F,F9,FF,00,CB,B6,04,
4286915312,0000076C,false,Rx,0,8,70,00,00,00,00,00,00,00,
4286916732,0000022A,false,Rx,0,4,00,00,70,17,00,00,00,00,
4286916969,000003B2,false,Rx,0,8,5E,0F,F9,FF,00,CB,B6,04,
4286925307,0000076C,false,Rx,0,8,71,33,30,00,33,38,80,00,
4286926728,0000022A,false,Rx,0,4,00,00,70,17,00,00,00,00,
4286926965,000003B2,false,Rx,0,8,5D,0F,F9,FF,00,CB,B6,04,
4286935304,0000076C,false,Rx,0,8,77,00,00,01,6F,10,00,00,
4286936724,0000022A,false,Rx,0,4,00,00,70,17,00,00,00,00,
4286936962,000003B2,false,Rx,0,8,5E,0F,F9,FF,00,CB,B6,04,
4286945312,0000076C,false,Rx,0,8,78,00,00,00,00,00,00,00,
4286947785,0000022A,false,Rx,0,4,00,00,70,17,00,00,00,00,
4286948028,000003B2,false,Rx,0,8,5D,0F,F9,FF,00,CB,B6,04,
4286948278,00000545,false,Rx,0,8,14,00,3F,70,9F,01,4A,F7,
4286948455,00000333,false,Rx,0,4,04,30,29,07,00,00,00,00,
4286948652,000002B2,false,Rx,0,5,C8,00,00,05,78,00,00,00,
4286948879,000003A1,false,Rx,0,8,09,62,78,9D,08,2C,12,5A,
4286949129,00000321,false,Rx,0,8,2C,B6,A8,7F,02,7F,00,00,
4286949367,0000025D,false,Rx,0,8,D9,8C,01,B5,4A,C1,0A,E0,
4286949534,0000023D,false,Rx,0,4,0A,40,FF,00,00,00,00,00,
4286949784,0000021D,false,Rx,0,8,2D,20,00,20,80,00,60,10,
4286950023,00000232,false,Rx,0,8,0A,02,D5,09,CB,04,00,00,
4286950241,0000020A,false,Rx,0,6,F6,15,09,82,18,01,00,00,
4286950469,00000212,false,Rx,0,8,B9,1C,94,AD,C3,15,06,63,
4286955313,0000076C,false,Rx,0,8,79,00,00,00,00,00,00,00,
4286956723,0000022A,false,Rx,0,4,00,00,70,17,00,00,00,00,
4286956960,000003B2,false,Rx,0,8,5E,0F,F9,FF,00,CB,B6,04,
4286965298,0000076C,false,Rx,0,8,7A,01,09,00,00,00,00,00,
4286966718,0000022A,false,Rx,0,4,00,00,70,17,00,00,00,00,
4286966956,000003B2,false,Rx,0,8,5D,0F,F9,FF,00,CB,B6,04,
4286967460,000002C4,false,Rx,0,8,12,00,00,00,00,00,00,00,
4286967720,00000204,false,Rx,0,8,09,00,00,00,00,00,00,10,
4286967938,00000264,false,Rx,0,6,33,00,00,00,A0,00,00,00,
4286968269,00000224,false,Rx,0,8,00,04,00,00,00,00,00,08,
4286975303,0000076C,false,Rx,0,8,7E,75,50,01,8A,00,1A,21,
4286976724,0000022A,false,Rx,0,4,00,00,70,17,00,00,00,00,
4286976972,000003B2,false,Rx,0,8,5E,0F,F9,FF,00,CB,B6,04,
4286985353,0000076C,false,Rx,0,8,01,10,10,16,20,15,25,00,
4286986722,0000022A,false,Rx,0,4,00,00,70,17,00,00,00,00,
4286986959,000003B2,false,Rx,0,8,5D,0F,F9,FF,00,CB,B6,04,
4286995297,0000076C,false,Rx,0,8,02,02,02,02,03,00,01,00,
4286996718,0000022A,false,Rx,0,4,00,00,70,17,00,00,00,00,
4286996965,000003B2,false,Rx,0,8,5E,0F,F9,FF,00,CB,B6,04,
4286997204,00000545,false,Rx,0,8,03,19,64,32,19,00,50,65,
4287005287,0000076C,false,Rx,0,8,03,62,62,4B,4B,62,6E,00,
4287006717,0000022A,false,Rx,0,4,00,00,70,17,00,00,00,00,
4287006955,000003B2,false,Rx,0,8,5D,0F,F9,FF,00,CB,B6,04,
4287015293,0000076C,false,Rx,0,8,04,15,18,00,07,00,02,00,
4287016724,0000022A,false,Rx,0,4,00,00,70,17,00,00,00,00,
4287016972,000003B2,false,Rx,0,8,5E,0F,F9,FF,00,CB,B6,04,
4287025291,0000076C,false,Rx,0,8,05,AB,D4,36,42,E4,2E,00,
4287026722,0000022A,false,Rx,0,4,00,00,70,17,00,00,00,00,
4287026969,000003B2,false,Rx,0,8,5D,0F,F9,FF,00,CB,B6,04,
4287035297,0000076C,false,Rx,0,8,0A,13,80,01,64,00,40,00,
4287036728,0000022A,false,Rx,0,4,00,00,70,17,00,00,00,00,
4287036966,000003B2,false,Rx,0,8,5E,0F,F9,FF,00,CB,B6,04,
4287045293,0000076C,false,Rx,0,8,0B,14,00,D0,20,00,00,00,
4287046724,0000022A,false,Rx,0,4,00,00,70,17,00,00,00,00,
4287046962,000003B2,false,Rx,0,8,5D,0F,F9,FF,00,CB,B6,04,
4287047210,00000545,false,Rx,0,8,14,00,3F,70,9F,01,6A,17,
4287047377,00000333,false,Rx,0,4,04,30,29,07,00,00,00,00,
4287047574,000002B2,false,Rx,0,5,C8,00,00,05,78,00,00,00,
4287047812,000003A1,false,Rx,0,8,09,62,78,9D,08,2C,12,5A,
4287048052,00000321,false,Rx,0,8,2C,B6,A8,7F,02,7F,00,00,
4287048290,0000025D,false,Rx,0,8,D9,8C,01,B5,4A,C1,0A,E0,
4287048466,0000023D,false,Rx,0,4,0A,40,FF,00,00,00,00,00,
4287048715,0000021D,false,Rx,0,8,2D,20,00,20,80,00,60,10,
4287048955,00000232,false,Rx,0,8,0A,02,D5,09,CB,04,00,00,
4287049172,0000020A,false,Rx,0,6,F6,15,09,82,18,01,00,00,
4287049401,00000212,false,Rx,0,8,B9,1C,94,AD,C3,15,06,63,
4287055306,0000076C,false,Rx,0,8,0C,00,00,00,20,20,40,00,
4287056717,0000022A,false,Rx,0,4,00,00,70,17,00,00,00,00,
4287056964,000003B2,false,Rx,0,8,5E,0F,F9,FF,00,CB,B6,04,
4287065292,0000076C,false,Rx,0,8,0D,04,32,8F,BB,28,00,00,
4287066723,0000022A,false,Rx,0,4,00,00,70,17,00,00,00,00,
4287066960,000003B2,false,Rx,0,8,5D,0F,F9,FF,00,CB,B6,04,
4287067464,000002C4,false,Rx,0,8,13,00,00,00,00,00,00,00,
4287067715,00000204,false,Rx,0,8,09,00,00,00,00,00,00,10,
4287067953,00000264,false,Rx,0,6,33,00,00,00,A0,00,00,00,
4287068264,00000224,false,Rx,0,8,00,04,00,00,00,00,00,08,
4287068523,000003C4,false,Rx,0,8,0B,00,05,03,01,00,FF,FF,
4287075291,0000076C,false,Rx,0,8,0E,9F,AA,B3,BD,02,00,00,
4287076721,0000022A,false,Rx,0,4,00,00,70,17,00,00,00,00,
4287076959,000003B2,false,Rx,0,8,5E,0F,F9,FF,00,CB,B6,04,
4287085297,0000076C,false,Rx,0,8,94,19,40,00,64,00,40,00,
4287086728,0000022A,false,Rx,0,4,00,00,70,17,00,00,00,00,
4287086965,000003B2,false,Rx,0,8,5D,0F,F9,FF,00,CB,B6,04,
4287095293,0000076C,false,Rx,0,8,15,00,00,D0,20,00,00,00,
4287096723,0000022A,false,Rx,0,4,00,00,70,17,00,00,00,00,
4287096971,000003B2,false,Rx,0,8,5E,0F,F9,FF,00,CB,B6,04,
4287097200,00000545,false,Rx,0,8,03,19,64,32,19,00,70,85,
4287105303,0000076C,false,Rx,0,8,16,00,00,00,20,00,00,00,
4287106723,0000022A,false,Rx,0,4,00,00,70,17,00,00,00,00,
4287106960,000003B2,false,Rx,0,8,5D,0F,F9,FF,00,CB,B6,04,
4287115278,0000076C,false,Rx,0,8,17,04,32,8F,BB,28,00,00,
4287116720,0000022A,false,Rx,0,4,00,00,70,17,00,00,00,00,
4287116968,000003B2,false,Rx,0,8,5E,0F,F9,FF,00,CB,B6,04,
4287125287,0000076C,false,Rx,0,8,18,9E,AA,B4,BD,02,00,00,
4287126717,0000022A,false,Rx,0,4,00,00,70,17,00,00,00,00,
4287126955,000003B2,false,Rx,0,8,5D,0F,F9,FF,00,CB,B6,04,
4287135285,0000076C,false,Rx,0,8,1E,14,20,00,64,00,40,00,
4287136726,0000022A,false,Rx,0,4,00,00,70,17,00,00,00,00,
4287136974,000003B2,false,Rx,0,8,5E,0F,F9,FF,00,CB,B6,04,
4287145291,0000076C,false,Rx,0,8,1F,00,00,D0,20,00,00,00,
4287146722,00000333,false,Rx,0,4,04,30,29,07,00,00,00,00,
4287146918,000002B2,false,Rx,0,5,C8,00,00,05,78,00,00,00,
4287147147,000003A1,false,Rx,0,8,09,62,78,9D,08,2C,12,5A,
4287147395,00000321,false,Rx,0,8,2C,B6,A8,7F,02,7F,00,00,
4287147634,0000025D,false,Rx,0,8,D9,8C,01,B5,4A,C1,0A,E0,
4287147800,0000023D,false,Rx,0,4,0A,40,FF,00,00,00,00,00,
4287148049,0000021D,false,Rx,0,8,2D,20,00,20,80,00,60,10,
4287148298,00000232,false,Rx,0,8,0A,02,D5,09,CB,04,00,00,
4287148505,0000020A,false,Rx,0,6,F6,15,09,82,18,01,00,00,
4287148735,00000212,false,Rx,0,8,B9,1C,94,AD,C3,15,06,63,
4287148911,0000022A,false,Rx,0,4,00,00,70,17,00,00,00,00,
4287149159,000003B2,false,Rx,0,8,5D,0F,F9,FF,00,CB,B6,04,
4287149400,00000545,false,Rx,0,8,14,00,3F,70,9F,01,8A,37,
4287155302,0000076C,false,Rx,0,8,20,00,00,00,30,00,00,00,
4287156723,0000022A,false,Rx,0,4,00,00,70,17,00,00,00,00,
4287156970,000003B2,false,Rx,0,8,5E,0F,F9,FF,00,CB,B6,04,
4287165277,0000076C,false,Rx,0,8,21,04,32,8F,BB,28,00,00,
4287166720,0000022A,false,Rx,0,4,00,00,70,17,00,00,00,00,
4287166967,000003B2,false,Rx,0,8,5D,0F,F9,FF,00,CB,B6,04,
4287167431,000002C4,false,Rx,0,8,14,00,00,00,19,02,00,00,
4287167691,00000204,false,Rx,0,8,09,00,00,00,00,00,00,10,
4287167909,00000264,false,Rx,0,6,34,00,00,00,A0,00,00,00,
4287168250,00000224,false,Rx,0,8,00,04,00,00,00,00,00,08,
4287169292,000002A4,false,Rx,0,8,67,EF,BA,D7,F7,0E,78,32,
4287169423,00000364,false,Rx,0,2,00,78,00,00,00,00,00,00,
4287169691,000003A4,false,Rx,0,8,01,00,00,00,00,00,00,00,
4287175285,0000076C,false,Rx,0,8,22,9F,AA,B3,BD,02,00,00,
4287176726,0000022A,false,Rx,0,4,00,00,70,17,00,00,00,00,
4287176964,000003B2,false,Rx,0,8,5E,0F,F9,FF,00,CB,B6,04,
4287185282,0000076C,false,Rx,0,8,33,00,00,00,00,44,20,84,
4287186723,0000022A,false,Rx,0,4,00,00,70,17,00,00,00,00,
4287186960,000003B2,false,Rx,0,8,5D,0F,F9,FF,00,CB,B6,04,
4287195278,0000076C,false,Rx,0,8,34,00,00,00,00,00,00,00,
4287196719,0000022A,false,Rx,0,4,00,00,70,17,00,00,00,00,
4287196967,000003B2,false,Rx,0,8,5E,0F,F9,FF,00,CB,B6,04,
4287197196,00000545,false,Rx,0,8,03,19,64,32,19,00,90,A5,
4287205290,0000076C,false,Rx,0,8,35,2A,00,00,00,00,00,00,
4287206731,0000022A,false,Rx,0,4,00,00,70,17,00,00,00,00,
4287206969,000003B2,false,Rx,0,8,5D,0F,F9,FF,00,CB,B6,04,
4287215296,0000076C,false,Rx,0,8,64,00,00,3E,BA,53,1C,00,
4287216727,0000022A,false,Rx,0,4,00,00,70,17,00,00,00,00,
4287216965,000003B2,false,Rx,0,8,5E,0F,F9,FF,00,CB,B6,04,
4287225282,0000076C,false,Rx,0,8,66,00,00,00,00,00,00,00,
4287226723,0000022A,false,Rx,0,4,00,00,70,17,00,00,00,00,
4287226972,000003B2,false,Rx,0,8,5D,0F,F9,FF,00,CB,B6,04,
4287235278,0000076C,false,Rx,0,8,67,00,00,00,00,00,00,00,
4287236720,0000022A,false,Rx,0,4,00,00,70,17,00,00,00,00,
4287236969,000003B2,false,Rx,0,8,5E,0F,F9,FF,00,CB,B6,04,
4287245275,0000076C,false,Rx,0,8,68,00,00,00,00,00,00,00,
4287246726,0000022A,false,Rx,0,4,00,00,70,17,00,00,00,00,
4287246965,000003B2,false,Rx,0,8,5D,0F,F9,FF,00,CB,B6,04,
4287247203,00000545,false,Rx,0,8,14,00,3F,70,9F,01,AA,57,
4287247379,00000333,false,Rx,0,4,04,30,29,07,00,00,00,00,
4287247577,000002B2,false,Rx,0,5,C8,00,00,05,78,00,00,00,
4287247816,000003A1,false,Rx,0,8,09,62,78,9D,08,2C,12,5A,
4287248054,00000321,false,Rx,0,8,2C,B6,A8,7F,02,7F,00,00,
4287248292,0000025D,false,Rx,0,8,D9,8C,01,B5,4A,C1,0A,E0,
4287248470,0000023D,false,Rx,0,4,0A,40,FF,00,00,00,00,00,
4287248720,0000021D,false,Rx,0,8,2D,20,00,20,80,00,60,10,
4287248958,00000232,false,Rx,0,8,0A,02,D5,09,CB,04,00,00,
4287249165,0000020A,false,Rx,0,6,F6,15,09,82,18,01,00,00,
4287249406,00000212,false,Rx,0,8,B9,1C,94,AD,C3,15,06,63,
4287255277,0000076C,false,Rx,0,8,69,00,00,00,00,00,8F,FF,
4287256718,0000022A,false,Rx,0,4,00,00,70,17,00,00,00,00,
4287256956,000003B2,false,Rx,0,8,5E,0F,F9,FF,00,CB,B6,04,
4287265275,0000076C,false,Rx,0,8,6A,00,00,00,00,00,00,00,
4287266716,0000022A,false,Rx,0,4,00,00,70,17,00,00,00,00,
4287266955,000003B2,false,Rx,0,8,5D,0F,F9,FF,00,CB,B6,04,
4287267417,000002C4,false,Rx,0,8,35,00,01,04,10,80,FF,00,
4287267688,00000204,false,Rx,0,8,01,00,00,00,00,00,00,10,
4287267905,00000264,false,Rx,0,6,33,00,00,00,A0,00,00,00,
4287268236,00000224,false,Rx,0,8,00,04,00,00,00,00,00,08,
4287275270,0000076C,false,Rx,0,8,6B,CD,06,00,00,00,00,00,
4287276721,0000022A,false,Rx,0,4,00,00,70,17,00,00,00,00,
4287276970,000003B2,false,Rx,0,8,5E,0F,F9,FF,00,CB,B6,04,
4287285287,0000076C,false,Rx,0,8,6C,00,00,00,00,00,1C,00,
4287286728,0000022A,false,Rx,0,4,00,00,70,17,00,00,00,00,
4287286967,000003B2,false,Rx,0,8,5D,0F,F9,FF,00,CB,B6,04,
4287295272,0000076C,false,Rx,0,8,6D,00,00,00,00,00,00,00,
4287296724,0000022A,false,Rx,0,4,00,00,70,17,00,00,00,00,
4287296963,000003B2,false,Rx,0,8,5E,0F,F9,FF,00,CB,B6,04,
4287297201,00000545,false,Rx,0,8,03,19,64,32,19,00,B0,C5,
4287305283,0000076C,false,Rx,0,8,6E,00,00,00,00,00,00,00,
4287306714,0000022A,false,Rx,0,4,00,00,70,17,00,00,00,00,
4287306963,000003B2,false,Rx,0,8,5D,0F,F9,FF,00,CB,B6,04,
4287315269,0000076C,false,Rx,0,8,6F,00,00,00,00,00,00,00,
4287316721,0000022A,false,Rx,0,4,00,00,70,17,00,00,00,00,
4287316959,000003B2,false,Rx,0,8,5E,0F,F9,FF,00,CB,B6,04,
4287325276,0000076C,false,Rx,0,8,70,00,00,00,00,00,00,00,
4287326727,0000022A,false,Rx,0,4,00,00,70,17,00,00,00,00,
4287326965,000003B2,false,Rx,0,8,5D,0F,F9,FF,00,CB,B6,04,
4287335262,0000076C,false,Rx,0,8,71,33,30,00,33,38,80,00,
4287336722,0000022A,false,Rx,0,4,00,00,70,17,00,00,00,00,
4287336971,000003B2,false,Rx,0,8,5E,0F,F9,FF,00,CB,B6,04,
4287345268,0000076C,false,Rx,0,8,77,00,00,01,6F,10,00,00,
4287346720,0000022A,false,Rx,0,4,00,00,70,17,00,00,00,00,
4287346958,000003B2,false,Rx,0,8,5D,0F,F9,FF,00,CB,B6,04,
4287347207,00000545,false,Rx,0,8,14,00,3F,70,9F,01,CA,77,
4287347383,00000333,false,Rx,0,4,04,30,29,07,00,00,00,00,
4287347582,000002B2,false,Rx,0,5,C8,00,00,05,78,00,00,00,
4287347819,000003A1,false,Rx,0,8,09,62,78,9D,08,2C,12,5A,
4287348058,00000321,false,Rx,0,8,2C,B6,A8,7F,02,7F,00,00,
4287348296,0000025D,false,Rx,0,8,D9,8C,01,B5,4A,C1,0A,E0,
4287348473,0000023D,false,Rx,0,4,0A,40,FF,00,00,00,00,00,
4287348722,0000021D,false,Rx,0,8,2D,20,00,20,80,00,60,10,
4287348960,00000232,false,Rx,0,8,0A,02,D5,09,CB,04,00,00,
4287349169,0000020A,false,Rx,0,6,F6,15,09,82,18,01,00,00,
4287349408,00000212,false,Rx,0,8,B9,1C,94,AD,C3,15,06,63,
4287355271,0000076C,false,Rx,0,8,78,00,00,00,00,00,00,00,
4287356722,0000022A,false,Rx,0,4,00,00,70,17,00,00,00,00,
4287356960,000003B2,false,Rx,0,8,5E,0F,F9,FF,00,CB,B6,04,
4287365268,0000076C,false,Rx,0,8,79,00,00,00,00,00,00,00,
4287366720,0000022A,false,Rx,0,4,00,00,70,17,00,00,00,00,
4287366958,000003B2,false,Rx,0,8,5D,0F,F9,FF,00,CB,B6,04,
4287367420,000002C4,false,Rx,0,8,16,20,D9,00,00,00,00,01,
4287367681,00000204,false,Rx,0,8,01,00,00,00,00,00,00,10,
4287367899,00000264,false,Rx,0,6,34,00,00,00,A0,00,00,00,
4287368239,00000224,false,Rx,0,8,00,04,00,00,00,00,00,08,
4287375263,0000076C,false,Rx,0,8,7A,01,09,00,00,00,00,00,
4287376713,0000022A,false,Rx,0,4,00,00,70,17,00,00,00,00,
4287376962,000003B2,false,Rx,0,8,5E,0F,F9,FF,00,CB,B6,04,
4287385261,0000076C,false,Rx,0,8,7E,75,50,01,8A,00,1B,21,
4287386722,0000022A,false,Rx,0,4,00,00,70,17,00,00,00,00,
4287386970,000003B2,false,Rx,0,8,5D,0F,F9,FF,00,CB,B6,04,
4287395309,0000076C,false,Rx,0,8,01,10,10,15,20,17,25,00,
4287396721,0000022A,false,Rx,0,4,00,00,70,17,00,00,00,00,
4287396969,000003B2,false,Rx,0,8,5E,0F,F9,FF,00,CB,B6,04,
4287397197,00000545,false,Rx,0,8,03,19,64,32,19,00,D0,E5,
4287405260,0000076C,false,Rx,0,8,02,02,02,02,03,01,01,00,
4287406721,0000022A,false,Rx,0,4,00,00,70,17,00,00,00,00,
4287406959,000003B2,false,Rx,0,8,5D,0F,F9,FF,00,CB,B6,04,
4287415246,0000076C,false,Rx,0,8,03,62,62,4B,4B,62,6E,00,
4287416718,0000022A,false,Rx,0,4,00,00,70,17,00,00,00,00,
4287416965,000003B2,false,Rx,0,8,5E,0F,F9,FF,00,CB,B6,04,
4287425252,0000076C,false,Rx,0,8,04,15,18,00,07,00,02,00,
4287426714,0000022A,false,Rx,0,4,00,00,70,17,00,00,00,00,
4287426961,000003B2,false,Rx,0,8,5D,0F,F9,FF,00,CB,B6,04,
4287435249,0000076C,false,Rx,0,8,05,AA,DC,36,42,E4,2E,00,
4287436721,0000022A,false,Rx,0,4,00,00,70,17,00,00,00,00,
4287436969,000003B2,false,Rx,0,8,5E,0F,F9,FF,00,CB,B6,04,
4287445255,0000076C,false,Rx,0,8,8A,13,40,01,64,00,40,00,
4287446727,0000022A,false,Rx,0,4,00,00,70,17,00,00,00,00,
4287446964,000003B2,false,Rx,0,8,5D,0F,F9,FF,00,CB,B6,04,
4287447203,00000545,false,Rx,0,8,14,00,3F,70,9F,01,EA,97,
4287447380,00000333,false,Rx,0,4,04,30,29,07,00,00,00,00,
4287447578,000002B2,false,Rx,0,5,C8,00,00,05,78,00,00,00,
4287447815,000003A1,false,Rx,0,8,09,62,78,9D,08,2C,12,5A,
4287448053,00000321,false,Rx,0,8,2C,B6,A8,7F,02,7F,00,00,
4287448293,0000025D,false,Rx,0,8,D9,8C,01,B5,4A,C1,0A,E0,
4287448469,0000023D,false,Rx,0,4,0A,40,FF,00,00,00,00,00,
4287448718,0000021D,false,Rx,0,8,2D,20,00,20,80,00,60,10,
4287448958,00000232,false,Rx,0,8,0A,02,D5,09,CB,04,00,00,
4287449175,0000020A,false,Rx,0,6,F6,15,09,82,18,01,00,00,
4287449404,00000212,false,Rx,0,8,B9,1C,94,AD,C3,15,06,63,
4287455256,0000076C,false,Rx,0,8,0B,14,00,D0,20,FF,0F,00,
4287456718,0000022A,false,Rx,0,4,00,00,70,17,00,00,00,00,
4287456965,000003B2,false,Rx,0,8,5E,0F,F9,FF,00,CB,B6,04,
4287465262,0000076C,false,Rx,0,8,0C,00,00,00,20,20,40,00,
4287466724,0000022A,false,Rx,0,4,00,00,70,17,00,00,00,00,
4287466961,000003B2,false,Rx,0,8,5D,0F,F9,FF,00,CB,B6,04,
4287467414,000002C4,false,Rx,0,8,20,40,00,D2,00,00,00,00,
4287467674,00000204,false,Rx,0,8,01,00,00,00,00,00,00,10,
4287467892,00000264,false,Rx,0,6,34,00,00,00,A0,00,00,00,
4287468233,00000224,false,Rx,0,8,00,04,00,00,00,00,00,08,
4287475246,0000076C,false,Rx,0,8,0D,04,32,8F,BB,28,00,00,
4287476718,0000022A,false,Rx,0,4,00,00,70,17,00,00,00,00,
4287476955,000003B2,false,Rx,0,8,5E,0F,F9,FF,00,CB,B6,04,
4287485252,0000076C,false,Rx,0,8,0E,9E,AA,B5,BD,02,00,00,
4287486724,0000022A,false,Rx,0,4,00,00,70,17,00,00,00,00,
4287486972,000003B2,false,Rx,0,8,5D,0F,F9,FF,00,CB,B6,04,
4287495250,0000076C,false,Rx,0,8,14,1A,40,00,64,00,40,00,
4287496721,0000022A,false,Rx,0,4,00,00,70,17,00,00,00,00,
4287496969,000003B2,false,Rx,0,8,5E,0F,F9,FF,00,CB,B6,04,
4287497207,00000545,false,Rx,0,8,03,19,64,32,19,00,F0,05,
4287505250,0000076C,false,Rx,0,8,15,00,00,D0,20,00,00,00,
4287506722,0000022A,false,Rx,0,4,00,00,70,17,00,00,00,00,
4287506959,000003B2,false,Rx,0,8,5D,0F,F9,FF,00,CB,B6,04,
4287515256,0000076C,false,Rx,0,8,16,00,00,00,20,00,00,00,
4287516718,0000022A,false,Rx,0,4,00,00,70,17,00,00,00,00,
4287516966,000003B2,false,Rx,0,8,5E,0F,F9,FF,00,CB,B6,04,
4287525242,0000076C,false,Rx,0,8,17,04,32,8F,BB,28,00,00,
4287526714,0000022A,false,Rx,0,4,00,00,70,17,00,00,00,00,
4287526961,000003B2,false,Rx,0,8,5D,0F,F9,FF,00,CB,B6,04,
4287535249,0000076C,false,Rx,0,8,18,9F,AA,B3,BD,02,00,00,
4287536721,0000022A,false,Rx,0,4,00,00,70,17,00,00,00,00,
4287536958,000003B2,false,Rx,0,8,5E,0F,F9,FF,00,CB,B6,04,
4287545246,0000076C,false,Rx,0,8,1E,14,20,00,64,00,40,00,
4287546717,00000333,false,Rx,0,4,04,30,29,07,00,00,00,00,
4287546914,000002B2,false,Rx,0,5,C8,00,00,05,78,00,00,00,
4287547151,000003A1,false,Rx,0,8,09,62,78,9D,08,2C,12,5A,
4287547390,00000321,false,Rx,0,8,2C,B6,A8,7F,02,7F,00,00,
4287547629,0000025D,false,Rx,0,8,D9,8C,01,B5,4A,C1,0A,E0,
4287547806,0000023D,false,Rx,0,4,0A,40,FF,00,00,00,00,00,
4287548055,0000021D,false,Rx,0,8,2D,20,00,20,80,00,60,10,
4287548293,00000232,false,Rx,0,8,0A,02,D5,09,CB,04,00,00,
4287548500,0000020A,false,Rx,0,6,F6,15,09,82,18,01,00,00,
4287548739,00000212,false,Rx,0,8,B9,1C,94,AD,C3,15,06,63,
4287548917,0000022A,false,Rx,0,4,00,00,70,17,00,00,00,00,
4287549154,000003B2,false,Rx,0,8,5D,0F,F9,FF,00,CB,B6,04,
4287549394,00000545,false,Rx,0,8,14,00,3F,70,9F,01,0A,B7,
4287555246,0000076C,false,Rx,0,8,1F,00,00,D0,20,00,00,00,
4287556728,0000022A,false,Rx,0,4,00,00,70,17,00,00,00,00,
4287556965,000003B2,false,Rx,0,8,5E,0F,F9,FF,00,CB,B6,04,
4287565252,0000076C,false,Rx,0,8,20,00,00,00,30,00,00,00,
4287566724,0000022A,false,Rx,0,4,00,00,70,17,00,00,00,00,
4287566962,000003B2,false,Rx,0,8,5D,0F,F9,FF,00,CB,B6,04,
4287567404,000002C4,false,Rx,0,8,01,00,00,D2,00,00,00,00,
4287567674,00000204,false,Rx,0,8,01,00,00,00,00,00,00,10,
4287567902,00000264,false,Rx,0,6,33,00,00,00,A0,00,00,00,
4287568223,00000224,false,Rx,0,8,00,04,00,00,00,00,00,08,
4287568482,000003C4,false,Rx,0,8,0D,03,00,00,F8,3F,81,AA,
4287575229,0000076C,false,Rx,0,8,21,04,32,8F,BB,28,00,00,
4287576722,0000022A,false,Rx,0,4,00,00,70,17,00,00,00,00,
4287576959,000003B2,false,Rx,0,8,5E,0F,F9,FF,00,CB,B6,04,
4287585236,0000076C,false,Rx,0,8,22,9F,AA,B3,BD,02,00,00,
4287586718,0000022A,false,Rx,0,4,00,00,70,17,00,00,00,00,
4287586955,000003B2,false,Rx,0,8,5D,0F,F9,FF,00,CB,B6,04,
4287595242,0000076C,false,Rx,0,8,33,00,00,00,00,44,20,84,
4287596715,0000022A,false,Rx,0,4,00,00,70,17,00,00,00,00,
4287596962,000003B2,false,Rx,0,8,5E,0F,F9,FF,00,CB,B6,04,
4287597202,00000545,false,Rx,0,8,03,19,64,32,19,00,10,25,
4287605243,0000076C,false,Rx,0,8,34,00,00,00,00,00,00,00,
4287606726,0000022A,false,Rx,0,4,00,00,70,17,00,00,00,00,
4287606963,000003B2,false,Rx,0,8,5D,0F,F9,FF,00,CB,B6,04,
4287615251,0000076C,false,Rx,0,8,35,2A,00,00,00,00,00,00,
4287616723,0000022A,false,Rx,0,4,00,00,70,17,00,00,00,00,
4287616960,000003B2,false,Rx,0,8,5E,0F,F9,FF,00,CB,B6,04,
4287625259,0000076C,false,Rx,0,8,64,00,00,3D,AA,53,1C,00,
4287626721,0000022A,false,Rx,0,4,00,00,70,17,00,00,00,00,
4287626958,000003B2,false,Rx,0,8,5D,0F,F9,FF,00,CB,B6,04,
4287635246,0000076C,false,Rx,0,8,66,00,00,00,00,00,00,00,
4287636718,0000022A,false,Rx,0,4,00,00,70,17,00,00,00,00,
4287636965,000003B2,false,Rx,0,8,5E,0F,F9,FF,00,CB,B6,04,
4287645234,0000076C,false,Rx,0,8,67,00,00,00,00,00,00,00,
4287646716,0000022A,false,Rx,0,4,00,00,70,17,00,00,00,00,
4287646953,000003B2,false,Rx,0,8,5D,0F,F9,FF,00,CB,B6,04,
4287647203,00000545,false,Rx,0,8,14,00,3F,70,9F,01,2A,D7,
4287647369,00000333,false,Rx,0,4,04,30,29,07,00,00,00,00,
4287647565,000002B2,false,Rx,0,5,C8,00,00,05,78,00,00,00,
4287647804,000003A1,false,Rx,0,8,09,62,78,9D,08,2C,12,5A,
4287648054,00000321,false,Rx,0,8,2C,B6,A8,7F,02,7F,00,00,
4287648282,0000025D,false,Rx,0,8,D9,8C,01,B5,4A,C1,0A,E0,
4287648458,0000023D,false,Rx,0,4,0A,40,FF,00,00,00,00,00,
4287648708,0000021D,false,Rx,0,8,2D,20,00,20,80,00,60,10,
4287648947,00000232,false,Rx,0,8,0A,02,D5,09,CB,04,00,00,
4287649164,0000020A,false,Rx,0,6,F6,15,09,82,18,01,00,00,
4287649394,00000212,false,Rx,0,8,B9,1C,94,AD,C3,15,06,63,
4287655234,0000076C,false,Rx,0,8,68,00,00,00,00,00,00,00,
4287656727,0000022A,false,Rx,0,4,00,00,70,17,00,00,00,00,
4287656964,000003B2,false,Rx,0,8,5E,0F,F9,FF,00,CB,B6,04,
4287665241,0000076C,false,Rx,0,8,69,00,00,00,00,00,9D,FF,
4287666723,0000022A,false,Rx,0,4,00,00,70,17,00,00,00,00,
4287666960,000003B2,false,Rx,0,8,5D,0F,F9,FF,00,CB,B6,04,
4287667392,000002C4,false,Rx,0,8,02,00,00,D2,00,00,00,00,
4287667653,00000204,false,Rx,0,8,01,00,00,00,00,00,00,10,
4287667893,00000264,false,Rx,0,6,33,00,00,00,A0,00,00,00,
4287668202,00000224,false,Rx,0,8,00,04,00,00,00,00,00,08,
4287675235,0000076C,false,Rx,0,8,6A,00,00,00,00,00,00,00,
4287676717,0000022A,false,Rx,0,4,00,00,70,17,00,00,00,00,
4287676965,000003B2,false,Rx,0,8,5E,0F,F9,FF,00,CB,B6,04,
4287685230,0000076C,false,Rx,0,8,6B,CD,06,00,00,00,00,00,
4287686723,0000022A,false,Rx,0,4,00,00,70,17,00,00,00,00,
4287686960,000003B2,false,Rx,0,8,5D,0F,F9,FF,00,CB,B6,04,
4287695239,0000076C,false,Rx,0,8,6C,00,00,00,00,00,1C,00,
4287696721,0000022A,false,Rx,0,4,00,00,70,17,00,00,00,00,
4287696958,000003B2,false,Rx,0,8,5E,0F,F9,FF,00,CB,B6,04,
4287697197,00000545,false,Rx,0,8,03,19,64,32,19,00,30,45,
4287705229,0000076C,false,Rx,0,8,6D,00,00,00,00,00,00,00,
4287706722,0000022A,false,Rx,0,4,00,00,70,17,00,00,00,00,
4287706959,000003B2,false,Rx,0,8,5D,0F,F9,FF,00,CB,B6,04,
4287715236,0000076C,false,Rx,0,8,6E,00,00,00,00,00,00,00,
4287716720,0000022A,false,Rx,0,4,00,00,70,17,00,00,00,00,
4287716968,000003B2,false,Rx,0,8,5E,0F,F9,FF,00,CB,B6,04,
4287725223,0000076C,false,Rx,0,8,6F,00,00,00,00,00,00,00,
4287726726,0000022A,false,Rx,0,4,00,00,70,17,00,00,00,00,
4287726965,000003B2,false,Rx,0,8,5D,0F,F9,FF,00,CB,B6,04,
4287735240,0000076C,false,Rx,0,8,70,00,00,00,00,00,00,00,
4287736723,0000022A,false,Rx,0,4,00,00,70,17,00,00,00,00,
4287736961,000003B2,false,Rx,0,8,5E,0F,F9,FF,00,CB,B6,04,
4287745216,0000076C,false,Rx,0,8,71,33,30,00,33,38,80,00,
4287746719,0000022A,false,Rx,0,4,00,00,70,17,00,00,00,00,
4287746957,000003B2,false,Rx,0,8,5D,0F,F9,FF,00,CB,B6,04,
4287747206,00000545,false,Rx,0,8,14,00,3F,70,9F,01,4A,F7,
4287747382,00000333,false,Rx,0,4,04,30,29,07,00,00,00,00,
4287747580,000002B2,false,Rx,0,5,C8,00,00,05,78,00,00,00,
4287747808,000003A1,false,Rx,0,8,09,62,78,9D,08,2C,12,5A,
4287748057,00000321,false,Rx,0,8,2C,B6,A8,7F,02,7F,00,00,
4287748295,0000025D,false,Rx,0,8,D9,8C,01,B5,4A,C1,0A,E0,
4287748462,0000023D,false,Rx,0,4,0A,40,FF,00,00,00,00,00,
4287748711,0000021D,false,Rx,0,8,2D,20,00,20,80,00,60,10,
4287748959,00000232,false,Rx,0,8,0A,02,D5,09,CB,04,00,00,
4287749167,0000020A,false,Rx,0,6,F6,15,09,82,18,01,00,00,
4287749397,00000212,false,Rx,0,8,B9,1C,94,AD,C3,15,06,63,
4287755216,0000076C,false,Rx,0,8,77,00,00,01,6F,10,00,00,
4287756719,0000022A,false,Rx,0,4,00,00,70,17,00,00,00,00,
4287756957,000003B2,false,Rx,0,8,5E,0F,F9,FF,00,CB,B6,04,
4287765223,0000076C,false,Rx,0,8,78,00,00,FF,6E,10,00,00,
4287766726,0000022A,false,Rx,0,4,00,00,70,17,00,00,00,00,
4287766965,000003B2,false,Rx,0,8,5D,0F,F9,FF,00,CB,B6,04,
4287767365,000002C4,false,Rx,0,8,C3,00,10,E0,00,06,80,00,
4287767625,00000204,false,Rx,0,8,01,00,00,00,00,00,00,10,
4287767833,00000264,false,Rx,0,6,33,00,00,00,A0,00,00,00,
4287768102,00000224,false,Rx,0,8,00,04,00,00,00,00,00,08,
4287775218,0000076C,false,Rx,0,8,79,00,00,00,00,00,00,00,
4287776721,0000022A,false,Rx,0,4,00,00,70,17,00,00,00,00,
4287776969,000003B2,false,Rx,0,8,5E,0F,F9,FF,00,CB,B6,04,
4287785214,0000076C,false,Rx,0,8,7A,01,09,00,00,00,00,00,
4287786717,0000022A,false,Rx,0,4,00,00,70,17,00,00,00,00,
4287786966,000003B2,false,Rx,0,8,5D,0F,F9,FF,00,CB,B6,04,
4287795220,0000076C,false,Rx,0,8,7E,75,50,01,8A,00,1C,21,
4287796723,0000022A,false,Rx,0,4,00,00,70,17,00,00,00,00,
4287796962,000003B2,false,Rx,0,8,5E,0F,F9,FF,00,CB,B6,04,
4287797200,00000545,false,Rx,0,8,03,19,64,32,19,00,50,65,
4287805273,0000076C,false,Rx,0,8,01,10,10,15,20,17,25,00,
4287806714,0000022A,false,Rx,0,4,00,00,70,17,00,00,00,00,
4287806953,000003B2,false,Rx,0,8,5D,0F,F9,FF,00,CB,B6,04,
4287815219,0000076C,false,Rx,0,8,02,02,02,03,03,00,01,00,
4287816721,0000022A,false,Rx,0,4,00,00,70,17,00,00,00,00,
4287816970,000003B2,false,Rx,0,8,5E,0F,F9,FF,00,CB,B6,04,
4287825204,0000076C,false,Rx,0,8,03,62,62,4B,4B,62,70,00,
4287826728,0000022A,false,Rx,0,4,00,00,70,17,00,00,00,00,
4287826966,000003B2,false,Rx,0,8,5D,0F,F9,FF,00,CB,B6,04,
4287835213,0000076C,false,Rx,0,8,04,15,18,00,07,00,02,00,
4287836725,0000022A,false,Rx,0,4,00,00,70,17,00,00,00,00,
4287836964,000003B2,false,Rx,0,8,5E,0F,F9,FF,00,CB,B6,04,
4287845210,0000076C,false,Rx,0,8,05,AA,C4,36,42,D4,2E,00,
4287846722,0000022A,false,Rx,0,4,00,00,70,17,00,00,00,00,
4287846960,000003B2,false,Rx,0,8,5D,0F,F9,FF,00,CB,B6,04,
4287847209,00000545,false,Rx,0,8,14,00,3F,70,9F,01,6A,17,
4287847375,00000333,false,Rx,0,4,04,30,29,07,00,00,00,00,
4287847572,000002B2,false,Rx,0,5,C8,00,00,05,78,00,00,00,
4287847811,000003A1,false,Rx,0,8,09,62,78,9D,08,2C,12,5A,
4287848059,00000321,false,Rx,0,8,2C,B6,A8,7F,02,7F,00,00,
4287848288,0000025D,false,Rx,0,8,D9,8C,01,B5,4A,C1,0A,E0,
4287848465,0000023D,false,Rx,0,4,0A,40,FF,00,00,00,00,00,
4287848714,0000021D,false,Rx,0,8,2D,20,00,20,80,00,60,10,
4287848952,00000232,false,Rx,0,8,0A,02,D5,09,CB,04,00,00,
4287849171,0000020A,false,Rx,0,6,F6,15,09,82,18,01,00,00,
4287849400,00000212,false,Rx,0,8,B9,1C,94,AD,C3,15,06,63,
4287855210,0000076C,false,Rx,0,8,8A,13,20,01,64,00,40,00,
4287856723,0000022A,false,Rx,0,4,00,00,70,17,00,00,00,00,
4287856960,000003B2,false,Rx,0,8,5E,0F,F9,FF,00,CB,B6,04,
4287865216,0000076C,false,Rx,0,8,0B,14,00,D0,20,FF,0F,00,
4287866719,0000022A,false,Rx,0,4,00,00,70,17,00,00,00,00,
4287866956,000003B2,false,Rx,0,8,5D,0F,F9,FF,00,CB,B6,04,
4287867356,000002C4,false,Rx,0,8,04,00,00,00,00,20,F1,51,
4287867617,00000204,false,Rx,0,8,01,00,00,00,00,00,00,10,
4287867835,00000264,false,Rx,0,6,33,00,00,00,A0,00,00,00,
4287868176,00000224,false,Rx,0,8,00,04,00,00,00,00,00,08,
4287875210,0000076C,false,Rx,0,8,0C,00,00,00,20,20,40,00,
4287876723,0000022A,false,Rx,0,4,00,00,70,17,00,00,00,00,
4287876961,000003B2,false,Rx,0,8,5E,0F,F9,FF,00,CB,B6,04,
4287885206,0000076C,false,Rx,0,8,0D,04,32,8F,BB,28,00,00,
4287886719,0000022A,false,Rx,0,4,00,00,70,17,00,00,00,00,
4287886967,000003B2,false,Rx,0,8,5D,0F,F9,FF,00,CB,B6,04,
4287895203,0000076C,false,Rx,0,8,0E,A1,AA,B2,BD,02,00,00,
4287896716,0000022A,false,Rx,0,4,00,00,70,17,00,00,00,00,
4287896964,000003B2,false,Rx,0,8,5E,0F,F9,FF,00,CB,B6,04,
4287897192,00000545,false,Rx,0,8,03,19,64,32,19,00,70,85,
4287905204,0000076C,false,Rx,0,8,94,19,40,00,64,00,40,00,
4287906717,0000022A,false,Rx,0,4,00,00,70,17,00,00,00,00,
4287906954,000003B2,false,Rx,0,8,5D,0F,F9,FF,00,CB,B6,04,
4287915213,0000076C,false,Rx,0,8,15,00,00,D0,20,00,00,00,
4287916726,0000022A,false,Rx,0,4,00,00,70,17,00,00,00,00,
4287916964,000003B2,false,Rx,0,8,5E,0F,F9,FF,00,CB,B6,04,
4287925209,0000076C,false,Rx,0,8,16,00,00,00,20,00,00,00,
4287926722,0000022A,false,Rx,0,4,00,00,70,17,00,00,00,00,
4287926960,000003B2,false,Rx,0,8,5D,0F,F9,FF,00,CB,B6,04,
4287935194,0000076C,false,Rx,0,8,17,04,32,8F,BB,28,00,00,
4287936728,0000022A,false,Rx,0,4,00,00,70,17,00,00,00,00,
4287936965,000003B2,false,Rx,0,8,5E,0F,F9,FF,00,CB,B6,04,
4287945203,0000076C,false,Rx,0,8,18,9F,AA,B3,BD,02,00,00,
4287946726,0000022A,false,Rx,0,4,00,00,70,17,00,00,00,00,
4287946963,000003B2,false,Rx,0,8,5D,0F,F9,FF,00,CB,B6,04,
4287947201,00000545,false,Rx,0,8,14,00,3F,70,9F,01,8A,37,
4287947379,00000333,false,Rx,0,4,04,30,29,07,00,00,00,00,
4287947577,000002B2,false,Rx,0,5,C8,00,00,05,78,00,00,00,
4287947805,000003A1,false,Rx,0,8,09,62,78,9D,08,2C,12,5A,
4287948053,00000321,false,Rx,0,8,2C,B6,A8,7F,02,7F,00,00,
4287948293,0000025D,false,Rx,0,8,D9,8C,01,B5,4A,C1,0A,E0,
4287948459,0000023D,false,Rx,0,4,0A,40,FF,00,00,00,00,00,
4287948708,0000021D,false,Rx,0,8,2D,20,00,20,80,00,60,10,
4287948957,00000232,false,Rx,0,8,0A,02,D5,09,CB,04,00,00,
4287949164,0000020A,false,Rx,0,6,F6,15,09,82,18,01,00,00,
4287949393,00000212,false,Rx,0,8,B9,1C,94,AD,C3,15,06,63,
4287955193,0000076C,false,Rx,0,8,9E,13,20,00,64,00,40,00,
4287956717,0000022A,false,Rx,0,4,00,00,70,17,00,00,00,00,
4287956965,000003B2,false,Rx,0,8,5E,0F,F9,FF,00,CB,B6,04,
4287965210,0000076C,false,Rx,0,8,1F,01,00,D0,20,00,00,00,
4287966713,0000022A,false,Rx,0,4,00,00,70,17,00,00,00,00,
4287966960,000003B2,false,Rx,0,8,5D,0F,F9,FF,00,CB,B6,04,
4287967352,000002C4,false,Rx,0,8,25,22,00,00,00,00,00,20,
4287967612,00000204,false,Rx,0,8,01,00,00,00,00,00,00,10,
4287967819,00000264,false,Rx,0,6,34,00,00,00,A0,00,00,00,
4287968161,00000224,false,Rx,0,8,00,04,00,00,00,00,00,08,
4287975204,0000076C,false,Rx,0,8,20,00,00,00,30,00,00,00,
4287976728,0000022A,false,Rx,0,4,00,00,70,17,00,00,00,00,
4287976965,000003B2,false,Rx,0,8,5E,0F,F9,FF,00,CB,B6,04,
4287985190,0000076C,false,Rx,0,8,21,04,32,8F,BB,28,00,00,
4287986724,0000022A,false,Rx,0,4,00,00,70,17,00,00,00,00,
4287986961,000003B2,false,Rx,0,8,5D,0F,F9,FF,00,CB,B6,04,
4287995188,0000076C,false,Rx,0,8,22,9E,AA,B5,BD,02,00,00,
4287996721,0000022A,false,Rx,0,4,00,00,70,17,00,00,00,00,
4287996969,000003B2,false,Rx,0,8,5E,0F,F9,FF,00,CB,B6,04,
4287997197,00000545,false,Rx,0,8,03,19,64,32,19,00,90,A5,
4288005198,0000076C,false,Rx,0,8,33,00,00,00,00,44,20,84,
4288006721,0000022A,false,Rx,0,4,00,00,70,17,00,00,00,00,
4288006959,000003B2,false,Rx,0,8,5D,0F,F9,FF,00,CB,B6,04,
4288015205,0000076C,false,Rx,0,8,34,00,00,00,00,00,00,00,
4288016718,0000022A,false,Rx,0,4,00,00,70,17,00,00,00,00,
4288016955,000003B2,false,Rx,0,8,5E,0F,F9,FF,00,CB,B6,04,
4288025203,0000076C,false,Rx,0,8,35,2A,00,00,00,00,00,00,
4288026716,0000022A,false,Rx,0,4,00,00,70,17,00,00,00,00,
4288026953,000003B2,false,Rx,0,8,5D,0F,F9,FF,00,CB,B6,04,
4288035220,0000076C,false,Rx,0,8,64,00,00,3D,AA,53,0E,00,
4288036722,0000022A,false,Rx,0,4,00,00,70,17,00,00,00,00,
4288036970,000003B2,false,Rx,0,8,5E,0F,F9,FF,00,CB,B6,04,
4288045195,0000076C,false,Rx,0,8,66,00,00,00,00,00,00,00,
4288047813,0000022A,false,Rx,0,4,00,00,70,17,00,00,00,00,
4288048058,000003B2,false,Rx,0,8,5D,0F,F9,FF,00,CB,B6,04,
4288048296,00000545,false,Rx,0,8,14,00,3F,70,9F,01,AA,57,
4288048472,00000333,false,Rx,0,4,04,30,29,07,00,00,00,00,
4288048670,000002B2,false,Rx,0,5,C8,00,00,05,78,00,00,00,
4288048909,000003A1,false,Rx,0,8,09,62,78,9D,08,2C,12,5A,
4288049147,00000321,false,Rx,0,8,2C,B6,A8,7F,02,7F,00,00,
4288049385,0000025D,false,Rx,0,8,D9,8C,01,B5,4A,C1,0A,E0,
4288049563,0000023D,false,Rx,0,4,0A,40,FF,00,00,00,00,00,
4288049812,0000021D,false,Rx,0,8,2D,20,00,20,80,00,60,10,
4288050052,00000232,false,Rx,0,8,0A,02,D5,09,CB,04,00,00,
4288050260,0000020A,false,Rx,0,6,F6,15,09,82,18,01,00,00,
4288050498,00000212,false,Rx,0,8,B9,1C,94,AD,C3,15,06,63,
4288055187,0000076C,false,Rx,0,8,67,00,00,00,00,00,00,00,
4288056720,0000022A,false,Rx,0,4,00,00,70,17,00,00,00,00,
4288056958,000003B2,false,Rx,0,8,5E,0F,F9,FF,00,CB,B6,04,
4288065204,0000076C,false,Rx,0,8,68,00,00,00,00,00,00,00,
4288066727,0000022A,false,Rx,0,4,00,00,70,17,00,00,00,00,
4288066965,000003B2,false,Rx,0,8,5D,0F,F9,FF,00,CB,B6,04,
4288067346,000002C4,false,Rx,0,8,E6,29,3E,0A,00,00,80,92,
4288067616,00000204,false,Rx,0,8,01,00,00,00,00,00,00,10,
4288067854,00000264,false,Rx,0,6,34,00,00,00,A0,00,00,00,
4288068165,00000224,false,Rx,0,8,00,04,00,00,00,00,00,08,
4288068403,000003C4,false,Rx,0,8,10,00,00,00,23,89,BD,E3,
4288075192,0000076C,false,Rx,0,8,69,00,00,00,00,00,9D,FF,
4288076716,0000022A,false,Rx,0,4,00,00,70,17,00,00,00,00,
4288076963,000003B2,false,Rx,0,8,5E,0F,F9,FF,00,CB,B6,04,
4288085199,0000076C,false,Rx,0,8,6A,00,00,00,00,00,00,00,
4288086712,0000022A,false,Rx,0,4,00,00,70,17,00,00,00,00,
4288086960,000003B2,false,Rx,0,8,5D,0F,F9,FF,00,CB,B6,04,
4288095185,0000076C,false,Rx,0,8,6B,CD,06,00,00,00,00,00,
4288096720,0000022A,false,Rx,0,4,00,00,70,17,00,00,00,00,
4288096957,000003B2,false,Rx,0,8,5E,0F,F9,FF,00,CB,B6,04,
4288097197,00000545,false,Rx,0,8,03,19,64,32,19,00,B0,C5,
4288105187,0000076C,false,Rx,0,8,6C,00,00,00,00,00,1C,00,
4288106720,0000022A,false,Rx,0,4,00,00,70,17,00,00,00,00,
4288106957,000003B2,false,Rx,0,8,5D,0F,F9,FF,00,CB,B6,04,
4288115194,0000076C,false,Rx,0,8,6D,00,00,00,00,00,00,00,
4288116717,0000022A,false,Rx,0,4,00,00,70,17,00,00,00,00,
4288116965,000003B2,false,Rx,0,8,5E,0F,F9,FF,00,CB,B6,04,
4288125190,0000076C,false,Rx,0,8,6E,00,00,00,00,00,00,00,
4288126715,0000022A,false,Rx,0,4,00,00,70,17,00,00,00,00,
4288126963,000003B2,false,Rx,0,8,5D,0F,F9,FF,00,CB,B6,04,
4288135188,0000076C,false,Rx,0,8,6F,00,00,00,00,00,00,00,
4288136722,0000022A,false,Rx,0,4,00,00,70,17,00,00,00,00,
4288136959,000003B2,false,Rx,0,8,5E,0F,F9,FF,00,CB,B6,04,
4288145184,0000076C,false,Rx,0,8,70,00,00,00,00,00,00,00,
4288146718,0000022A,false,Rx,0,4,00,00,70,17,00,00,00,00,
4288146955,000003B2,false,Rx,0,8,5D,0F,F9,FF,00,CB,B6,04,
4288147205,00000545,false,Rx,0,8,14,00,3F,70,9F,01,CA,77,
4288147381,00000333,false,Rx,0,4,04,30,29,07,00,00,00,00,
4288147579,000002B2,false,Rx,0,5,C8,00,00,05,78,00,00,00,
4288147807,000003A1,false,Rx,0,8,09,62,78,9D,08,2C,12,5A,
4288148056,00000321,false,Rx,0,8,2C,B6,A8,7F,02,7F,00,00,
4288148283,0000025D,false,Rx,0,8,D9,8C,01,B5,4A,C1,0A,E0,
4288148460,0000023D,false,Rx,0,4,0A,40,FF,00,00,00,00,00,
4288148710,0000021D,false,Rx,0,8,2D,20,00,20,80,00,60,10,
4288148948,00000232,false,Rx,0,8,0A,02,D5,09,CB,04,00,00,
4288149166,0000020A,false,Rx,0,6,F6,15,09,82,18,01,00,00,
4288149396,00000212,false,Rx,0,8,B9,1C,94,AD,C3,15,06,63,
4288155174,0000076C,false,Rx,0,8,71,33,30,00,33,38,80,00,
4288156720,0000022A,false,Rx,0,4,00,00,70,17,00,00,00,00,
4288156968,000003B2,false,Rx,0,8,5E,0F,F9,FF,00,CB,B6,04,
4288165182,0000076C,false,Rx,0,8,77,00,00,01,6F,10,00,00,
4288166726,0000022A,false,Rx,0,4,00,00,70,17,00,00,00,00,
4288166964,000003B2,false,Rx,0,8,5D,0F,F9,FF,00,CB,B6,04,
4288167345,000002C4,false,Rx,0,8,07,00,00,00,00,00,00,00,
4288167615,00000204,false,Rx,0,8,01,00,00,00,00,00,00,10,
4288167844,00000264,false,Rx,0,6,34,00,00,00,A0,00,00,00,
4288168154,00000224,false,Rx,0,8,00,04,00,00,00,00,00,08,
4288169185,000002A4,false,Rx,0,8,67,F7,FA,D7,F7,0E,78,32,
4288169337,00000364,false,Rx,0,2,00,78,00,00,00,00,00,00,
4288169595,000003A4,false,Rx,0,8,00,00,00,00,00,00,00,00,
4288175180,0000076C,false,Rx,0,8,78,00,00,FF,6E,10,00,00,
4288176724,0000022A,false,Rx,0,4,00,00,70,17,00,00,00,00,
4288176961,000003B2,false,Rx,0,8,5E,0F,F9,FF,00,CB,B6,04,
4288185187,0000076C,false,Rx,0,8,79,00,00,00,00,00,00,00,
4288186720,0000022A,false,Rx,0,4,00,00,70,17,00,00,00,00,
4288186958,000003B2,false,Rx,0,8,5D,0F,F9,FF,00,CB,B6,04,
4288195173,0000076C,false,Rx,0,8,7A,01,09,00,00,00,00,00,
4288196727,0000022A,false,Rx,0,4,00,00,70,17,00,00,00,00,
4288196965,000003B2,false,Rx,0,8,5E,0F,F9,FF,00,CB,B6,04,
4288197193,00000545,false,Rx,0,8,03,19,64,32,19,00,D0,E5,
4288205162,0000076C,false,Rx,0,8,7E,75,50,01,8A,00,1D,21,
4288206717,0000022A,false,Rx,0,4,00,00,70,17,00,00,00,00,
4288206955,000003B2,false,Rx,0,8,5D,0F,F9,FF,00,CB,B6,04,
4288215231,0000076C,false,Rx,0,8,01,0D,10,0E,20,15,25,00,
4288216713,0000022A,false,Rx,0,4,00,00,70,17,00,00,00,00,
4288216962,000003B2,false,Rx,0,8,5E,0F,F9,FF,00,CB,B6,04,
4288225166,0000076C,false,Rx,0,8,02,02,02,03,03,01,01,00,
4288226730,0000022A,false,Rx,0,4,00,00,70,17,00,00,00,00,
4288226969,000003B2,false,Rx,0,8,5D,0F,F9,FF,00,CB,B6,04,
4288235162,0000076C,false,Rx,0,8,03,62,62,4B,4B,62,70,00,
4288236726,0000022A,false,Rx,0,4,00,00,70,17,00,00,00,00,
4288236965,000003B2,false,Rx,0,8,5E,0F,F9,FF,00,CB,B6,04,
4288245168,0000076C,false,Rx,0,8,04,17,18,00,07,00,02,00,
4288246722,0000022A,false,Rx,0,4,00,00,70,17,00,00,00,00,
4288246961,000003B2,false,Rx,0,8,5D,0F,F9,FF,00,CB,B6,04,
4288247199,00000545,false,Rx,0,8,14,00,3F,70,9F,01,EA,97,
4288247375,00000333,false,Rx,0,4,04,30,29,07,00,00,00,00,
4288247571,000002B2,false,Rx,0,5,C8,00,00,05,78,00,00,00,
4288247812,000003A1,false,Rx,0,8,09,62,78,9D,08,2C,12,5A,
4288248050,00000321,false,Rx,0,8,2C,B6,A8,7F,02,7F,00,00,
4288248288,0000025D,false,Rx,0,8,D9,8C,01,B5,4A,C1,0A,E0,
4288248466,0000023D,false,Rx,0,4,0A,40,FF,00,00,00,00,00,
4288248715,0000021D,false,Rx,0,8,2D,20,00,20,80,00,60,10,
4288248953,00000232,false,Rx,0,8,0A,02,D5,09,CB,04,00,00,
4288249172,0000020A,false,Rx,0,6,F6,15,09,82,18,01,00,00,
4288249401,00000212,false,Rx,0,8,B9,1C,94,AD,C3,15,06,63,
4288255158,0000076C,false,Rx,0,8,05,AA,BC,36,41,E4,2E,00,
4288256723,0000022A,false,Rx,0,4,00,00,70,17,00,00,00,00,
4288256961,000003B2,false,Rx,0,8,5E,0F,F9,FF,00,CB,B6,04,
4288265176,0000076C,false,Rx,0,8,8A,13,00,01,64,00,40,00,
4288266720,0000022A,false,Rx,0,4,00,00,70,17,00,00,00,00,
4288266959,000003B2,false,Rx,0,8,5D,0F,F9,FF,00,CB,B6,04,
4288267328,000002C4,false,Rx,0,8,08,00,00,00,1C,00,00,00,
4288267598,00000204,false,Rx,0,8,01,00,00,00,00,00,00,10,
4288267827,00000264,false,Rx,0,6,33,00,00,00,A0,00,00,00,
4288268147,00000224,false,Rx,0,8,00,04,00,00,00,00,00,08,
4288275161,0000076C,false,Rx,0,8,0B,14,00,D0,20,FF,0F,00,
4288276715,0000022A,false,Rx,0,4,00,00,70,17,00,00,00,00,
4288276953,000003B2,false,Rx,0,8,5E,0F,F9,FF,00,CB,B6,04,
4288285178,0000076C,false,Rx,0,8,0C,00,00,00,20,20,40,00,
4288286722,0000022A,false,Rx,0,4,00,00,70,17,00,00,00,00,
4288286960,000003B2,false,Rx,0,8,5D,0F,F9,FF,00,CB,B6,04,
4288295154,0000076C,false,Rx,0,8,0D,04,32,8F,BB,28,00,00,
4288296719,0000022A,false,Rx,0,4,00,00,70,17,00,00,00,00,
4288296967,000003B2,false,Rx,0,8,5E,0F,F9,FF,00,CB,B6,04,
4288297203,00000545,false,Rx,0,8,03,19,64,32,19,00,F0,05,
4288305158,0000076C,false,Rx,0,8,0E,A1,AA,B2,BD,02,00,00,
4288306722,0000022A,false,Rx,0,4,00,00,70,17,00,00,00,00,
4288306961,000003B2,false,Rx,0,8,5D,0F,F9,FF,00,CB,B6,04,
4288315165,0000076C,false,Rx,0,8,94,19,40,00,64,00,40,00,
4288316720,0000022A,false,Rx,0,4,00,00,70,17,00,00,00,00,
4288316958,000003B2,false,Rx,0,8,5E,0F,F9,FF,00,CB,B6,04,
4288325162,0000076C,false,Rx,0,8,15,00,00,D0,20,00,00,00,
4288326716,0000022A,false,Rx,0,4,00,00,70,17,00,00,00,00,
4288326955,000003B2,false,Rx,0,8,5D,0F,F9,FF,00,CB,B6,04,
4288335168,0000076C,false,Rx,0,8,16,00,00,00,20,00,00,00,
4288336712,0000022A,false,Rx,0,4,00,00,70,17,00,00,00,00,
4288336961,000003B2,false,Rx,0,8,5E,0F,F9,FF,00,CB,B6,04,
4288345156,0000076C,false,Rx,0,8,17,04,32,8F,BB,28,00,00,
4288346711,00000333,false,Rx,0,4,04,30,29,07,00,00,00,00,
4288346908,000002B2,false,Rx,0,5,C8,00,00,05,78,00,00,00,
4288347145,000003A1,false,Rx,0,8,09,62,78,9D,08,2C,12,5A,
4288347393,00000321,false,Rx,0,8,2C,B6,A8,7F,02,7F,00,00,
4288347624,0000025D,false,Rx,0,8,D9,8C,01,B5,4A,C1,0A,E0,
4288347800,0000023D,false,Rx,0,4,0A,40,FF,00,00,00,00,00,
4288348048,0000021D,false,Rx,0,8,2D,20,00,20,80,00,60,10,
4288348287,00000232,false,Rx,0,8,0A,02,D5,09,CB,04,00,00,
4288348505,0000020A,false,Rx,0,6,F6,15,09,82,18,01,00,00,
4288348734,00000212,false,Rx,0,8,B9,1C,94,AD,C3,15,06,63,
4288348910,0000022A,false,Rx,0,4,00,00,70,17,00,00,00,00,
4288349149,000003B2,false,Rx,0,8,5D,0F,F9,FF,00,CB,B6,04,
4288349389,00000545,false,Rx,0,8,14,00,3F,70,9F,01,0A,B7,
4288355147,0000076C,false,Rx,0,8,18,A1,AA,B2,BD,02,00,00,
4288356723,0000022A,false,Rx,0,4,00,00,70,17,00,00,00,00,
4288356960,000003B2,false,Rx,0,8,5E,0F,F9,FF,00,CB,B6,04,
4288365164,0000076C,false,Rx,0,8,9E,14,20,00,64,00,40,00,
4288366718,0000022A,false,Rx,0,4,00,00,70,17,00,00,00,00,
4288366956,000003B2,false,Rx,0,8,5D,0F,F9,FF,00,CB,B6,04,
4288367294,000002C4,false,Rx,0,8,49,DC,E5,2E,B0,84,25,87,
4288367554,00000204,false,Rx,0,8,01,00,00,00,00,00,00,10,
4288367773,00000264,false,Rx,0,6,33,00,00,00,A0,00,00,00,
4288368031,00000224,false,Rx,0,8,00,04,00,00,00,00,00,08,
4288375168,0000076C,false,Rx,0,8,1F,00,00,D0,20,00,00,00,
4288376712,0000022A,false,Rx,0,4,00,00,70,17,00,00,00,00,
4288376960,000003B2,false,Rx,0,8,5E,0F,F9,FF,00,CB,B6,04,
4288385174,0000076C,false,Rx,0,8,20,00,00,00,30,00,00,00,
4288386718,0000022A,false,Rx,0,4,00,00,70,17,00,00,00,00,
4288386956,000003B2,false,Rx,0,8,5D,0F,F9,FF,00,CB,B6,04,
4288395151,0000076C,false,Rx,0,8,21,04,32,8F,BB,28,00,00,
4288396778,00000545,false,Rx,0,8,03,19,64,32,19,00,10,25,
4288396954,0000022A,false,Rx,0,4,00,00,70,17,00,00,00,00,
4288397200,000003B2,false,Rx,0,8,5E,0F,F9,FF,00,CB,B6,04,
4288405154,0000076C,false,Rx,0,8,22,A0,AA,B3,BD,02,00,00,
4288406718,0000022A,false,Rx,0,4,00,00,70,17,00,00,00,00,
4288406956,000003B2,false,Rx,0,8,5D,0F,F9,FF,00,CB,B6,04,
4288415162,0000076C,false,Rx,0,8,33,00,00,00,00,44,20,84,
4288416716,0000022A,false,Rx,0,4,00,00,70,17,00,00,00,00,
4288416963,000003B2,false,Rx,0,8,5E,0F,F9,FF,00,CB,B6,04,
4288425159,0000076C,false,Rx,0,8,34,00,00,00,00,00,00,00,
4288426723,0000022A,false,Rx,0,4,00,00,70,17,00,00,00,00,
4288426960,000003B2,false,Rx,0,8,5D,0F,F9,FF,00,CB,B6,04,
4288435164,0000076C,false,Rx,0,8,35,2A,00,00,00,00,00,00,
4288436718,0000022A,false,Rx,0,4,00,00,70,17,00,00,00,00,
4288436956,000003B2,false,Rx,0,8,5E,0F,F9,FF,00,CB,B6,04,
4288445162,0000076C,false,Rx,0,8,64,00,00,3D,AA,53,0E,00,
4288446716,0000022A,false,Rx,0,4,00,00,70,17,00,00,00,00,
4288446953,000003B2,false,Rx,0,8,5D,0F,F9,FF,00,CB,B6,04,
4288447192,00000545,false,Rx,0,8,14,00,3F,70,9F,01,2A,D7,
4288447369,00000333,false,Rx,0,4,04,30,29,07,00,00,00,00,
4288447566,000002B2,false,Rx,0,5,C8,00,00,05,78,00,00,00,
4288447804,000003A1,false,Rx,0,8,09,62,78,9D,08,2C,12,5A,
4288448043,00000321,false,Rx,0,8,2C,B6,A8,7F,02,7F,00,00,
4288448282,0000025D,false,Rx,0,8,D9,8C,01,B5,4A,C1,0A,E0,
4288448458,0000023D,false,Rx,0,4,0A,40,FF,00,00,00,00,00,
4288448707,0000021D,false,Rx,0,8,2D,20,00,20,80,00,60,10,
4288448947,00000232,false,Rx,0,8,0A,02,D5,09,CB,04,00,00,
4288449154,0000020A,false,Rx,0,6,F6,15,09,82,18,01,00,00,
4288449393,00000212,false,Rx,0,8,B9,1C,94,AD,C3,15,06,63,
4288455162,0000076C,false,Rx,0,8,66,00,00,00,00,00,00,00,
4288456727,0000022A,false,Rx,0,4,00,00,70,17,00,00,00,00,
4288456964,000003B2,false,Rx,0,8,5E,0F,F9,FF,00,CB,B6,04,
4288465158,0000076C,false,Rx,0,8,67,00,00,00,00,00,00,00,
4288466722,0000022A,false,Rx,0,4,00,00,70,17,00,00,00,00,
4288466960,000003B2,false,Rx,0,8,5D,0F,F9,FF,00,CB,B6,04,
4288467310,000002C4,false,Rx,0,8,0A,00,00,00,97,DF,00,00,
4288467569,00000204,false,Rx,0,8,01,00,00,00,00,00,00,10,
4288467788,00000264,false,Rx,0,6,32,00,00,00,A0,00,00,00,
4288468119,00000224,false,Rx,0,8,00,04,00,00,00,00,00,08,
4288475152,0000076C,false,Rx,0,8,68,00,00,00,00,00,00,00,
4288476716,0000022A,false,Rx,0,4,00,00,70,17,00,00,00,00,
4288476954,000003B2,false,Rx,0,8,5E,0F,F9,FF,00,CB,B6,04,
4288485148,0000076C,false,Rx,0,8,69,00,00,00,00,00,9D,FF,
4288486712,0000022A,false,Rx,0,4,00,00,70,17,00,00,00,00,
4288486960,000003B2,false,Rx,0,8,5D,0F,F9,FF,00,CB,B6,04,
4288495155,0000076C,false,Rx,0,8,6A,00,00,00,00,00,00,00,
4288496709,0000022A,false,Rx,0,4,00,00,70,17,00,00,00,00,
4288496957,000003B2,false,Rx,0,8,5E,0F,F9,FF,00,CB,B6,04,
4288497203,00000545,false,Rx,0,8,03,19,64,32,19,00,30,45,
4288505148,0000076C,false,Rx,0,8,6B,CD,06,00,00,00,00,00,
4288506723,0000022A,false,Rx,0,4,00,00,70,17,00,00,00,00,
4288506960,000003B2,false,Rx,0,8,5D,0F,F9,FF,00,CB,B6,04,
4288515155,0000076C,false,Rx,0,8,6C,00,00,00,00,00,1C,00,
4288516719,0000022A,false,Rx,0,4,00,00,70,17,00,00,00,00,
4288516957,000003B2,false,Rx,0,8,5E,0F,F9,FF,00,CB,B6,04,
4288525141,0000076C,false,Rx,0,8,6D,00,00,00,00,00,00,00,
4288526715,0000022A,false,Rx,0,4,00,00,70,17,00,00,00,00,
4288526953,000003B2,false,Rx,0,8,5D,0F,F9,FF,00,CB,B6,04,
4288535147,0000076C,false,Rx,0,8,6E,00,00,00,00,00,00,00,
4288536711,0000022A,false,Rx,0,4,00,00,70,17,00,00,00,00,
4288536959,000003B2,false,Rx,0,8,5E,0F,F9,FF,00,CB,B6,04,
4288545143,0000076C,false,Rx,0,8,6F,00,00,00,00,00,00,00,
4288546718,0000022A,false,Rx,0,4,00,00,70,17,00,00,00,00,
4288546955,000003B2,false,Rx,0,8,5D,0F,F9,FF,00,CB,B6,04,
4288547202,00000545,false,Rx,0,8,14,00,3F,70,9F,01,4A,F7,
4288547378,00000333,false,Rx,0,4,04,30,29,07,00,00,00,00,
4288547575,000002B2,false,Rx,0,5,C8,00,00,05,78,00,00,00,
4288547803,000003A1,false,Rx,0,8,09,62,78,9D,08,2C,12,5A,
4288548053,00000321,false,Rx,0,8,2C,B6,A8,7F,02,7F,00,00,
4288548291,0000025D,false,Rx,0,8,D9,8C,01,B5,4A,C1,0A,E0,
4288548457,0000023D,false,Rx,0,4,0A,40,FF,00,00,00,00,00,
4288548707,0000021D,false,Rx,0,8,2D,20,00,20,80,00,60,10,
4288548956,00000232,false,Rx,0,8,0A,02,D5,09,CB,04,00,00,
4288549163,0000020A,false,Rx,0,6,F6,15,09,82,18,01,00,00,
4288549394,00000212,false,Rx,0,8,B9,1C,94,AD,C3,15,06,63,
4288555153,0000076C,false,Rx,0,8,70,00,00,00,00,00,00,00,
4288556728,0000022A,false,Rx,0,4,00,00,70,17,00,00,00,00,
4288556965,000003B2,false,Rx,0,8,5E,0F,F9,FF,00,CB,B6,04,
4288565130,0000076C,false,Rx,0,8,71,33,30,00,33,38,80,00,
4288566726,0000022A,false,Rx,0,4,00,00,70,17,00,00,00,00,
4288567299,000002C4,false,Rx,0,8,0B,00,00,80,FD,CC,00,00,
4288567558,00000204,false,Rx,0,8,01,00,00,00,00,00,00,10,
4288567777,00000264,false,Rx,0,6,33,00,00,00,A0,00,00,00,
4288568108,00000224,false,Rx,0,8,00,04,00,00,00,00,00,08,
4288568377,000003C4,false,Rx,0,8,11,00,00,00,00,00,00,00,
4288575136,0000076C,false,Rx,0,8,77,00,00,01,6F,10,00,00,
4288576721,0000022A,false,Rx,0,4,00,00,70,17,00,00,00,00,
4288576958,000003B2,false,Rx,0,8,5E,0F,F9,FF,00,CB,B6,04,
4288585143,0000076C,false,Rx,0,8,78,00,00,FF,6E,10,00,00,
4288586717,0000022A,false,Rx,0,4,00,00,70,17,00,00,00,00,
4288586954,000003B2,false,Rx,0,8,5D,0F,F9,FF,00,CB,B6,04,
4288595139,0000076C,false,Rx,0,8,79,00,00,00,00,00,00,00,
4288596714,0000022A,false,Rx,0,4,00,00,70,17,00,00,00,00,
4288596962,000003B2,false,Rx,0,8,5E,0F,F9,FF,00,CB,B6,04,
4288597199,00000545,false,Rx,0,8,03,19,64,32,19,00,50,65,
4288605142,0000076C,false,Rx,0,8,7A,01,09,00,00,00,00,00,
4288606727,0000022A,false,Rx,0,4,00,00,70,17,00,00,00,00,
4288606964,000003B2,false,Rx,0,8,5D,0F,F9,FF,00,CB,B6,04,
4288615128,0000076C,false,Rx,0,8,7E,75,50,01,8A,00,1E,21,
4288616724,0000022A,false,Rx,0,4,00,00,70,17,00,00,00,00,
4288616962,000003B2,false,Rx,0,8,5E,0F,F9,FF,00,CB,B6,04,
4288625187,0000076C,false,Rx,0,8,01,0D,10,16,20,15,25,00,
4288626721,0000022A,false,Rx,0,4,00,00,70,17,00,00,00,00,
4288626958,000003B2,false,Rx,0,8,5D,0F,F9,FF,00,CB,B6,04,
4288635132,0000076C,false,Rx,0,8,02,02,02,03,03,00,01,00,
4288636717,0000022A,false,Rx,0,4,00,00,70,17,00,00,00,00,
4288636964,000003B2,false,Rx,0,8,5E,0F,F9,FF,00,CB,B6,04,
4288645118,0000076C,false,Rx,0,8,03,62,62,4B,4B,62,70,00,
4288646723,0000022A,false,Rx,0,4,00,00,70,17,00,00,00,00,
4288646960,000003B2,false,Rx,0,8,5D,0F,F9,FF,00,CB,B6,04,
4288647208,00000545,false,Rx,0,8,14,00,3F,70,9F,01,6A,17,
4288647374,00000333,false,Rx,0,4,04,30,29,07,00,00,00,00,
4288647570,000002B2,false,Rx,0,5,C8,00,00,05,78,00,00,00,
4288647810,000003A1,false,Rx,0,8,09,62,78,9D,08,2C,12,5A,
4288648048,00000321,false,Rx,0,8,2C,B6,A8,7F,02,7F,00,00,
4288648286,0000025D,false,Rx,0,8,D9,8C,01,B5,4A,C1,0A,E0,
4288648463,0000023D,false,Rx,0,4,0A,40,FF,00,00,00,00,00,
4288648713,0000021D,false,Rx,0,8,2D,20,00,20,80,00,60,10,
4288648951,00000232,false,Rx,0,8,0A,02,D5,09,CB,04,00,00,
4288649191,0000020A,false,Rx,0,6,F6,15,09,82,18,01,00,00,
4288649399,00000212,false,Rx,0,8,B9,1C,94,AD,C3,15,06,63,
4288655129,0000076C,false,Rx,0,8,04,15,18,00,07,00,02,00,
4288656714,0000022A,false,Rx,0,4,00,00,70,17,00,00,00,00,
4288656962,000003B2,false,Rx,0,8,5E,0F,F9,FF,00,CB,B6,04,
4288665116,0000076C,false,Rx,0,8,05,AB,BC,36,42,DC,2E,00,
4288666711,0000022A,false,Rx,0,4,00,00,70,17,00,00,00,00,
4288666958,000003B2,false,Rx,0,8,5D,0F,F9,FF,00,CB,B6,04,
4288667278,000002C4,false,Rx,0,8,0C,00,00,80,E4,CC,00,00,
4288667547,00000204,false,Rx,0,8,01,00,00,00,00,00,00,10,
4288667758,00000264,false,Rx,0,6,33,00,00,00,A0,00,00,00,
4288668098,00000224,false,Rx,0,8,00,04,00,00,00,00,00,08,
4288675132,0000076C,false,Rx,0,8,8A,13,E0,00,64,00,40,00,
4288676717,0000022A,false,Rx,0,4,00,00,70,17,00,00,00,00,
4288676965,000003B2,false,Rx,0,8,5E,0F,F9,FF,00,CB,B6,04,
4288685131,0000076C,false,Rx,0,8,0B,14,00,D0,20,FF,0F,00,
4288686716,0000022A,false,Rx,0,4,00,00,70,17,00,00,00,00,
4288686965,000003B2,false,Rx,0,8,5D,0F,F9,FF,00,CB,B6,04,
4288695130,0000076C,false,Rx,0,8,0C,00,00,00,20,20,40,00,
4288696715,0000022A,false,Rx,0,4,00,00,70,17,00,00,00,00,
4288696964,000003B2,false,Rx,0,8,5E,0F,F9,FF,00,CB,B6,04,
4288697189,00000545,false,Rx,0,8,03,19,64,32,19,00,70,85,
4288705122,0000076C,false,Rx,0,8,0D,04,32,8F,BB,28,00,00,
4288706717,0000022A,false,Rx,0,4,00,00,70,17,00,00,00,00,
4288706956,000003B2,false,Rx,0,8,5D,0F,F9,FF,00,CB,B6,04,
4288715120,0000076C,false,Rx,0,8,0E,A0,AA,B3,BD,02,00,00,
4288716725,0000022A,false,Rx,0,4,00,00,70,17,00,00,00,00,
4288716963,000003B2,false,Rx,0,8,5E,0F,F9,FF,00,CB,B6,04,
4288725126,0000076C,false,Rx,0,8,14,1A,40,00,64,00,40,00,
4288726722,0000022A,false,Rx,0,4,00,00,70,17,00,00,00,00,
4288726960,000003B2,false,Rx,0,8,5D,0F,F9,FF,00,CB,B6,04,
4288735122,0000076C,false,Rx,0,8,15,00,00,D0,20,00,00,00,
4288736717,0000022A,false,Rx,0,4,00,00,70,17,00,00,00,00,
4288736966,000003B2,false,Rx,0,8,5E,0F,F9,FF,00,CB,B6,04,
4288745120,0000076C,false,Rx,0,8,16,00,00,00,20,00,00,00,
4288746715,0000022A,false,Rx,0,4,00,00,70,17,00,00,00,00,
4288746953,000003B2,false,Rx,0,8,5D,0F,F9,FF,00,CB,B6,04,
4288747200,00000545,false,Rx,0,8,14,00,3F,70,9F,01,8A,37,
4288747376,00000333,false,Rx,0,4,04,30,29,07,00,00,00,00,
4288747573,000002B2,false,Rx,0,5,C8,00,00,05,78,00,00,00,
4288747802,000003A1,false,Rx,0,8,09,62,78,9D,08,2C,12,5A,
4288748051,00000321,false,Rx,0,8,2C,B6,A8,7F,02,7F,00,00,
4288748289,0000025D,false,Rx,0,8,D9,8C,01,B5,4A,C1,0A,E0,
4288748456,0000023D,false,Rx,0,4,0A,40,FF,00,00,00,00,00,
4288748705,0000021D,false,Rx,0,8,2D,20,00,20,80,00,60,10,
4288748954,00000232,false,Rx,0,8,0A,02,D5,09,CB,04,00,00,
4288749162,0000020A,false,Rx,0,6,F6,15,09,82,18,01,00,00,
4288749393,00000212,false,Rx,0,8,B9,1C,94,AD,C3,15,06,63,
4288755121,0000076C,false,Rx,0,8,17,04,32,8F,BB,28,00,00,
4288756716,0000022A,false,Rx,0,4,00,00,70,17,00,00,00,00,
4288756955,000003B2,false,Rx,0,8,5E,0F,F9,FF,00,CB,B6,04,
4288765107,0000076C,false,Rx,0,8,18,9F,AA,B3,BD,02,00,00,
4288766712,0000022A,false,Rx,0,4,00,00,70,17,00,00,00,00,
4288766951,000003B2,false,Rx,0,8,5D,0F,F9,FF,00,CB,B6,04,
4288767269,000002C4,false,Rx,0,8,0D,00,00,00,00,00,00,00,
4288767528,00000204,false,Rx,0,8,01,00,00,00,00,00,00,10,
4288767748,00000264,false,Rx,0,6,34,00,00,00,A0,00,00,00,
4288768088,00000224,false,Rx,0,8,00,04,00,00,00,00,00,08,
4288775121,0000076C,false,Rx,0,8,1E,14,20,00,64,00,40,00,
4288776717,0000022A,false,Rx,0,4,00,00,70,17,00,00,00,00,
4288776966,000003B2,false,Rx,0,8,5E,0F,F9,FF,00,CB,B6,04,
4288785129,0000076C,false,Rx,0,8,1F,00,00,D0,20,00,00,00,
4288786725,0000022A,false,Rx,0,4,00,00,70,17,00,00,00,00,
4288786964,000003B2,false,Rx,0,8,5D,0F,F9,FF,00,CB,B6,04,
4288795116,0000076C,false,Rx,0,8,20,00,00,00,30,00,00,00,
4288796721,0000022A,false,Rx,0,4,00,00,70,17,00,00,00,00,
4288796959,000003B2,false,Rx,0,8,5E,0F,F9,FF,00,CB,B6,04,
4288797195,00000545,false,Rx,0,8,03,19,64,32,19,00,90,A5,
4288805109,0000076C,false,Rx,0,8,21,04,32,8F,BB,28,00,00,
4288806715,0000022A,false,Rx,0,4,00,00,70,17,00,00,00,00,
4288806953,000003B2,false,Rx,0,8,5D,0F,F9,FF,00,CB,B6,04,
4288815105,0000076C,false,Rx,0,8,22,9F,AA,B3,BD,02,00,00,
4288816711,0000022A,false,Rx,0,4,00,00,70,17,00,00,00,00,
4288816960,000003B2,false,Rx,0,8,5E,0F,F9,FF,00,CB,B6,04,
4288825122,0000076C,false,Rx,0,8,33,00,00,00,00,44,20,84,
4288826729,0000022A,false,Rx,0,4,00,00,70,17,00,00,00,00,
4288826966,000003B2,false,Rx,0,8,5D,0F,F9,FF,00,CB,B6,04,
4288835119,0000076C,false,Rx,0,8,34,00,00,00,00,00,00,00,
4288836716,0000022A,false,Rx,0,4,00,00,70,17,00,00,00,00,
4288836964,000003B2,false,Rx,0,8,5E,0F,F9,FF,00,CB,B6,04,
4288845116,0000076C,false,Rx,0,8,35,2A,00,00,00,00,00,00,
4288846723,0000022A,false,Rx,0,4,00,00,70,17,00,00,00,00,
4288846960,000003B2,false,Rx,0,8,5D,0F,F9,FF,00,CB,B6,04,
4288847206,00000545,false,Rx,0,8,14,00,3F,70,9F,01,AA,57,
4288847383,00000333,false,Rx,0,4,04,30,29,07,00,00,00,00,
4288847581,000002B2,false,Rx,0,5,C8,00,00,05,78,00,00,00,
4288847809,000003A1,false,Rx,0,8,09,62,78,9D,08,2C,12,5A,
4288848057,00000321,false,Rx,0,8,2C,B6,A8,7F,02,7F,00,00,
4288848297,0000025D,false,Rx,0,8,D9,8C,01,B5,4A,C1,0A,E0,
4288848463,0000023D,false,Rx,0,4,0A,40,FF,00,00,00,00,00,
4288848712,0000021D,false,Rx,0,8,2D,20,00,20,80,00,60,10,
4288848960,00000232,false,Rx,0,8,0A,02,D5,09,CB,04,00,00,
4288849191,0000020A,false,Rx,0,6,F6,15,09,82,18,01,00,00,
4288849398,00000212,false,Rx,0,8,B9,1C,94,AD,C3,15,06,63,
4288855128,0000076C,false,Rx,0,8,64,00,00,3E,AA,53,1C,00,
4288856713,0000022A,false,Rx,0,4,00,00,70,17,00,00,00,00,
4288856961,000003B2,false,Rx,0,8,5E,0F,F9,FF,00,CB,B6,04,
4288865115,0000076C,false,Rx,0,8,66,00,00,00,00,00,00,00,
4288866710,0000022A,false,Rx,0,4,00,00,70,17,00,00,00,00,
4288866958,000003B2,false,Rx,0,8,5D,0F,F9,FF,00,CB,B6,04,
4288867266,000002C4,false,Rx,0,8,12,00,00,00,00,00,00,00,
4288867526,00000204,false,Rx,0,8,01,00,00,00,00,00,00,10,
4288867734,00000264,false,Rx,0,6,34,00,00,00,A0,00,00,00,
4288868075,00000224,false,Rx,0,8,00,04,00,00,00,00,00,08,
4288875111,0000076C,false,Rx,0,8,67,00,00,00,00,00,00,00,
4288876726,0000022A,false,Rx,0,4,00,00,70,17,00,00,00,00,
4288876964,000003B2,false,Rx,0,8,5E,0F,F9,FF,00,CB,B6,04,
4288885107,0000076C,false,Rx,0,8,68,00,00,00,00,00,00,00,
4288886723,0000022A,false,Rx,0,4,00,00,70,17,00,00,00,00,
4288886960,000003B2,false,Rx,0,8,5D,0F,F9,FF,00,CB,B6,04,
4288895105,0000076C,false,Rx,0,8,69,00,00,00,00,00,9D,FF,
4288896720,0000022A,false,Rx,0,4,00,00,70,17,00,00,00,00,
4288896958,000003B2,false,Rx,0,8,5E,0F,F9,FF,00,CB,B6,04,
4288897194,00000545,false,Rx,0,8,03,19,64,32,19,00,B0,C5,
4288905118,0000076C,false,Rx,0,8,6A,00,00,00,00,00,00,00,
4288906713,0000022A,false,Rx,0,4,00,00,70,17,00,00,00,00,
4288906950,000003B2,false,Rx,0,8,5D,0F,F9,FF,00,CB,B6,04,
4288915094,0000076C,false,Rx,0,8,6B,CD,06,00,00,00,00,00,
4288916710,0000022A,false,Rx,0,4,00,00,70,17,00,00,00,00,
4288916958,000003B2,false,Rx,0,8,5E,0F,F9,FF,00,CB,B6,04,
4288925111,0000076C,false,Rx,0,8,6C,00,00,00,00,00,1C,00,
4288926717,0000022A,false,Rx,0,4,00,00,70,17,00,00,00,00,
4288926954,000003B2,false,Rx,0,8,5D,0F,F9,FF,00,CB,B6,04,
4288935097,0000076C,false,Rx,0,8,6D,00,00,00,00,00,00,00,
4288936723,0000022A,false,Rx,0,4,00,00,70,17,00,00,00,00,
4288936960,000003B2,false,Rx,0,8,5E,0F,F9,FF,00,CB,B6,04,
4288945094,0000076C,false,Rx,0,8,6E,00,00,00,00,00,00,00,
4288946720,0000022A,false,Rx,0,4,00,00,70,17,00,00,00,00,
4288946958,000003B2,false,Rx,0,8,5D,0F,F9,FF,00,CB,B6,04,
4288947204,00000545,false,Rx,0,8,14,00,3F,70,9F,01,CA,77,
4288947382,00000333,false,Rx,0,4,04,30,29,07,00,00,00,00,
4288947579,000002B2,false,Rx,0,5,C8,00,00,05,78,00,00,00,
4288947817,000003A1,false,Rx,0,8,09,62,78,9D,08,2C,12,5A,
4288948056,00000321,false,Rx,0,8,2C,B6,A8,7F,02,7F,00,00,
4288948294,0000025D,false,Rx,0,8,D9,8C,01,B5,4A,C1,0A,E0,
4288948471,0000023D,false,Rx,0,4,0A,40,FF,00,00,00,00,00,
4288948709,0000021D,false,Rx,0,8,2D,20,00,20,80,00,60,10,
4288948959,00000232,false,Rx,0,8,0A,02,D5,09,CB,04,00,00,
4288949168,0000020A,false,Rx,0,6,F6,15,09,82,18,01,00,00,
4288949395,00000212,false,Rx,0,8,B9,1C,94,AD,C3,15,06,63,
4288955107,0000076C,false,Rx,0,8,6F,00,00,00,00,00,00,00,
4288956722,0000022A,false,Rx,0,4,00,00,70,17,00,00,00,00,
4288956960,000003B2,false,Rx,0,8,5E,0F,F9,FF,00,CB,B6,04,
4288965103,0000076C,false,Rx,0,8,70,00,00,00,00,00,00,00,
4288966719,0000022A,false,Rx,0,4,00,00,70,17,00,00,00,00,
4288966956,000003B2,false,Rx,0,8,5D,0F,F9,FF,00,CB,B6,04,
4288967254,000002C4,false,Rx,0,8,13,00,00,00,00,00,00,00,
4288967513,00000204,false,Rx,0,8,01,00,00,00,00,00,00,10,
4288967722,00000264,false,Rx,0,6,34,00,00,00,A0,00,00,00,
4288968064,00000224,false,Rx,0,8,00,04,00,00,00,00,00,08,
4288975099,0000076C,false,Rx,0,8,71,33,30,00,33,38,80,00,
4288976715,0000022A,false,Rx,0,4,00,00,70,17,00,00,00,00,
4288976952,000003B2,false,Rx,0,8,5E,0F,F9,FF,00,CB,B6,04,
4288985095,0000076C,false,Rx,0,8,77,00,00,01,6F,10,00,00,
4288986721,0000022A,false,Rx,0,4,00,00,79,17,00,00,00,00,
4288986959,000003B2,false,Rx,0,8,5D,0F,F9,FF,00,CB,B6,04,
4288987205,00000424,false,Rx,0,8,4C,80,05,00,00,00,00,A0,
4288995089,0000076C,false,Rx,0,8,78,00,00,FF,6E,10,00,00,
4288996715,0000022A,false,Rx,0,4,00,00,79,17,00,00,00,00,
4288996963,000003B2,false,Rx,0,8,5E,0F,F9,FF,00,CB,B6,04,
4288997188,00000545,false,Rx,0,8,03,19,64,32,19,00,D0,E5,
4289005102,0000076C,false,Rx,0,8,79,00,00,00,00,00,00,00,
4289006718,0000022A,false,Rx,0,4,00,00,79,17,00,00,00,00,
4289006955,000003B2,false,Rx,0,8,5D,0F,F9,FF,00,CB,B6,04,
4289015089,0000076C,false,Rx,0,8,7A,01,09,00,00,00,00,00,
4289016715,0000022A,false,Rx,0,4,00,00,79,17,00,00,00,00,
4289016952,000003B2,false,Rx,0,8,5E,0F,F9,FF,00,CB,B6,04,
4289025095,0000076C,false,Rx,0,8,7E,75,50,01,8B,00,1F,21,
4289026721,0000022A,false,Rx,0,4,00,00,79,17,00,00,00,00,
4289026959,000003B2,false,Rx,0,8,5D,0F,F9,FF,00,CB,B6,04,
4289035142,0000076C,false,Rx,0,8,01,10,10,15,20,15,25,00,
4289036717,0000022A,false,Rx,0,4,00,00,79,17,00,00,00,00,
4289036965,000003B2,false,Rx,0,8,5E,0F,F9,FF,00,CB,B6,04,
4289045087,0000076C,false,Rx,0,8,02,02,02,02,03,00,01,00,
4289046713,0000022A,false,Rx,0,4,00,00,79,17,00,00,00,00,
4289046961,000003B2,false,Rx,0,8,5D,0F,F9,FF,00,CB,B6,04,
4289047197,00000545,false,Rx,0,8,14,00,3F,70,9F,01,EA,97,
4289047374,00000333,false,Rx,0,4,04,30,29,07,00,00,00,00,
4289047570,000002B2,false,Rx,0,5,C8,00,00,05,78,00,00,00,
4289047809,000003A1,false,Rx,0,8,09,62,78,9D,08,2C,12,5A,
4289048049,00000321,false,Rx,0,8,2C,B6,A8,7F,02,7F,00,00,
4289048287,0000025D,false,Rx,0,8,D9,8C,01,B5,4A,C1,0A,E0,
4289048463,0000023D,false,Rx,0,4,0A,40,FF,00,00,00,00,00,
4289048703,0000021D,false,Rx,0,8,2D,20,00,20,80,00,60,10,
4289048951,00000232,false,Rx,0,8,0A,02,D5,09,CB,04,00,00,
4289049191,0000076C,false,Rx,0,8,7B,00,00,00,00,00,00,00,
4289049399,0000020A,false,Rx,0,6,F6,15,09,82,18,01,00,00,
4289049649,0000076C,false,Rx,0,8,7C,00,00,00,00,00,00,00,
4289049877,00000212,false,Rx,0,8,B9,1C,94,AD,C3,15,06,63,
4289050125,0000076C,false,Rx,0,8,7D,00,00,00,00,00,00,00,
4289050406,0000076C,false,Rx,0,8,7B,00,00,00,00,00,00,00,
4289050676,0000076C,false,Rx,0,8,7C,00,00,00,00,00,00,00,
4289050935,0000076C,false,Rx,0,8,7D,00,00,00,00,00,00,00,
4289051205,0000076C,false,Rx,0,8,7B,00,00,00,00,00,00,00,
4289051464,0000076C,false,Rx,0,8,7C,00,00,00,00,00,00,00,
4289051724,0000076C,false,Rx,0,8,7D,00,00,00,00,00,00,00,
4289052087,0000076C,false,Rx,0,8,7B,00,00,00,00,00,00,00,
4289052345,0000076C,false,Rx,0,8,7C,00,00,00,00,00,00,00,
4289052617,0000076C,false,Rx,0,8,7D,00,00,00,00,00,00,00,
4289053081,0000076C,false,Rx,0,8,7B,00,00,00,00,00,00,00,
4289053350,0000076C,false,Rx,0,8,7C,00,00,00,00,00,00,00,
4289053610,0000076C,false,Rx,0,8,7D,00,00,00,00,00,00,00,
4289054075,0000076C,false,Rx,0,8,7B,00,00,00,00,00,00,00,
4289054344,0000076C,false,Rx,0,8,7C,00,00,00,00,00,00,00,
4289054604,0000076C,false,Rx,0,8,7D,00,00,00,00,00,00,00,
4289055100,0000076C,false,Rx,0,8,03,62,62,4B,4B,65,70,00,
4289055345,0000076C,false,Rx,0,8,7B,00,00,00,00,00,00,00,
4289055617,0000076C,false,Rx,0,8,7C,00,00,00,00,00,00,00,
4289055876,0000076C,false,Rx,0,8,7D,00,00,00,00,00,00,00,
4289056134,0000076C,false,Rx,0,8,7B,00,00,00,00,00,00,00,
4289056404,0000076C,false,Rx,0,8,7C,00,00,00,00,00,00,00,
4289056675,0000076C,false,Rx,0,8,7D,00,00,00,00,00,00,00,
4289056841,0000022A,false,Rx,0,4,00,00,79,17,00,00,00,00,
4289057088,000003B2,false,Rx,0,8,5E,0F,F9,FF,00,CB,B6,04,
4289057328,0000076C,false,Rx,0,8,7B,00,00,00,00,00,00,00,
4289057608,0000076C,false,Rx,0,8,7C,00,00,00,00,00,00,00,
4289057878,0000076C,false,Rx,0,8,7D,00,00,00,00,00,00,00,
4289058127,0000076C,false,Rx,0,8,7B,00,00,00,00,00,00,00,
4289058406,0000076C,false,Rx,0,8,7C,00,00,00,00,00,00,00,
4289058667,0000076C,false,Rx,0,8,7D,00,00,00,00,00,00,00,
4289059080,0000076C,false,Rx,0,8,7B,00,00,00,00,00,00,00,
4289059347,0000076C,false,Rx,0,8,7C,00,00,00,00,00,00,00,
4289059619,0000076C,false,Rx,0,8,7D,00,00,00,00,00,00,00,
4289060083,0000076C,false,Rx,0,8,7B,00,00,00,00,00,00,00,
4289060343,0000076C,false,Rx,0,8,7C,00,00,00,00,00,00,00,
4289060613,0000076C,false,Rx,0,8,7D,00,00,00,00,00,00,00,
4289061079,0000076C,false,Rx,0,8,7B,00,00,00,00,00,00,00,
4289061344,0000076C,false,Rx,0,8,7C,00,00,00,00,00,00,00,
4289061604,0000076C,false,Rx,0,8,7D,00,00,00,00,00,00,00,
4289062079,0000076C,false,Rx,0,8,7B,00,00,00,00,00,00,00,
4289062348,0000076C,false,Rx,0,8,7C,00,00,00,00,00,00,00,
4289062610,0000076C,false,Rx,0,8,7D,00,00,00,00,00,00,00,
4289063084,0000076C,false,Rx,0,8,7B,00,00,00,00,00,00,00,
4289063340,0000076C,false,Rx,0,8,7C,00,00,00,00,00,00,00,
4289063600,0000076C,false,Rx,0,8,7D,00,00,00,00,00,00,00,
4289064086,0000076C,false,Rx,0,8,7B,00,00,00,00,00,00,00,
4289064355,0000076C,false,Rx,0,8,7C,00,00,00,00,00,00,00,
4289064615,0000076C,false,Rx,0,8,7D,00,00,00,00,00,00,00,
4289065111,0000076C,false,Rx,0,8,04,17,18,00,07,00,02,00,
4289065367,0000076C,false,Rx,0,8,7B,00,00,00,00,00,00,00,
4289065628,0000076C,false,Rx,0,8,7C,00,00,00,00,00,00,00,
4289065897,0000076C,false,Rx,0,8,7D,00,00,00,00,00,00,00,
4289066155,0000076C,false,Rx,0,8,7B,00,00,00,00,00,00,00,
4289066415,0000076C,false,Rx,0,8,7C,00,00,00,00,00,00,00,
4289066675,0000076C,false,Rx,0,8,7D,00,00,00,00,00,00,00,
4289066842,0000022A,false,Rx,0,4,00,00,79,17,00,00,00,00,
4289067091,000003B2,false,Rx,0,8,5D,0F,F9,FF,00,CB,B6,04,
4289067329,0000076C,false,Rx,0,8,7B,00,00,00,00,00,00,00,
4289067581,000002C4,false,Rx,0,8,14,00,00,00,19,02,00,00,
4289067829,0000076C,false,Rx,0,8,7C,00,00,00,00,00,00,00,
4289068079,00000204,false,Rx,0,8,01,00,00,00,00,00,00,10,
4289068327,0000076C,false,Rx,0,8,7D,00,00,00,00,00,00,00,
4289068535,00000264,false,Rx,0,6,34,00,00,00,A0,00,00,00,
4289068785,00000224,false,Rx,0,8,84,35,00,00,00,10,10,08,
4289069075,000003C4,false,Rx,0,8,12,16,48,B4,7A,66,41,FD,
4289069323,0000076C,false,Rx,0,8,7B,00,00,00,00,00,00,00,
4289069605,0000076C,false,Rx,0,8,7C,00,00,00,00,00,00,00,
4289069864,0000076C,false,Rx,0,8,7D,00,00,00,00,00,00,00,
4289070123,0000076C,false,Rx,0,8,7B,00,00,00,00,00,00,00,
4289070413,0000076C,false,Rx,0,8,7C,00,00,00,00,00,00,00,
4289070674,0000076C,false,Rx,0,8,7D,00,00,00,00,00,00,00,
4289071077,0000076C,false,Rx,0,8,7B,00,00,00,00,00,00,00,
4289071346,0000076C,false,Rx,0,8,7C,00,00,00,00,00,00,00,
4289071615,0000076C,false,Rx,0,8,7D,00,00,00,00,00,00,00,
4289072080,0000076C,false,Rx,0,8,7B,00,00,00,00,00,00,00,
4289072339,0000076C,false,Rx,0,8,7C,00,00,00,00,00,00,00,
4289072600,0000076C,false,Rx,0,8,7D,00,00,00,00,00,00,00,
4289073085,0000076C,false,Rx,0,8,7B,00,00,00,00,00,00,00,
4289073355,0000076C,false,Rx,0,8,7C,00,00,00,00,00,00,00,
4289073612,0000076C,false,Rx,0,8,7D,00,00,00,00,00,00,00,
4289074078,0000076C,false,Rx,0,8,7B,00,00,00,00,00,00,00,
4289074336,0000076C,false,Rx,0,8,7C,00,00,00,00,00,00,00,
4289074606,0000076C,false,Rx,0,8,7D,00,00,00,00,00,00,00,
4289075103,0000076C,false,Rx,0,8,05,AB,D4,36,42,DC,2E,00,
4289075351,0000076C,false,Rx,0,8,7B,00,00,00,00,00,00,00,
4289075619,0000076C,false,Rx,0,8,7C,00,00,00,00,00,00,00,
4289075878,0000076C,false,Rx,0,8,7D,00,00,00,00,00,00,00,
4289076136,0000076C,false,Rx,0,8,7B,00,00,00,00,00,00,00,
4289076407,0000076C,false,Rx,0,8,7C,00,00,00,00,00,00,00,
4289076666,0000076C,false,Rx,0,8,7D,00,00,00,00,00,00,00,
4289076833,0000022A,false,Rx,0,4,00,00,79,17,00,00,00,00,
4289077082,000003B2,false,Rx,0,8,5E,0F,F9,FF,00,CB,B6,04,
4289077330,0000076C,false,Rx,0,8,7B,00,00,00,00,00,00,00,
4289077611,0000076C,false,Rx,0,8,7C,00,00,00,00,00,00,00,
4289077881,0000076C,false,Rx,0,8,7D,00,00,00,00,00,00,00,
4289078140,0000076C,false,Rx,0,8,7B,00,00,00,00,00,00,00,
4289078408,0000076C,false,Rx,0,8,7C,00,00,00,00,00,00,00,
4289078670,0000076C,false,Rx,0,8,7D,00,00,00,00,00,00,00,
4289079082,0000076C,false,Rx,0,8,7B,00,00,00,00,00,00,00,
