Time Stamp,ID,Extended,Dir,Bus,LEN,D1,D2,D3,D4,D5,D6,D7,D8
4362730132,0000022A,false,Rx,0,4,00,00,70,17,00,00,00,00,
4362730375,000003B2,false,Rx,0,8,E3,5D,FB,FF,0C,66,BB,06,
4362740124,0000022A,false,Rx,0,4,00,00,70,17,00,00,00,00,
4362740367,000003B2,false,Rx,0,8,E5,0D,EB,FF,0C,66,BB,11,
4362750116,0000022A,false,Rx,0,4,00,00,70,17,00,00,00,00,
4362750370,000003B2,false,Rx,0,8,E3,5D,FB,FF,0C,66,BB,06,
4362760182,00000545,false,Rx,0,8,03,19,64,32,19,00,30,45,
4362760364,00000333,false,Rx,0,4,04,30,29,07,00,00,00,00,
4362760572,000002B2,false,Rx,0,5,00,00,00,05,78,00,00,00,
4362760811,000003A1,false,Rx,0,8,09,62,78,9D,08,2C,12,5A,
4362761070,00000321,false,Rx,0,8,2C,B6,A8,7F,02,7F,00,00,
4362761318,0000025D,false,Rx,0,8,D9,8C,01,B5,4A,C1,0A,E0,
4362761496,0000023D,false,Rx,0,4,0A,40,FF,0F,00,00,00,00,
4362761755,0000021D,false,Rx,0,8,2D,7E,00,20,80,00,60,10,
4362762004,00000232,false,Rx,0,8,0A,02,D5,09,CB,04,00,00,
4362762241,0000020A,false,Rx,0,6,F6,15,09,82,18,01,00,00,
4362762472,00000212,false,Rx,0,8,B9,1C,94,AD,C3,15,06,63,
4362762659,0000022A,false,Rx,0,4,00,00,70,17,00,00,00,00,
4362762906,000003B2,false,Rx,0,8,E5,0D,EB,FF,0C,66,BB,11,
4362770126,0000022A,false,Rx,0,4,00,00,70,17,00,00,00,00,
4362770369,000003B2,false,Rx,0,8,E3,5D,FB,FF,0C,66,BB,06,
4362780117,0000022A,false,Rx,0,4,00,00,70,17,00,00,00,00,
4362780360,000003B2,false,Rx,0,8,E5,0D,EB,FF,0C,66,BB,11,
4362790120,0000022A,false,Rx,0,4,00,00,70,17,00,00,00,00,
4362790374,000003B2,false,Rx,0,8,E3,5D,FB,FF,0C,66,BB,06,
4362800122,0000022A,false,Rx,0,4,00,00,70,17,00,00,00,00,
4362800366,000003B2,false,Rx,0,8,E5,0D,EB,FF,0C,66,BB,11,
4362800863,00000504,false,Rx,0,8,00,1B,05,03,00,01,00,01,
4362810121,0000022A,false,Rx,0,4,00,00,70,17,00,00,00,00,
4362810364,000003B2,false,Rx,0,8,E3,5D,FB,FF,0C,66,BB,06,
4362810614,00000545,false,Rx,0,8,14,00,3F,70,9F,01,4A,F7,
4362820127,0000022A,false,Rx,0,4,00,00,70,17,00,00,00,00,
4362820360,000003B2,false,Rx,0,8,E5,0D,EB,FF,0C,66,BB,11,
4362830120,0000022A,false,Rx,0,4,00,00,70,17,00,00,00,00,
4362830363,000003B2,false,Rx,0,8,E3,5D,FB,FF,0C,66,BB,06,
4362840122,0000022A,false,Rx,0,4,00,00,70,17,00,00,00,00,
4362840355,000003B2,false,Rx,0,8,E5,0D,EB,FF,0C,66,BB,11,
4362850127,0000022A,false,Rx,0,4,00,00,70,17,00,00,00,00,
4362850370,000003B2,false,Rx,0,8,E3,5D,FB,FF,0C,66,BB,06,
4362860121,0000022A,false,Rx,0,4,00,00,70,17,00,00,00,00,
4362860364,000003B2,false,Rx,0,8,E5,0D,EB,FF,0C,66,BB,11,
4362860593,00000545,false,Rx,0,8,03,19,64,32,19,00,50,65,
4362860770,00000333,false,Rx,0,4,04,30,29,07,00,00,00,00,
4362860967,000002B2,false,Rx,0,5,00,00,00,05,78,00,00,00,
4362861194,000003A1,false,Rx,0,8,09,62,78,9D,08,2C,12,5A,
4362861445,00000321,false,Rx,0,8,2C,B6,A8,7F,02,7F,00,00,
4362861683,0000025D,false,Rx,0,8,D9,8C,01,B5,4A,C1,0A,E0,
4362861849,0000023D,false,Rx,0,4,0A,40,FF,0F,00,00,00,00,
4362862097,0000021D,false,Rx,0,8,2D,7E,00,20,80,00,60,10,
4362862338,00000232,false,Rx,0,8,0A,02,D5,09,CB,04,00,00,
4362862557,0000020A,false,Rx,0,6,F6,15,09,82,18,01,00,00,
4362862784,00000212,false,Rx,0,8,B9,1C,94,AD,C3,15,06,63,
4362870114,0000022A,false,Rx,0,4,00,00,70,17,00,00,00,00,
4362870358,000003B2,false,Rx,0,8,E3,5D,FB,FF,0C,66,BB,06,
4362880127,0000022A,false,Rx,0,4,00,00,70,17,00,00,00,00,
4362880360,000003B2,false,Rx,0,8,E5,0D,EB,FF,0C,66,BB,11,
4362890121,0000022A,false,Rx,0,4,00,00,70,17,00,00,00,00,
4362890364,000003B2,false,Rx,0,8,E3,5D,FB,FF,0C,66,BB,06,
4362900114,0000022A,false,Rx,0,4,00,00,70,17,00,00,00,00,
4362900358,000003B2,false,Rx,0,8,E5,0D,EB,FF,0C,66,BB,11,
4362910127,0000022A,false,Rx,0,4,00,00,70,17,00,00,00,00,
4362910370,000003B2,false,Rx,0,8,E3,5D,FB,FF,0C,66,BB,06,
4362910611,00000545,false,Rx,0,8,14,00,3F,70,9F,01,6A,17,
4362920123,0000022A,false,Rx,0,4,00,00,70,17,00,00,00,00,
4362920356,000003B2,false,Rx,0,8,E5,0D,EB,FF,0C,66,BB,11,
4362930128,0000022A,false,Rx,0,4,00,00,70,17,00,00,00,00,
4362930361,000003B2,false,Rx,0,8,E3,5D,FB,FF,0C,66,BB,06,
4362940120,0000022A,false,Rx,0,4,00,00,70,17,00,00,00,00,
4362940363,000003B2,false,Rx,0,8,E5,0D,EB,FF,0C,66,BB,11,
4362950114,0000022A,false,Rx,0,4,00,00,70,17,00,00,00,00,
4362950357,000003B2,false,Rx,0,8,E3,5D,FB,FF,0C,66,BB,06,
4362960117,0000022A,false,Rx,0,4,00,00,70,17,00,00,00,00,
4362960350,000003B2,false,Rx,0,8,E5,0D,EB,FF,0C,66,BB,11,
4362960590,00000545,false,Rx,0,8,03,19,64,32,19,00,70,85,
4362960756,00000333,false,Rx,0,4,04,30,29,07,00,00,00,00,
4362960953,000002B2,false,Rx,0,5,00,00,00,05,78,00,00,00,
4362961190,000003A1,false,Rx,0,8,09,62,78,9D,08,2C,12,5A,
4362961442,00000321,false,Rx,0,8,2C,B6,A8,7F,02,7F,00,00,
4362961670,0000025D,false,Rx,0,8,D9,8C,01,B5,4A,C1,0A,E0,
4362961847,0000023D,false,Rx,0,4,0A,40,FF,0F,00,00,00,00,
4362962095,0000021D,false,Rx,0,8,2D,7E,00,20,80,00,60,10,
4362962335,00000232,false,Rx,0,8,0A,02,D5,09,CB,04,00,00,
4362962544,0000020A,false,Rx,0,6,F6,15,09,82,18,01,00,00,
4362962783,00000212,false,Rx,0,8,B9,1C,94,AD,C3,15,06,63,
4362970121,0000022A,false,Rx,0,4,00,00,70,17,00,00,00,00,
4362970365,000003B2,false,Rx,0,8,E3,5D,FB,FF,0C,66,BB,06,
4362980115,0000022A,false,Rx,0,4,00,00,70,17,00,00,00,00,
4362980358,000003B2,false,Rx,0,8,E5,0D,EB,FF,0C,66,BB,11,
4362990117,0000022A,false,Rx,0,4,00,00,70,17,00,00,00,00,
4362990360,000003B2,false,Rx,0,8,E3,5D,FB,FF,0C,66,BB,06,
4363000121,0000022A,false,Rx,0,4,00,00,70,17,00,00,00,00,
4363000364,000003B2,false,Rx,0,8,E5,0D,EB,FF,0C,66,BB,11,
4363010123,0000022A,false,Rx,0,4,00,00,70,17,00,00,00,00,
4363010366,000003B2,false,Rx,0,8,E3,5D,FB,FF,0C,66,BB,06,
4363010606,00000545,false,Rx,0,8,14,00,3F,70,9F,01,8A,37,
4363020120,0000022A,false,Rx,0,4,00,00,70,17,00,00,00,00,
4363020364,000003B2,false,Rx,0,8,E5,0D,EB,FF,0C,66,BB,11,
4363030122,0000022A,false,Rx,0,4,00,00,70,17,00,00,00,00,
4363030366,000003B2,false,Rx,0,8,E3,5D,FB,FF,0C,66,BB,06,
4363040125,0000022A,false,Rx,0,4,00,00,70,17,00,00,00,00,
4363040359,000003B2,false,Rx,0,8,E5,0D,EB,FF,0C,66,BB,11,
4363050127,0000022A,false,Rx,0,4,00,00,70,17,00,00,00,00,
4363050362,000003B2,false,Rx,0,8,E3,5D,FB,FF,0C,66,BB,06,
4363060120,0000022A,false,Rx,0,4,00,00,70,17,00,00,00,00,
4363060364,000003B2,false,Rx,0,8,E5,0D,EB,FF,0C,66,BB,11,
4363060593,00000545,false,Rx,0,8,03,19,64,32,19,00,90,A5,
4363060770,00000333,false,Rx,0,4,04,30,29,07,00,00,00,00,
4363060966,000002B2,false,Rx,0,5,00,00,00,05,78,00,00,00,
4363061195,000003A1,false,Rx,0,8,09,62,78,9D,08,2C,12,5A,
4363061444,00000321,false,Rx,0,8,2C,B6,A8,7F,02,7F,00,00,
4363061682,0000025D,false,Rx,0,8,D9,8C,01,B5,4A,C1,0A,E0,
4363061850,0000023D,false,Rx,0,4,0A,40,FF,0F,00,00,00,00,
4363062097,0000021D,false,Rx,0,8,2D,7E,00,20,80,00,60,10,
4363062337,00000232,false,Rx,0,8,0A,02,D5,09,CB,04,00,00,
4363062556,0000020A,false,Rx,0,6,F6,15,09,82,18,01,00,00,
4363062785,00000212,false,Rx,0,8,B9,1C,94,AD,C3,15,06,63,
4363070115,0000022A,false,Rx,0,4,00,00,70,17,00,00,00,00,
4363070359,000003B2,false,Rx,0,8,E3,5D,FB,FF,0C,66,BB,06,
4363080130,0000022A,false,Rx,0,4,00,00,70,17,00,00,00,00,
4363080364,000003B2,false,Rx,0,8,E5,0D,EB,FF,0C,66,BB,11,
4363090122,0000022A,false,Rx,0,4,00,00,70,17,00,00,00,00,
4363090366,000003B2,false,Rx,0,8,E3,5D,FB,FF,0C,66,BB,06,
4363100115,0000022A,false,Rx,0,4,00,00,70,17,00,00,00,00,
4363100360,000003B2,false,Rx,0,8,E5,0D,EB,FF,0C,66,BB,11,
4363110120,0000022A,false,Rx,0,4,00,00,70,17,00,00,00,00,
4363110354,000003B2,false,Rx,0,8,E3,5D,FB,FF,0C,66,BB,06,
4363110603,00000545,false,Rx,0,8,14,00,3F,70,9F,01,AA,57,
4363120116,0000022A,false,Rx,0,4,00,00,70,17,00,00,00,00,
4363120360,000003B2,false,Rx,0,8,E5,0D,EB,FF,0C,66,BB,11,
4363130120,0000022A,false,Rx,0,4,00,00,70,17,00,00,00,00,
4363130354,000003B2,false,Rx,0,8,E3,5D,FB,FF,0C,66,BB,06,
4363140123,0000022A,false,Rx,0,4,00,00,70,17,00,00,00,00,
4363140357,000003B2,false,Rx,0,8,E5,0D,EB,FF,0C,66,BB,11,
4363150126,0000022A,false,Rx,0,4,00,00,70,17,00,00,00,00,
4363150360,000003B2,false,Rx,0,8,E3,5D,FB,FF,0C,66,BB,06,
4363160119,0000022A,false,Rx,0,4,00,00,70,17,00,00,00,00,
4363160353,000003B2,false,Rx,0,8,E5,0D,EB,FF,0C,66,BB,11,
4363160593,00000545,false,Rx,0,8,03,19,64,32,19,00,B0,C5,
4363160769,00000333,false,Rx,0,4,04,30,29,07,00,00,00,00,
4363160956,000002B2,false,Rx,0,5,00,00,00,05,78,00,00,00,
4363161194,000003A1,false,Rx,0,8,09,62,78,9D,08,2C,12,5A,
4363161443,00000321,false,Rx,0,8,2C,B6,A8,7F,02,7F,00,00,
4363161672,0000025D,false,Rx,0,8,D9,8C,01,B5,4A,C1,0A,E0,
4363161849,0000023D,false,Rx,0,4,0A,40,FF,0F,00,00,00,00,
4363162097,0000021D,false,Rx,0,8,2D,7E,00,20,80,00,60,10,
4363162337,00000232,false,Rx,0,8,0A,02,D5,09,CB,04,00,00,
4363162546,0000020A,false,Rx,0,6,F6,15,09,82,18,01,00,00,
4363162784,00000212,false,Rx,0,8,B9,1C,94,AD,C3,15,06,63,
4363170124,0000022A,false,Rx,0,4,00,00,70,17,00,00,00,00,
4363170368,000003B2,false,Rx,0,8,E3,5D,FB,FF,0C,66,BB,06,
4363180127,0000022A,false,Rx,0,4,00,00,70,17,00,00,00,00,
4363180360,000003B2,false,Rx,0,8,E5,0D,EB,FF,0C,66,BB,11,
4363190122,0000022A,false,Rx,0,4,00,00,70,17,00,00,00,00,
4363190355,000003B2,false,Rx,0,8,E3,5D,FB,FF,0C,66,BB,06,
4363200126,0000022A,false,Rx,0,4,00,00,70,17,00,00,00,00,
4363200359,000003B2,false,Rx,0,8,E5,0D,EB,FF,0C,66,BB,11,
4363210118,0000022A,false,Rx,0,4,00,00,70,17,00,00,00,00,
4363210361,000003B2,false,Rx,0,8,E3,5D,FB,FF,0C,66,BB,06,
4363210611,00000545,false,Rx,0,8,14,00,3F,70,9F,01,CA,77,
4363220115,0000022A,false,Rx,0,4,00,00,70,17,00,00,00,00,
4363220358,000003B2,false,Rx,0,8,E5,0D,EB,FF,0C,66,BB,11,
4363230128,0000022A,false,Rx,0,4,00,00,70,17,00,00,00,00,
4363230361,000003B2,false,Rx,0,8,E3,5D,FB,FF,0C,66,BB,06,
4363240121,0000022A,false,Rx,0,4,00,00,70,17,00,00,00,00,
4363240354,000003B2,false,Rx,0,8,E5,0D,EB,FF,0C,66,BB,11,
4363250115,0000022A,false,Rx,0,4,00,00,70,17,00,00,00,00,
4363250358,000003B2,false,Rx,0,8,E3,5D,FB,FF,0C,66,BB,06,
4363260179,00000545,false,Rx,0,8,03,19,64,32,19,00,D0,E5,
4363260352,00000333,false,Rx,0,4,04,30,29,07,00,00,00,00,
4363260549,000002B2,false,Rx,0,5,00,00,00,05,78,00,00,00,
4363260778,000003A1,false,Rx,0,8,09,62,78,9D,08,2C,12,5A,
4363261026,00000321,false,Rx,0,8,2C,B6,A8,7F,02,7F,00,00,
4363261264,0000025D,false,Rx,0,8,D9,8C,01,B5,4A,C1,0A,E0,
4363261432,0000023D,false,Rx,0,4,0A,40,FF,0F,00,00,00,00,
4363261681,0000021D,false,Rx,0,8,2D,7E,00,20,80,00,60,10,
4363261919,00000232,false,Rx,0,8,0A,02,D5,09,CB,04,00,00,
4363262137,0000020A,false,Rx,0,6,F6,15,09,82,18,01,00,00,
4363262367,00000212,false,Rx,0,8,B9,1C,94,AD,C3,15,06,63,
4363262545,0000022A,false,Rx,0,4,00,00,70,17,00,00,00,00,
4363262782,000003B2,false,Rx,0,8,E5,0D,EB,FF,0C,66,BB,11,
4363270122,0000022A,false,Rx,0,4,00,00,70,17,00,00,00,00,
4363270365,000003B2,false,Rx,0,8,E3,5D,FB,FF,0C,66,BB,06,
4363280115,0000022A,false,Rx,0,4,00,00,70,17,00,00,00,00,
4363280358,000003B2,false,Rx,0,8,E5,0D,EB,FF,0C,66,BB,11,
4363290127,0000022A,false,Rx,0,4,00,00,70,17,00,00,00,00,
4363290360,000003B2,false,Rx,0,8,E3,5D,FB,FF,0C,66,BB,06,
4363300121,0000022A,false,Rx,0,4,00,00,70,17,00,00,00,00,
4363300354,000003B2,false,Rx,0,8,E5,0D,EB,FF,0C,66,BB,11,
4363310115,0000022A,false,Rx,0,4,00,00,70,17,00,00,00,00,
4363310358,000003B2,false,Rx,0,8,E3,5D,FB,FF,0C,66,BB,06,
4363310597,00000545,false,Rx,0,8,14,00,3F,70,9F,01,EA,97,
4363320121,0000022A,false,Rx,0,4,00,00,70,17,00,00,00,00,
4363320364,000003B2,false,Rx,0,8,E5,0D,EB,FF,0C,66,BB,11,
4363330123,0000022A,false,Rx,0,4,00,00,70,17,00,00,00,00,
4363330356,000003B2,false,Rx,0,8,E3,5D,FB,FF,0C,66,BB,06,
4363340115,0000022A,false,Rx,0,4,00,00,70,17,00,00,00,00,
4363340358,000003B2,false,Rx,0,8,E5,0D,EB,FF,0C,66,BB,11,
4363350128,0000022A,false,Rx,0,4,00,00,70,17,00,00,00,00,
4363350361,000003B2,false,Rx,0,8,E3,5D,FB,FF,0C,66,BB,06,
4363360120,0000022A,false,Rx,0,4,00,00,70,17,00,00,00,00,
4363360363,000003B2,false,Rx,0,8,E5,0D,EB,FF,0C,66,BB,11,
4363360594,00000545,false,Rx,0,8,03,19,64,32,19,00,F0,05,
4363360770,00000333,false,Rx,0,4,04,30,29,07,00,00,00,00,
4363360967,000002B2,false,Rx,0,5,00,00,00,05,78,00,00,00,
4363361204,000003A1,false,Rx,0,8,09,62,78,9D,08,2C,12,5A,
4363361445,00000321,false,Rx,0,8,2C,B6,A8,7F,02,7F,00,00,
4363361683,0000025D,false,Rx,0,8,D9,8C,01,B5,4A,C1,0A,E0,
4363361859,0000023D,false,Rx,0,4,0A,40,FF,0F,00,00,00,00,
4363362107,0000021D,false,Rx,0,8,2D,7E,00,20,80,00,60,10,
4363362348,00000232,false,Rx,0,8,0A,02,D5,09,CB,04,00,00,
4363362556,0000020A,false,Rx,0,6,F6,15,09,82,18,01,00,00,
4363362794,00000212,false,Rx,0,8,B9,1C,94,AD,C3,15,06,63,
4363370115,0000022A,false,Rx,0,4,00,00,70,17,00,00,00,00,
4363370359,000003B2,false,Rx,0,8,E3,5D,FB,FF,0C,66,BB,06,
4363380128,0000022A,false,Rx,0,4,00,00,70,17,00,00,00,00,
4363380361,000003B2,false,Rx,0,8,E5,0D,EB,FF,0C,66,BB,11,
4363390121,0000022A,false,Rx,0,4,00,00,70,17,00,00,00,00,
4363390364,000003B2,false,Rx,0,8,E3,5D,FB,FF,0C,66,BB,06,
4363400123,0000022A,false,Rx,0,4,00,00,70,17,00,00,00,00,
4363400356,000003B2,false,Rx,0,8,E5,0D,EB,FF,0C,66,BB,11,
4363410116,0000022A,false,Rx,0,4,00,00,70,17,00,00,00,00,
4363410359,000003B2,false,Rx,0,8,E3,5D,FB,FF,0C,66,BB,06,
4363410600,00000545,false,Rx,0,8,14,00,3F,70,9F,01,0A,B7,
4363420124,0000022A,false,Rx,0,4,00,00,70,17,00,00,00,00,
4363420357,000003B2,false,Rx,0,8,E5,0D,EB,FF,0C,66,BB,11,
4363430116,0000022A,false,Rx,0,4,00,00,70,17,00,00,00,00,
4363430360,000003B2,false,Rx,0,8,E3,5D,FB,FF,0C,66,BB,06,
4363440120,0000022A,false,Rx,0,4,00,00,70,17,00,00,00,00,
4363440363,000003B2,false,Rx,0,8,E5,0D,EB,FF,0C,66,BB,11,
4363450123,0000022A,false,Rx,0,4,00,00,70,17,00,00,00,00,
4363450366,000003B2,false,Rx,0,8,E3,5D,FB,FF,0C,66,BB,06,
4363461246,0000022A,false,Rx,0,4,00,00,70,17,00,00,00,00,
4363461480,000003B2,false,Rx,0,8,E5,0D,EB,FF,0C,66,BB,11,
4363461718,00000545,false,Rx,0,8,03,19,64,32,19,00,10,25,
4363461895,00000333,false,Rx,0,4,04,30,29,07,00,00,00,00,
4363462092,000002B2,false,Rx,0,5,00,00,00,05,78,00,00,00,
4363462330,000003A1,false,Rx,0,8,09,62,78,9D,08,2C,12,5A,
4363462570,00000321,false,Rx,0,8,2C,B6,A8,7F,02,7F,00,00,
4363462809,0000025D,false,Rx,0,8,D9,8C,01,B5,4A,C1,0A,E0,
4363462975,0000023D,false,Rx,0,4,0A,40,FF,0F,00,00,00,00,
4363463223,0000021D,false,Rx,0,8,2D,7E,00,20,80,00,60,10,
4363463464,00000232,false,Rx,0,8,0A,02,D5,09,CB,04,00,00,
4363463683,0000020A,false,Rx,0,6,F6,15,09,82,18,01,00,00,
4363463911,00000212,false,Rx,0,8,B9,1C,94,AD,C3,15,06,63,
4363470111,0000022A,false,Rx,0,4,00,00,70,17,00,00,00,00,
4363470354,000003B2,false,Rx,0,8,E3,5D,FB,FF,0C,66,BB,06,
4363478892,0000076C,false,Rx,0,8,01,0D,0D,19,19,25,25,00,
4363480126,0000022A,false,Rx,0,4,00,00,70,17,00,00,00,00,
4363480363,000003B2,false,Rx,0,8,E5,0D,EB,FF,0C,66,BB,11,
4363481033,000002C4,false,Rx,0,8,46,28,3A,0A,00,00,00,7D,
4363481283,00000224,false,Rx,0,8,00,00,00,00,00,00,00,08,
4363482892,000002A4,false,Rx,0,8,71,57,FB,DA,D7,BE,76,26,
4363483048,00000364,false,Rx,0,2,00,78,00,00,00,00,00,00,
4363483306,000003A4,false,Rx,0,8,00,00,00,00,00,00,00,00,
4363488892,0000076C,false,Rx,0,8,02,01,01,02,02,01,01,00,
4363490126,0000022A,false,Rx,0,4,00,00,70,17,00,00,00,00,
4363490364,000003B2,false,Rx,0,8,E3,5D,FB,FF,0C,66,BB,06,
4363498879,0000076C,false,Rx,0,8,03,62,62,4B,4B,6E,6E,00,
4363500123,0000022A,false,Rx,0,4,00,00,70,17,00,00,00,00,
4363500361,000003B2,false,Rx,0,8,E5,0D,EB,FF,0C,66,BB,11,
4363508885,0000076C,false,Rx,0,8,04,15,15,00,05,00,02,00,
4363510119,0000022A,false,Rx,0,4,00,00,70,17,00,00,00,00,
4363510357,000003B2,false,Rx,0,8,E3,5D,FB,FF,0C,66,BB,06,
4363510596,00000545,false,Rx,0,8,14,00,3F,70,9F,01,2A,D7,
4363518877,0000076C,false,Rx,0,8,05,AD,BC,36,40,D4,2E,00,
4363520120,0000022A,false,Rx,0,4,00,00,70,17,00,00,00,00,
4363520359,000003B2,false,Rx,0,8,E5,0D,EB,FF,0C,66,BB,11,
4363528894,0000076C,false,Rx,0,8,0A,09,E0,00,64,00,00,00,
4363530127,0000022A,false,Rx,0,4,00,00,70,17,00,00,00,00,
4363530366,000003B2,false,Rx,0,8,E3,5D,FB,FF,0C,66,BB,06,
4363538882,0000076C,false,Rx,0,8,0B,0C,00,D0,20,00,00,00,
4363540126,0000022A,false,Rx,0,4,00,00,70,17,00,00,00,00,
4363540354,000003B2,false,Rx,0,8,E5,0D,EB,FF,0C,66,BB,11,
4363548889,0000076C,false,Rx,0,8,0C,00,00,00,20,20,40,00,
4363550123,0000022A,false,Rx,0,4,00,00,70,17,00,00,00,00,
4363550361,000003B2,false,Rx,0,8,E3,5D,FB,FF,0C,66,BB,06,
4363558876,0000076C,false,Rx,0,8,0D,04,32,8F,BB,28,00,00,
4363560120,0000022A,false,Rx,0,4,00,00,70,17,00,00,00,00,
4363560359,000003B2,false,Rx,0,8,E5,0D,EB,FF,0C,66,BB,11,
4363560588,00000545,false,Rx,0,8,03,19,64,32,19,00,30,45,
4363560765,00000333,false,Rx,0,4,04,30,29,07,00,00,00,00,
4363560962,000002B2,false,Rx,0,5,00,00,00,05,78,00,00,00,
4363561201,000003A1,false,Rx,0,8,09,62,78,9D,08,2C,12,5A,
4363561440,00000321,false,Rx,0,8,2C,B6,A8,7F,02,7F,00,00,
4363561679,0000025D,false,Rx,0,8,D9,8C,01,B5,4A,C1,0A,E0,
4363561846,0000023D,false,Rx,0,4,0A,40,FF,0F,00,00,00,00,
4363562094,0000021D,false,Rx,0,8,2D,7E,00,20,80,00,60,10,
4363562342,00000232,false,Rx,0,8,0A,02,D5,09,CB,04,00,00,
4363562551,0000020A,false,Rx,0,6,F6,15,09,82,18,01,00,00,
4363562780,00000212,false,Rx,0,8,B9,1C,94,AD,C3,15,06,63,
4363568876,0000076C,false,Rx,0,8,0E,AF,AA,A8,BD,02,00,00,
4363570121,0000022A,false,Rx,0,4,00,00,70,17,00,00,00,00,
4363570359,000003B2,false,Rx,0,8,E3,5D,FB,FF,0C,66,BB,06,
4363578894,0000076C,false,Rx,0,8,94,11,40,00,64,00,00,00,
4363580127,0000022A,false,Rx,0,4,00,00,70,17,00,00,00,00,
4363580356,000003B2,false,Rx,0,8,E5,0D,EB,FF,0C,66,BB,11,
4363581046,000002C4,false,Rx,0,8,07,00,00,04,00,00,00,00,
4363581315,00000204,false,Rx,0,8,09,00,00,00,00,00,00,10,
4363581544,00000264,false,Rx,0,6,24,00,00,00,00,00,00,00,
4363581855,00000224,false,Rx,0,8,00,04,00,00,00,00,00,08,
4363588888,0000076C,false,Rx,0,8,15,00,00,D0,20,00,00,00,
4363590121,0000022A,false,Rx,0,4,00,00,70,17,00,00,00,00,
4363590359,000003B2,false,Rx,0,8,E3,5D,FB,FF,0C,66,BB,06,
4363598895,0000076C,false,Rx,0,8,16,00,00,00,20,00,00,00,
4363600117,0000022A,false,Rx,0,4,00,00,70,17,00,00,00,00,
4363600356,000003B2,false,Rx,0,8,E5,0D,EB,FF,0C,66,BB,11,
4363608872,0000076C,false,Rx,0,8,17,04,32,8F,BB,28,00,00,
4363610115,0000022A,false,Rx,0,4,00,00,70,17,00,00,00,00,
4363610354,000003B2,false,Rx,0,8,E3,5D,FB,FF,0C,66,BB,06,
4363610603,00000545,false,Rx,0,8,14,00,3F,70,9F,01,4A,F7,
4363618871,0000076C,false,Rx,0,8,18,AF,AA,A6,BD,02,00,00,
4363620125,0000022A,false,Rx,0,4,00,00,70,17,00,00,00,00,
4363620364,000003B2,false,Rx,0,8,E5,0D,EB,FF,0C,66,BB,11,
4363628888,0000076C,false,Rx,0,8,9E,0E,20,00,64,00,00,00,
4363630122,0000022A,false,Rx,0,4,00,00,70,17,00,00,00,00,
4363630360,000003B2,false,Rx,0,8,E3,5D,FB,FF,0C,66,BB,06,
4363638884,0000076C,false,Rx,0,8,1F,4A,00,D0,20,00,00,00,
4363640117,0000022A,false,Rx,0,4,00,00,70,17,00,00,00,00,
4363640356,000003B2,false,Rx,0,8,E5,0D,EB,FF,0C,66,BB,11,
4363648892,0000076C,false,Rx,0,8,20,00,00,00,30,60,00,01,
4363650115,0000022A,false,Rx,0,4,00,00,70,17,00,00,00,00,
4363650353,000003B2,false,Rx,0,8,E3,5D,FB,FF,0C,66,BB,06,
4363658868,0000076C,false,Rx,0,8,21,04,32,4F,B1,28,00,00,
4363660113,0000022A,false,Rx,0,4,00,00,70,17,00,00,00,00,
4363660350,000003B2,false,Rx,0,8,E5,0D,EB,FF,0C,66,BB,11,
4363660591,00000545,false,Rx,0,8,03,19,64,32,19,00,50,65,
4363660757,00000333,false,Rx,0,4,04,30,29,07,00,00,00,00,
4363660956,000002B2,false,Rx,0,5,00,00,00,05,78,00,00,00,
4363661193,000003A1,false,Rx,0,8,09,62,78,9D,08,2C,12,5A,
4363661433,00000321,false,Rx,0,8,2C,B6,A8,7F,02,7F,00,00,
4363661672,0000025D,false,Rx,0,8,D9,8C,01,B5,4A,C1,0A,E0,
4363661848,0000023D,false,Rx,0,4,0A,40,FF,0F,00,00,00,00,
4363662096,0000021D,false,Rx,0,8,2D,7E,00,20,80,00,60,10,
4363662334,00000232,false,Rx,0,8,0A,02,D5,09,CB,04,00,00,
4363662544,0000020A,false,Rx,0,6,F6,15,09,82,18,01,00,00,
4363662782,00000212,false,Rx,0,8,B9,1C,94,AD,C3,15,06,63,
4363668867,0000076C,false,Rx,0,8,22,B0,AA,A6,BD,02,00,00,
4363670122,0000022A,false,Rx,0,4,00,00,70,17,00,00,00,00,
4363670359,000003B2,false,Rx,0,8,E3,5D,FB,FF,0C,66,BB,06,
4363678884,0000076C,false,Rx,0,8,33,00,00,00,00,44,08,21,
4363680118,0000022A,false,Rx,0,4,00,00,70,17,00,00,00,00,
4363680355,000003B2,false,Rx,0,8,E5,0D,EB,FF,0C,66,BB,11,
4363681025,000002C4,false,Rx,0,8,08,00,00,00,1C,00,00,00,
4363681284,00000204,false,Rx,0,8,09,00,00,00,00,00,00,10,
4363681503,00000264,false,Rx,0,6,2C,00,00,00,A0,00,00,00,
4363681835,00000224,false,Rx,0,8,00,04,00,00,00,00,00,08,
4363688878,0000076C,false,Rx,0,8,34,00,00,00,00,00,00,00,
4363690122,0000022A,false,Rx,0,4,00,00,70,17,00,00,00,00,
4363690360,000003B2,false,Rx,0,8,E3,5D,FB,FF,0C,66,BB,06,
4363698873,0000076C,false,Rx,0,8,35,2A,00,00,00,00,00,00,
4363700118,0000022A,false,Rx,0,4,00,00,70,17,00,00,00,00,
4363700355,000003B2,false,Rx,0,8,E5,0D,EB,FF,0C,66,BB,11,
4363708893,0000076C,false,Rx,0,8,64,00,00,3A,6A,50,1C,00,
4363710117,0000022A,false,Rx,0,4,00,00,70,17,00,00,00,00,
4363710355,000003B2,false,Rx,0,8,E3,5D,FB,FF,0C,66,BB,06,
4363710604,00000545,false,Rx,0,8,14,00,3F,70,9F,01,6A,17,
4363718872,0000076C,false,Rx,0,8,66,00,00,00,00,00,00,00,
4363720117,0000022A,false,Rx,0,4,00,00,70,17,00,00,00,00,
4363720354,000003B2,false,Rx,0,8,E5,0D,EB,FF,0C,66,BB,11,
4363728879,0000076C,false,Rx,0,8,67,00,00,00,00,00,00,00,
4363730123,0000022A,false,Rx,0,4,00,00,70,17,00,00,00,00,
4363730361,000003B2,false,Rx,0,8,E3,5D,FB,FF,0C,66,BB,06,
4363738876,0000076C,false,Rx,0,8,68,00,00,00,00,00,00,00,
4363740121,0000022A,false,Rx,0,4,00,00,70,17,00,00,00,00,
4363740348,000003B2,false,Rx,0,8,E5,0D,EB,FF,0C,66,BB,11,
4363748863,0000076C,false,Rx,0,8,69,00,00,00,00,00,9D,FF,
4363750118,0000022A,false,Rx,0,4,00,00,70,17,00,00,00,00,
4363750355,000003B2,false,Rx,0,8,E3,5D,FB,FF,0C,66,BB,06,
4363758882,0000076C,false,Rx,0,8,6A,00,00,00,00,00,00,00,
4363760116,0000022A,false,Rx,0,4,00,00,70,17,00,00,00,00,
4363760353,000003B2,false,Rx,0,8,E5,0D,EB,FF,0C,66,BB,11,
4363760583,00000545,false,Rx,0,8,03,19,64,32,19,00,70,85,
4363760760,00000333,false,Rx,0,4,04,30,29,07,00,00,00,00,
4363760958,000002B2,false,Rx,0,5,00,00,00,05,78,00,00,00,
4363761185,000003A1,false,Rx,0,8,09,62,78,9D,08,2C,12,5A,
4363761435,00000321,false,Rx,0,8,2C,B6,A8,7F,02,7F,00,00,
4363761664,0000025D,false,Rx,0,8,D9,8C,01,B5,4A,C1,0A,E0,
4363761841,0000023D,false,Rx,0,4,0A,40,FF,0F,00,00,00,00,
4363762088,0000021D,false,Rx,0,8,2D,7E,00,20,80,00,60,10,
4363762328,00000232,false,Rx,0,8,0A,02,D5,09,CB,04,00,00,
4363762547,0000020A,false,Rx,0,6,F6,15,09,82,18,01,00,00,
4363762774,00000212,false,Rx,0,8,B9,1C,94,AD,C3,15,06,63,
4363768859,0000076C,false,Rx,0,8,6B,CD,06,00,00,00,00,00,
4363770124,0000022A,false,Rx,0,4,00,00,70,17,00,00,00,00,
4363770361,000003B2,false,Rx,0,8,E3,5D,FB,FF,0C,66,BB,06,
4363778877,0000076C,false,Rx,0,8,6C,00,00,00,00,00,1C,00,
4363780121,0000022A,false,Rx,0,4,00,00,70,17,00,00,00,00,
4363780359,000003B2,false,Rx,0,8,E5,0D,EB,FF,0C,66,BB,11,
4363780987,000002C4,false,Rx,0,8,49,DC,E5,2E,B0,84,25,87,
4363781256,00000204,false,Rx,0,8,09,00,00,00,00,00,00,10,
4363781466,00000264,false,Rx,0,6,30,00,00,00,A0,00,00,00,
4363781724,00000224,false,Rx,0,8,00,04,00,00,00,00,00,08,
4363788871,0000076C,false,Rx,0,8,6D,00,00,00,00,00,00,00,
4363790115,0000022A,false,Rx,0,4,00,00,70,17,00,00,00,00,
4363790353,000003B2,false,Rx,0,8,E3,5D,FB,FF,0C,66,BB,06,
4363798867,0000076C,false,Rx,0,8,6E,00,00,00,00,00,00,00,
4363800112,0000022A,false,Rx,0,4,00,00,70,17,00,00,00,00,
4363800349,000003B2,false,Rx,0,8,E5,0D,EB,FF,0C,66,BB,11,
4363808873,0000076C,false,Rx,0,8,6F,00,00,00,00,00,00,00,
4363810180,00000545,false,Rx,0,8,14,00,3F,70,9F,01,8A,37,
4363810356,0000022A,false,Rx,0,4,00,00,70,17,00,00,00,00,
4363810595,000003B2,false,Rx,0,8,E3,5D,FB,FF,0C,66,BB,06,
4363818863,0000076C,false,Rx,0,8,70,00,00,00,00,00,00,00,
4363820118,0000022A,false,Rx,0,4,00,00,70,17,00,00,00,00,
4363820356,000003B2,false,Rx,0,8,E5,0D,EB,FF,0C,66,BB,11,
4363828861,0000076C,false,Rx,0,8,71,33,30,00,33,38,80,00,
4363830116,0000022A,false,Rx,0,4,00,00,70,17,00,00,00,00,
4363830363,000003B2,false,Rx,0,8,E3,5D,FB,FF,0C,66,BB,06,
4363838868,0000076C,false,Rx,0,8,77,00,00,00,00,00,00,00,
4363840113,0000022A,false,Rx,0,4,00,00,70,17,00,00,00,00,
4363840350,000003B2,false,Rx,0,8,E5,0D,EB,FF,0C,66,BB,11,
4363848856,0000076C,false,Rx,0,8,78,00,00,00,00,00,00,00,
4363850111,0000022A,false,Rx,0,4,00,00,70,17,00,00,00,00,
4363850358,000003B2,false,Rx,0,8,E3,5D,FB,FF,0C,66,BB,06,
4363858863,0000076C,false,Rx,0,8,79,00,00,00,00,00,00,00,
4363860180,00000545,false,Rx,0,8,03,19,64,32,19,00,90,A5,
4363860346,00000333,false,Rx,0,4,04,30,29,07,00,00,00,00,
4363860544,000002B2,false,Rx,0,5,00,00,00,05,78,00,00,00,
4363860783,000003A1,false,Rx,0,8,09,62,78,9D,08,2C,12,5A,
4363861022,00000321,false,Rx,0,8,2C,B6,A8,7F,02,7F,00,00,
4363861260,0000025D,false,Rx,0,8,D9,8C,01,B5,4A,C1,0A,E0,
4363861428,0000023D,false,Rx,0,4,0A,40,FF,0F,00,00,00,00,
4363861677,0000021D,false,Rx,0,8,2D,7E,00,20,80,00,60,10,
4363861925,00000232,false,Rx,0,8,0A,02,D5,09,CB,04,00,00,
4363862134,0000020A,false,Rx,0,6,F6,15,09,82,18,01,00,00,
4363862361,00000212,false,Rx,0,8,B9,1C,94,AD,C3,15,06,63,
4363862539,0000022A,false,Rx,0,4,00,00,70,17,00,00,00,00,
4363862776,000003B2,false,Rx,0,8,E5,0D,EB,FF,0C,66,BB,11,
4363868852,0000076C,false,Rx,0,8,7A,01,09,00,00,00,00,00,
4363870117,0000022A,false,Rx,0,4,00,00,70,17,00,00,00,00,
4363870365,000003B2,false,Rx,0,8,E3,5D,FB,FF,0C,66,BB,06,
4363878848,0000076C,false,Rx,0,8,7E,8C,50,01,A2,00,E8,21,
4363880124,0000022A,false,Rx,0,4,00,00,70,17,00,00,00,00,
4363880351,000003B2,false,Rx,0,8,E5,0D,EB,FF,0C,66,BB,11,
4363881010,000002C4,false,Rx,0,8,0A,00,00,00,97,DF,00,00,
4363881279,00000204,false,Rx,0,8,09,00,00,00,00,00,00,10,
4363881520,00000264,false,Rx,0,6,31,00,00,00,A0,00,00,00,
4363881829,00000224,false,Rx,0,8,00,04,00,00,00,00,00,08,
4363882079,000003C4,false,Rx,0,8,0A,01,13,02,FC,00,1B,00,
4363888907,0000076C,false,Rx,0,8,01,10,10,15,19,15,25,00,
4363890121,0000022A,false,Rx,0,4,00,00,70,17,00,00,00,00,
4363890358,000003B2,false,Rx,0,8,E3,5D,FB,FF,0C,66,BB,06,
4363898852,0000076C,false,Rx,0,8,02,02,02,03,03,00,01,00,
4363900117,0000022A,false,Rx,0,4,00,00,70,17,00,00,00,00,
4363900354,000003B2,false,Rx,0,8,E5,0D,EB,FF,0C,66,BB,11,
4363908837,0000076C,false,Rx,0,8,03,62,62,4B,4B,62,6E,00,
4363910184,00000545,false,Rx,0,8,14,00,3F,70,9F,01,AA,57,
4363910361,0000022A,false,Rx,0,4,00,00,70,17,00,00,00,00,
4363910600,000003B2,false,Rx,0,8,E3,5D,FB,FF,0C,66,BB,06,
4363918847,0000076C,false,Rx,0,8,04,15,17,00,07,00,02,00,
4363920123,0000022A,false,Rx,0,4,00,00,70,17,00,00,00,00,
4363920360,000003B2,false,Rx,0,8,E5,0D,EB,FF,0C,66,BB,11,
4363928845,0000076C,false,Rx,0,8,05,AD,B4,36,41,EC,2E,00,
4363930121,0000022A,false,Rx,0,4,00,00,70,17,00,00,00,00,
4363930358,000003B2,false,Rx,0,8,E3,5D,FB,FF,0C,66,BB,06,
4363938852,0000076C,false,Rx,0,8,8A,12,A0,01,64,00,00,00,
4363940117,0000022A,false,Rx,0,4,00,00,70,17,00,00,00,00,
4363940355,000003B2,false,Rx,0,8,E5,0D,EB,FF,0C,66,BB,11,
4363948849,0000076C,false,Rx,0,8,0B,0C,00,D0,20,00,00,00,
4363950114,0000022A,false,Rx,0,4,00,00,70,17,00,00,00,00,
4363950351,000003B2,false,Rx,0,8,E3,5D,FB,FF,0C,66,BB,06,
4363958857,0000076C,false,Rx,0,8,0C,00,00,00,20,20,40,00,
4363960172,00000545,false,Rx,0,8,03,19,64,32,19,00,B0,C5,
4363960349,00000333,false,Rx,0,4,04,30,29,07,00,00,00,00,
4363960537,000002B2,false,Rx,0,5,00,00,00,05,78,00,00,00,
4363960775,000003A1,false,Rx,0,8,09,62,78,9D,08,2C,12,5A,
4363961025,00000321,false,Rx,0,8,2C,B6,A8,7F,02,7F,00,00,
4363961254,0000025D,false,Rx,0,8,D9,8C,01,B5,4A,C1,0A,E0,
4363961432,0000023D,false,Rx,0,4,0A,40,FF,0F,00,00,00,00,
4363961680,0000021D,false,Rx,0,8,2D,7E,00,20,80,00,60,10,
4363961918,00000232,false,Rx,0,8,0A,02,D5,09,CB,04,00,00,
4363962126,0000020A,false,Rx,0,6,F6,15,09,82,18,01,00,00,
4363962364,00000212,false,Rx,0,8,B9,1C,94,AD,C3,15,06,63,
4363962542,0000022A,false,Rx,0,4,00,00,70,17,00,00,00,00,
4363962780,000003B2,false,Rx,0,8,E5,0D,EB,FF,0C,66,BB,11,
4363968834,0000076C,false,Rx,0,8,0D,04,32,8F,BB,28,00,00,
4363970121,0000022A,false,Rx,0,4,00,00,70,17,00,00,00,00,
4363970358,000003B2,false,Rx,0,8,E3,5D,FB,FF,0C,66,BB,06,
4363978843,0000076C,false,Rx,0,8,0E,AF,AA,A6,BD,02,00,00,
4363980117,0000022A,false,Rx,0,4,00,00,70,17,00,00,00,00,
4363980354,000003B2,false,Rx,0,8,E5,0D,EB,FF,0C,66,BB,11,
4363980994,000002C4,false,Rx,0,8,0B,00,00,80,FD,CC,00,00,
4363981253,00000204,false,Rx,0,8,09,00,00,00,00,00,00,10,
4363981462,00000264,false,Rx,0,6,33,00,00,00,A0,00,00,00,
4363981720,00000224,false,Rx,0,8,00,04,00,00,00,00,00,08,
4363988847,0000076C,false,Rx,0,8,94,19,60,00,64,00,00,00,
4363990112,0000022A,false,Rx,0,4,00,00,70,17,00,00,00,00,
4363990360,000003B2,false,Rx,0,8,E3,5D,FB,FF,0C,66,BB,06,
4363998846,0000076C,false,Rx,0,8,15,00,00,D0,20,00,00,00,
4364000110,0000022A,false,Rx,0,4,00,00,70,17,00,00,00,00,
4364000348,000003B2,false,Rx,0,8,E5,0D,EB,FF,0C,66,BB,11,
4364008854,0000076C,false,Rx,0,8,16,00,00,00,20,00,00,00,
4364010190,00000545,false,Rx,0,8,14,00,3F,70,9F,01,CA,77,
4364010357,0000022A,false,Rx,0,4,00,00,70,17,00,00,00,00,
4364010606,000003B2,false,Rx,0,8,E3,5D,FB,FF,0C,66,BB,06,
4364018833,0000076C,false,Rx,0,8,17,04,32,8F,BB,28,00,00,
4364020118,0000022A,false,Rx,0,4,00,00,70,17,00,00,00,00,
4364020357,000003B2,false,Rx,0,8,E5,0D,EB,FF,0C,66,BB,11,
4364028830,0000076C,false,Rx,0,8,18,AF,AA,A6,BD,02,00,00,
4364030116,0000022A,false,Rx,0,4,00,00,70,17,00,00,00,00,
4364030354,000003B2,false,Rx,0,8,E3,5D,FB,FF,0C,66,BB,06,
4364038851,0000076C,false,Rx,0,8,1E,13,20,00,64,00,00,00,
4364040115,0000022A,false,Rx,0,4,00,00,70,17,00,00,00,00,
4364040353,000003B2,false,Rx,0,8,E5,0D,EB,FF,0C,66,BB,11,
4364048837,0000076C,false,Rx,0,8,1F,49,00,D0,20,00,00,00,
4364050111,0000022A,false,Rx,0,4,00,00,70,17,00,00,00,00,
4364050360,000003B2,false,Rx,0,8,E3,5D,FB,FF,0C,66,BB,06,
4364058843,0000076C,false,Rx,0,8,20,00,00,00,30,60,00,01,
4364060169,00000545,false,Rx,0,8,03,19,64,32,19,00,D0,E5,
4364060347,00000333,false,Rx,0,4,04,30,29,07,00,00,00,00,
4364060544,000002B2,false,Rx,0,5,00,00,00,05,78,00,00,00,
4364060782,000003A1,false,Rx,0,8,09,62,78,9D,08,2C,12,5A,
4364061023,00000321,false,Rx,0,8,2C,B6,A8,7F,02,7F,00,00,
4364061261,0000025D,false,Rx,0,8,D9,8C,01,B5,4A,C1,0A,E0,
4364061427,0000023D,false,Rx,0,4,0A,40,FF,0F,00,00,00,00,
4364061676,0000021D,false,Rx,0,8,2D,7E,00,20,80,00,60,10,
4364061915,00000232,false,Rx,0,8,0A,02,D5,09,CB,04,00,00,
4364062133,0000020A,false,Rx,0,6,F6,15,09,82,18,01,00,00,
4364062360,00000212,false,Rx,0,8,B9,1C,94,AD,C3,15,06,63,
4364062540,0000022A,false,Rx,0,4,00,00,70,17,00,00,00,00,
4364062778,000003B2,false,Rx,0,8,E5,0D,EB,FF,0C,66,BB,11,
4364068822,0000076C,false,Rx,0,8,21,04,32,8F,BA,28,00,00,
4364070116,0000022A,false,Rx,0,4,00,00,70,17,00,00,00,00,
4364070355,000003B2,false,Rx,0,8,E3,5D,FB,FF,0C,66,BB,06,
4364078820,0000076C,false,Rx,0,8,22,AE,AA,A8,BD,02,00,00,
4364080115,0000022A,false,Rx,0,4,00,00,70,17,00,00,00,00,
4364080353,000003B2,false,Rx,0,8,E5,0D,EB,FF,0C,66,BB,11,
4364080971,000002C4,false,Rx,0,8,0C,00,00,80,E4,CC,00,00,
4364081230,00000204,false,Rx,0,8,09,00,00,00,00,00,00,10,
4364081449,00000264,false,Rx,0,6,33,00,00,00,A0,00,00,00,
4364081707,00000224,false,Rx,0,8,00,04,00,00,00,00,00,08,
4364088835,0000076C,false,Rx,0,8,33,00,00,00,00,44,20,84,
4364090110,0000022A,false,Rx,0,4,00,00,70,17,00,00,00,00,
4364090358,000003B2,false,Rx,0,8,E3,5D,FB,FF,0C,66,BB,06,
4364098832,0000076C,false,Rx,0,8,34,00,00,00,00,00,00,00,
4364100117,0000022A,false,Rx,0,4,00,00,70,17,00,00,00,00,
4364100345,000003B2,false,Rx,0,8,E5,0D,EB,FF,0C,66,BB,11,
4364108841,0000076C,false,Rx,0,8,35,2A,00,00,00,00,00,00,
4364110125,0000022A,false,Rx,0,4,00,00,70,17,00,00,00,00,
4364110364,000003B2,false,Rx,0,8,E3,5D,FB,FF,0C,66,BB,06,
4364110603,00000545,false,Rx,0,8,14,00,3F,70,9F,01,EA,97,
4364118841,0000076C,false,Rx,0,8,64,00,00,3A,6A,50,1C,00,
4364120115,0000022A,false,Rx,0,4,00,00,70,17,00,00,00,00,
4364120354,000003B2,false,Rx,0,8,E5,0D,EB,FF,0C,66,BB,11,
4364128827,0000076C,false,Rx,0,8,66,00,00,00,00,00,00,00,
4364130123,0000022A,false,Rx,0,4,00,00,70,17,00,00,00,00,
4364130360,000003B2,false,Rx,0,8,E3,5D,FB,FF,0C,66,BB,06,
4364138836,0000076C,false,Rx,0,8,67,00,00,00,00,00,00,00,
4364140111,0000022A,false,Rx,0,4,00,00,70,17,00,00,00,00,
4364140349,000003B2,false,Rx,0,8,E5,0D,EB,FF,0C,66,BB,11,
4364148832,0000076C,false,Rx,0,8,68,00,00,00,00,00,00,00,
4364150118,0000022A,false,Rx,0,4,00,00,70,17,00,00,00,00,
4364150355,000003B2,false,Rx,0,8,E3,5D,FB,FF,0C,66,BB,06,
4364158831,0000076C,false,Rx,0,8,69,00,00,00,00,00,9D,FF,
4364160116,00000333,false,Rx,0,4,04,30,29,07,00,00,00,00,
4364160313,000002B2,false,Rx,0,5,00,00,00,05,78,00,00,00,
4364160541,000003A1,false,Rx,0,8,09,62,78,9D,08,2C,12,5A,
4364160790,00000321,false,Rx,0,8,2C,B6,A8,7F,02,7F,00,00,
4364161031,0000025D,false,Rx,0,8,D9,8C,01,B5,4A,C1,0A,E0,
4364161197,0000023D,false,Rx,0,4,0A,40,FF,0F,00,00,00,00,
4364161446,0000021D,false,Rx,0,8,2D,7E,00,20,80,00,60,10,
4364161685,00000232,false,Rx,0,8,0A,02,D5,09,CB,04,00,00,
4364161903,0000020A,false,Rx,0,6,F6,15,09,82,18,01,00,00,
4364162130,00000212,false,Rx,0,8,B9,1C,94,AD,C3,15,06,63,
4364162307,0000022A,false,Rx,0,4,00,00,70,17,00,00,00,00,
4364162546,000003B2,false,Rx,0,8,E5,0D,EB,FF,0C,66,BB,11,
4364162784,00000545,false,Rx,0,8,03,19,64,32,19,00,F0,05,
4364168828,0000076C,false,Rx,0,8,6A,00,00,00,00,00,00,00,
4364170124,0000022A,false,Rx,0,4,00,00,70,17,00,00,00,00,
4364170361,000003B2,false,Rx,0,8,E3,5D,FB,FF,0C,66,BB,06,
4364178814,0000076C,false,Rx,0,8,6B,CD,06,00,00,00,00,00,
4364180120,0000022A,false,Rx,0,4,00,00,70,17,00,00,00,00,
4364180358,000003B2,false,Rx,0,8,E5,0D,EB,FF,0C,66,BB,11,
4364180976,000002C4,false,Rx,0,8,0D,00,00,00,00,00,00,00,
4364181235,00000204,false,Rx,0,8,09,00,00,00,00,00,00,10,
4364181443,00000264,false,Rx,0,6,33,00,00,00,A0,00,00,00,
4364181703,00000224,false,Rx,0,8,00,04,00,00,00,00,00,08,
4364188830,0000076C,false,Rx,0,8,6C,00,00,00,00,00,1C,00,
4364190116,0000022A,false,Rx,0,4,00,00,70,17,00,00,00,00,
4364190353,000003B2,false,Rx,0,8,E3,5D,FB,FF,0C,66,BB,06,
4364198827,0000076C,false,Rx,0,8,6D,00,00,00,00,00,00,00,
4364200123,0000022A,false,Rx,0,4,00,00,70,17,00,00,00,00,
4364200360,000003B2,false,Rx,0,8,E5,0D,EB,FF,0C,66,BB,11,
4364208824,0000076C,false,Rx,0,8,6E,00,00,00,00,00,00,00,
4364210120,0000022A,false,Rx,0,4,00,00,70,17,00,00,00,00,
4364210358,000003B2,false,Rx,0,8,E3,5D,FB,FF,0C,66,BB,06,
4364210597,00000545,false,Rx,0,8,14,00,3F,70,9F,01,0A,B7,
4364218825,0000076C,false,Rx,0,8,6F,00,00,00,00,00,00,00,
4364220121,0000022A,false,Rx,0,4,00,00,70,17,00,00,00,00,
4364220358,000003B2,false,Rx,0,8,E5,0D,EB,FF,0C,66,BB,11,
4364228822,0000076C,false,Rx,0,8,70,00,00,00,00,00,00,00,
4364230118,0000022A,false,Rx,0,4,00,00,70,17,00,00,00,00,
4364230355,000003B2,false,Rx,0,8,E3,5D,FB,FF,0C,66,BB,06,
4364238820,0000076C,false,Rx,0,8,71,33,30,00,33,38,80,00,
4364240116,0000022A,false,Rx,0,4,00,00,70,17,00,00,00,00,
4364240353,000003B2,false,Rx,0,8,E5,0D,EB,FF,0C,66,BB,11,
4364248816,0000076C,false,Rx,0,8,77,00,00,FC,CE,0F,00,00,
4364250123,0000022A,false,Rx,0,4,00,00,70,17,00,00,00,00,
4364250360,000003B2,false,Rx,0,8,E3,5D,FB,FF,0C,66,BB,06,
4364258822,0000076C,false,Rx,0,8,78,00,00,00,00,00,00,00,
4364260118,00000333,false,Rx,0,4,04,30,29,07,00,00,00,00,
4364260304,000002B2,false,Rx,0,5,00,00,00,05,78,00,00,00,
4364260544,000003A1,false,Rx,0,8,09,62,78,9D,08,2C,12,5A,
4364260793,00000321,false,Rx,0,8,2C,B6,A8,7F,02,7F,00,00,
4364261023,0000025D,false,Rx,0,8,D9,8C,01,B5,4A,C1,0A,E0,
4364261199,0000023D,false,Rx,0,4,0A,40,FF,0F,00,00,00,00,
4364261449,0000021D,false,Rx,0,8,2D,7E,00,20,80,00,60,10,
4364261687,00000232,false,Rx,0,8,0A,02,D5,09,CB,04,00,00,
4364261895,0000020A,false,Rx,0,6,F6,15,09,82,18,01,00,00,
4364262132,00000212,false,Rx,0,8,B9,1C,94,AD,C3,15,06,63,
4364262310,0000022A,false,Rx,0,4,00,00,70,17,00,00,00,00,
4364262539,000003B2,false,Rx,0,8,E5,0D,EB,FF,0C,66,BB,11,
4364262777,00000545,false,Rx,0,8,03,19,64,32,19,00,10,25,
4364268810,0000076C,false,Rx,0,8,79,00,00,00,00,00,00,00,
4364270117,0000022A,false,Rx,0,4,00,00,70,17,00,00,00,00,
4364270354,000003B2,false,Rx,0,8,E3,5D,FB,FF,0C,66,BB,06,
4364278806,0000076C,false,Rx,0,8,7A,01,09,00,00,00,00,00,
4364280113,0000022A,false,Rx,0,4,00,00,70,17,00,00,00,00,
4364280350,000003B2,false,Rx,0,8,E5,0D,EB,FF,0C,66,BB,11,
4364280968,000002C4,false,Rx,0,8,12,00,00,00,00,00,00,00,
4364281227,00000204,false,Rx,0,8,09,00,00,00,00,00,00,10,
4364281437,00000264,false,Rx,0,6,33,00,00,00,A0,00,00,00,
4364281767,00000224,false,Rx,0,8,00,04,00,00,00,00,00,08,
4364288811,0000076C,false,Rx,0,8,7E,8C,50,01,A2,00,E8,21,
4364290117,0000022A,false,Rx,0,4,00,00,70,17,00,00,00,00,
4364290354,000003B2,false,Rx,0,8,E3,5D,FB,FF,0C,66,BB,06,
4364298858,0000076C,false,Rx,0,8,01,0D,10,0E,19,15,25,00,
4364300124,0000022A,false,Rx,0,4,00,00,70,17,00,00,00,00,
4364300361,000003B2,false,Rx,0,8,E5,0D,EB,FF,0C,66,BB,11,
4364308814,0000076C,false,Rx,0,8,02,02,02,02,03,00,01,00,
4364310120,0000022A,false,Rx,0,4,00,00,70,17,00,00,00,00,
4364310358,000003B2,false,Rx,0,8,E3,5D,FB,FF,0C,66,BB,06,
4364310608,00000545,false,Rx,0,8,14,00,3F,70,9F,01,2A,D7,
4364318793,0000076C,false,Rx,0,8,03,62,62,4B,4B,62,6E,00,
4364320120,0000022A,false,Rx,0,4,00,00,70,17,00,00,00,00,
4364320348,000003B2,false,Rx,0,8,E5,0D,EB,FF,0C,66,BB,11,
4364328801,0000076C,false,Rx,0,8,04,15,17,00,07,00,02,00,
4364330117,0000022A,false,Rx,0,4,00,00,70,17,00,00,00,00,
4364330355,000003B2,false,Rx,0,8,E3,5D,FB,FF,0C,66,BB,06,
4364338799,0000076C,false,Rx,0,8,05,AC,AC,36,41,E4,2E,00,
4364340115,0000022A,false,Rx,0,4,00,00,70,17,00,00,00,00,
4364340353,000003B2,false,Rx,0,8,E5,0D,EB,FF,0C,66,BB,11,
4364348795,0000076C,false,Rx,0,8,8A,13,60,01,64,00,40,00,
4364350122,0000022A,false,Rx,0,4,00,00,70,17,00,00,00,00,
4364350359,000003B2,false,Rx,0,8,E3,5D,FB,FF,0C,66,BB,06,
4364358811,0000076C,false,Rx,0,8,0B,0D,00,D0,20,00,00,00,
4364360117,00000333,false,Rx,0,4,04,30,29,07,00,00,00,00,
4364360303,000002B2,false,Rx,0,5,00,00,00,05,78,00,00,00,
4364360543,000003A1,false,Rx,0,8,09,62,78,9D,08,2C,12,5A,
4364360792,00000321,false,Rx,0,8,2C,B6,A8,7F,02,7F,00,00,
4364361021,0000025D,false,Rx,0,8,D9,8C,01,B5,4A,C1,0A,E0,
4364361198,0000023D,false,Rx,0,4,0A,40,FF,0F,00,00,00,00,
4364361448,0000021D,false,Rx,0,8,2D,7E,00,20,80,00,60,10,
4364361686,00000232,false,Rx,0,8,0A,02,D5,09,CB,04,00,00,
4364361893,0000020A,false,Rx,0,6,F6,15,09,82,18,01,00,00,
4364362132,00000212,false,Rx,0,8,B9,1C,94,AD,C3,15,06,63,
4364362309,0000022A,false,Rx,0,4,00,00,70,17,00,00,00,00,
4364362537,000003B2,false,Rx,0,8,E5,0D,EB,FF,0C,66,BB,11,
4364362775,00000545,false,Rx,0,8,03,19,64,32,19,00,30,45,
4364368808,0000076C,false,Rx,0,8,0C,00,00,00,20,20,40,00,
4364370116,0000022A,false,Rx,0,4,00,00,70,17,00,00,00,00,
4364370363,000003B2,false,Rx,0,8,E3,5D,FB,FF,0C,66,BB,06,
4364378796,0000076C,false,Rx,0,8,0D,04,32,8F,BB,28,00,00,
4364380112,0000022A,false,Rx,0,4,00,00,70,17,00,00,00,00,
4364380350,000003B2,false,Rx,0,8,E5,0D,EB,FF,0C,66,BB,11,
4364380958,000002C4,false,Rx,0,8,13,00,00,00,00,00,00,00,
4364381217,00000204,false,Rx,0,8,09,00,00,00,00,00,00,10,
4364381437,00000264,false,Rx,0,6,34,00,00,00,A0,00,00,00,
4364381767,00000224,false,Rx,0,8,00,04,00,00,00,00,00,08,
4364382015,000003C4,false,Rx,0,8,0B,00,05,03,01,00,FF,FF,
4364388793,0000076C,false,Rx,0,8,0E,B5,AA,A3,BD,02,00,00,
4364390120,0000022A,false,Rx,0,4,00,00,70,17,00,00,00,00,
4364390358,000003B2,false,Rx,0,8,E3,5D,FB,FF,0C,66,BB,06,
4364398800,0000076C,false,Rx,0,8,14,1A,40,00,64,00,40,00,
4364400116,0000022A,false,Rx,0,4,00,00,70,17,00,00,00,00,
4364400354,000003B2,false,Rx,0,8,E5,0D,EB,FF,0C,66,BB,11,
4364408806,0000076C,false,Rx,0,8,15,00,00,D0,20,00,00,00,
4364410123,0000022A,false,Rx,0,4,00,00,70,17,00,00,00,00,
4364410360,000003B2,false,Rx,0,8,E3,5D,FB,FF,0C,66,BB,06,
4364410612,00000545,false,Rx,0,8,14,00,3F,70,9F,01,4A,F7,
4364418799,0000076C,false,Rx,0,8,16,00,00,00,20,00,00,00,
4364420115,0000022A,false,Rx,0,4,00,00,70,17,00,00,00,00,
4364420353,000003B2,false,Rx,0,8,E5,0D,EB,FF,0C,66,BB,11,
4364428785,0000076C,false,Rx,0,8,17,04,32,8F,BB,28,00,00,
4364430122,0000022A,false,Rx,0,4,00,00,70,17,00,00,00,00,
4364430359,000003B2,false,Rx,0,8,E3,5D,FB,FF,0C,66,BB,06,
4364438791,0000076C,false,Rx,0,8,18,B3,AA,A3,BD,02,00,00,
4364440118,0000022A,false,Rx,0,4,00,00,70,17,00,00,00,00,
4364440345,000003B2,false,Rx,0,8,E5,0D,EB,FF,0C,66,BB,11,
4364448788,0000076C,false,Rx,0,8,9E,13,20,00,64,00,40,00,
4364450116,0000022A,false,Rx,0,4,00,00,70,17,00,00,00,00,
4364450353,000003B2,false,Rx,0,8,E3,5D,FB,FF,0C,66,BB,06,
4364458805,0000076C,false,Rx,0,8,1F,49,00,D0,20,00,00,00,
4364460173,00000545,false,Rx,0,8,03,19,64,32,19,00,50,65,
4364460349,00000333,false,Rx,0,4,04,30,29,07,00,00,00,00,
4364460538,000002B2,false,Rx,0,5,00,00,00,05,78,00,00,00,
4364460775,000003A1,false,Rx,0,8,09,62,78,9D,08,2C,12,5A,
4364461026,00000321,false,Rx,0,8,2C,B6,A8,7F,02,7F,00,00,
4364461255,0000025D,false,Rx,0,8,D9,8C,01,B5,4A,C1,0A,E0,
4364461432,0000023D,false,Rx,0,4,0A,40,FF,0F,00,00,00,00,
4364461680,0000021D,false,Rx,0,8,2D,7E,00,20,80,00,60,10,
4364461919,00000232,false,Rx,0,8,0A,02,D5,09,CB,04,00,00,
4364462137,0000020A,false,Rx,0,6,F6,15,09,82,18,01,00,00,
4364462364,00000212,false,Rx,0,8,B9,1C,94,AD,C3,15,06,63,
4364462542,0000022A,false,Rx,0,4,00,00,70,17,00,00,00,00,
4364462781,000003B2,false,Rx,0,8,E5,0D,EB,FF,0C,66,BB,11,
4364468803,0000076C,false,Rx,0,8,20,00,00,00,30,60,00,01,
4364470119,0000022A,false,Rx,0,4,00,00,70,17,00,00,00,00,
4364470358,000003B2,false,Rx,0,8,E3,5D,FB,FF,0C,66,BB,06,
4364478779,0000076C,false,Rx,0,8,21,04,32,8E,B0,28,00,00,
4364480115,0000022A,false,Rx,0,4,00,00,70,17,00,00,00,00,
4364480354,000003B2,false,Rx,0,8,E5,0D,EB,FF,0C,66,BB,11,
4364480940,000002C4,false,Rx,0,8,14,00,00,00,19,02,00,00,
4364481201,00000204,false,Rx,0,8,09,00,00,00,00,00,00,10,
4364481408,00000264,false,Rx,0,6,33,00,00,00,A0,00,00,00,
4364481667,00000224,false,Rx,0,8,00,04,00,00,00,00,00,08,
4364482783,000002A4,false,Rx,0,8,71,47,BB,DA,D3,AE,76,26,
4364482922,00000364,false,Rx,0,2,00,78,00,00,00,00,00,00,
4364483190,000003A4,false,Rx,0,8,01,00,00,00,00,00,00,00,
4364488789,0000076C,false,Rx,0,8,22,B2,AA,A4,BD,02,00,00,
4364490124,0000022A,false,Rx,0,4,00,00,70,17,00,00,00,00,
4364490363,000003B2,false,Rx,0,8,E3,5D,FB,FF,0C,66,BB,06,
4364498795,0000076C,false,Rx,0,8,33,00,00,00,00,44,20,84,
4364500120,0000022A,false,Rx,0,4,00,00,70,17,00,00,00,00,
4364500349,000003B2,false,Rx,0,8,E5,0D,EB,FF,0C,66,BB,11,
4364508791,0000076C,false,Rx,0,8,34,00,00,00,00,00,00,00,
4364510116,0000022A,false,Rx,0,4,00,00,70,17,00,00,00,00,
4364510355,000003B2,false,Rx,0,8,E3,5D,FB,FF,0C,66,BB,06,
4364510606,00000545,false,Rx,0,8,14,00,3F,70,9F,01,6A,17,
4364518802,0000076C,false,Rx,0,8,35,2A,00,00,00,00,00,00,
4364520117,0000022A,false,Rx,0,4,00,00,70,17,00,00,00,00,
4364520356,000003B2,false,Rx,0,8,E5,0D,EB,FF,0C,66,BB,11,
4364528809,0000076C,false,Rx,0,8,64,00,00,3A,6A,50,0E,00,
4364530125,0000022A,false,Rx,0,4,00,00,70,17,00,00,00,00,
4364530364,000003B2,false,Rx,0,8,E3,5D,FB,FF,0C,66,BB,06,
4364538795,0000076C,false,Rx,0,8,66,00,00,00,00,00,00,00,
4364540121,0000022A,false,Rx,0,4,00,00,70,17,00,00,00,00,
4364540349,000003B2,false,Rx,0,8,E5,0D,EB,FF,0C,66,BB,11,
4364548782,0000076C,false,Rx,0,8,67,00,00,00,00,00,00,00,
4364550118,0000022A,false,Rx,0,4,00,00,70,17,00,00,00,00,
4364550356,000003B2,false,Rx,0,8,E3,5D,FB,FF,0C,66,BB,06,
4364558789,0000076C,false,Rx,0,8,68,00,00,00,00,00,00,00,
4364561168,0000022A,false,Rx,0,4,00,00,70,17,00,00,00,00,
4364561401,000003B2,false,Rx,0,8,E5,0D,EB,FF,0C,66,BB,11,
4364561640,00000545,false,Rx,0,8,03,19,64,32,19,00,70,85,
4364561808,00000333,false,Rx,0,4,04,30,29,07,00,00,00,00,
4364562004,000002B2,false,Rx,0,5,00,00,00,05,78,00,00,00,
4364562242,000003A1,false,Rx,0,8,09,62,78,9D,08,2C,12,5A,
4364562491,00000321,false,Rx,0,8,2C,B6,A8,7F,02,7F,00,00,
4364562720,0000025D,false,Rx,0,8,D9,8C,01,B5,4A,C1,0A,E0,
4364562897,0000023D,false,Rx,0,4,0A,40,FF,0F,00,00,00,00,
4364563144,0000021D,false,Rx,0,8,2D,7E,00,20,80,00,60,10,
4364563385,00000232,false,Rx,0,8,0A,02,D5,09,CB,04,00,00,
4364563594,0000020A,false,Rx,0,6,F6,15,09,82,18,01,00,00,
4364563832,00000212,false,Rx,0,8,B9,1C,94,AD,C3,15,06,63,
4364568789,0000076C,false,Rx,0,8,69,00,00,00,00,00,9D,FF,
4364570125,0000022A,false,Rx,0,4,00,00,70,17,00,00,00,00,
4364570364,000003B2,false,Rx,0,8,E3,5D,FB,FF,0C,66,BB,06,
4364578785,0000076C,false,Rx,0,8,6A,00,00,00,00,00,00,00,
4364580121,0000022A,false,Rx,0,4,00,00,70,17,00,00,00,00,
4364580350,000003B2,false,Rx,0,8,E5,0D,EB,FF,0C,66,BB,11,
4364580926,000002C4,false,Rx,0,8,35,00,01,04,10,80,FF,00,
4364581186,00000204,false,Rx,0,8,01,00,00,00,00,00,00,10,
4364581403,00000264,false,Rx,0,6,34,00,00,00,A0,00,00,00,
4364581663,00000224,false,Rx,0,8,00,04,00,00,00,00,00,08,
4364588780,0000076C,false,Rx,0,8,6B,CD,06,00,00,00,00,00,
4364590116,0000022A,false,Rx,0,4,00,00,70,17,00,00,00,00,
4364590354,000003B2,false,Rx,0,8,E3,5D,FB,FF,0C,66,BB,06,
4364598787,0000076C,false,Rx,0,8,6C,00,00,00,00,00,1C,00,
4364600113,0000022A,false,Rx,0,4,00,00,70,17,00,00,00,00,
4364600351,000003B2,false,Rx,0,8,E5,0D,EB,FF,0C,66,BB,11,
4364608773,0000076C,false,Rx,0,8,6D,00,00,00,00,00,00,00,
4364610182,00000545,false,Rx,0,8,14,00,3F,70,9F,01,8A,37,
4364610358,0000022A,false,Rx,0,4,00,00,70,17,00,00,00,00,
4364610597,000003B2,false,Rx,0,8,E3,5D,FB,FF,0C,66,BB,06,
4364618783,0000076C,false,Rx,0,8,6E,00,00,00,00,00,00,00,
4364620121,0000022A,false,Rx,0,4,00,00,70,17,00,00,00,00,
4364620348,000003B2,false,Rx,0,8,E5,0D,EB,FF,0C,66,BB,11,
4364628781,0000076C,false,Rx,0,8,6F,00,00,00,00,00,00,00,
4364630118,0000022A,false,Rx,0,4,00,00,70,17,00,00,00,00,
4364630355,000003B2,false,Rx,0,8,E3,5D,FB,FF,0C,66,BB,06,
4364638789,0000076C,false,Rx,0,8,70,00,00,00,00,00,00,00,
4364640116,0000022A,false,Rx,0,4,00,00,70,17,00,00,00,00,
4364640353,000003B2,false,Rx,0,8,E5,0D,EB,FF,0C,66,BB,11,
4364648765,0000076C,false,Rx,0,8,71,33,30,00,33,38,80,00,
4364650112,0000022A,false,Rx,0,4,00,00,70,17,00,00,00,00,
4364650350,000003B2,false,Rx,0,8,E3,5D,FB,FF,0C,66,BB,06,
4364658771,0000076C,false,Rx,0,8,77,00,00,FC,CE,0F,00,00,
4364660170,00000545,false,Rx,0,8,03,19,64,32,19,00,90,A5,
4364660346,00000333,false,Rx,0,4,04,30,29,07,00,00,00,00,
4364660544,000002B2,false,Rx,0,5,00,00,00,05,78,00,00,00,
4364660781,000003A1,false,Rx,0,8,09,62,78,9D,08,2C,12,5A,
4364661022,00000321,false,Rx,0,8,2C,B6,A8,7F,02,7F,00,00,
4364661261,0000025D,false,Rx,0,8,D9,8C,01,B5,4A,C1,0A,E0,
4364661427,0000023D,false,Rx,0,4,0A,40,FF,0F,00,00,00,00,
4364661677,0000021D,false,Rx,0,8,2D,7E,00,20,80,00,60,10,
4364661915,00000232,false,Rx,0,8,0A,02,D5,09,CB,04,00,00,
4364662133,0000020A,false,Rx,0,6,F6,15,09,82,18,01,00,00,
4364662361,00000212,false,Rx,0,8,B9,1C,94,AD,C3,15,06,63,
4364662539,0000022A,false,Rx,0,4,00,00,70,17,00,00,00,00,
4364662776,000003B2,false,Rx,0,8,E5,0D,EB,FF,0C,66,BB,11,
4364668779,0000076C,false,Rx,0,8,78,00,00,00,00,00,00,00,
4364670116,0000022A,false,Rx,0,4,00,00,70,17,00,00,00,00,
4364670364,000003B2,false,Rx,0,8,E3,5D,FB,FF,0C,66,BB,06,
4364678768,0000076C,false,Rx,0,8,79,00,00,00,00,00,00,00,
4364680115,0000022A,false,Rx,0,4,00,00,70,17,00,00,00,00,
4364680353,000003B2,false,Rx,0,8,E5,0D,EB,FF,0C,66,BB,11,
4364680910,000002C4,false,Rx,0,8,16,20,D9,00,00,00,00,01,
4364681179,00000204,false,Rx,0,8,01,00,00,00,00,00,00,10,
4364681396,00000264,false,Rx,0,6,34,00,00,00,A0,00,00,00,
4364681647,00000224,false,Rx,0,8,00,04,00,00,00,00,00,08,
4364688773,0000076C,false,Rx,0,8,7A,01,09,00,00,00,00,00,
4364690110,0000022A,false,Rx,0,4,00,00,70,17,00,00,00,00,
4364690358,000003B2,false,Rx,0,8,E3,5D,FB,FF,0C,66,BB,06,
4364698759,0000076C,false,Rx,0,8,7E,8C,50,01,A2,00,E8,21,
4364700107,0000022A,false,Rx,0,4,00,00,70,17,00,00,00,00,
4364700344,000003B2,false,Rx,0,8,E5,0D,EB,FF,0C,66,BB,11,
4364708820,0000076C,false,Rx,0,8,01,10,10,15,19,15,25,00,
4364710115,0000022A,false,Rx,0,4,00,00,70,17,00,00,00,00,
4364710363,000003B2,false,Rx,0,8,E3,5D,FB,FF,0C,66,BB,06,
4364710603,00000545,false,Rx,0,8,14,00,3F,70,9F,01,AA,57,
4364718768,0000076C,false,Rx,0,8,02,02,02,02,03,01,01,00,
4364720115,0000022A,false,Rx,0,4,00,00,70,17,00,00,00,00,
4364720353,000003B2,false,Rx,0,8,E5,0D,EB,FF,0C,66,BB,11,
4364728754,0000076C,false,Rx,0,8,03,62,62,4B,4B,62,6E,00,
4364730111,0000022A,false,Rx,0,4,00,00,70,17,00,00,00,00,
4364730359,000003B2,false,Rx,0,8,E3,5D,FB,FF,0C,66,BB,06,
4364738771,0000076C,false,Rx,0,8,04,15,17,00,07,00,02,00,
4364740118,0000022A,false,Rx,0,4,00,00,70,17,00,00,00,00,
4364740345,000003B2,false,Rx,0,8,E5,0D,EB,FF,0C,66,BB,11,
4364748748,0000076C,false,Rx,0,8,05,AC,B4,36,41,E4,2E,00,
4364750116,0000022A,false,Rx,0,4,00,00,70,17,00,00,00,00,
4364750353,000003B2,false,Rx,0,8,E3,5D,FB,FF,0C,66,BB,06,
4364758754,0000076C,false,Rx,0,8,8A,13,40,01,64,00,40,00,
4364760112,00000333,false,Rx,0,4,04,30,29,07,00,00,00,00,
4364760308,000002B2,false,Rx,0,5,00,00,00,05,78,00,00,00,
4364760547,000003A1,false,Rx,0,8,09,62,78,9D,08,2C,12,5A,
4364760786,00000321,false,Rx,0,8,2C,B6,A8,7F,02,7F,00,00,
4364761026,0000025D,false,Rx,0,8,D9,8C,01,B5,4A,C1,0A,E0,
4364761192,0000023D,false,Rx,0,4,0A,40,FF,0F,00,00,00,00,
4364761442,0000021D,false,Rx,0,8,2D,7E,00,20,80,00,60,10,
4364761681,00000232,false,Rx,0,8,0A,02,D5,09,CB,04,00,00,
4364761898,0000020A,false,Rx,0,6,F6,15,09,82,18,01,00,00,
4364762126,00000212,false,Rx,0,8,B9,1C,94,AD,C3,15,06,63,
4364762304,0000022A,false,Rx,0,4,00,00,70,17,00,00,00,00,
4364762542,000003B2,false,Rx,0,8,E5,0D,EB,FF,0C,66,BB,11,
4364762770,00000545,false,Rx,0,8,03,19,64,32,19,00,B0,C5,
4364768763,0000076C,false,Rx,0,8,0B,0D,00,D0,20,FF,0F,00,
4364770120,0000022A,false,Rx,0,4,00,00,70,17,00,00,00,00,
4364770358,000003B2,false,Rx,0,8,E3,5D,FB,FF,0C,66,BB,06,
4364778758,0000076C,false,Rx,0,8,0C,00,00,00,20,20,40,00,
4364780116,0000022A,false,Rx,0,4,00,00,70,17,00,00,00,00,
4364780353,000003B2,false,Rx,0,8,E5,0D,EB,FF,0C,66,BB,11,
4364780910,000002C4,false,Rx,0,8,20,40,00,D2,00,00,00,00,
4364781169,00000204,false,Rx,0,8,01,00,00,00,00,00,00,10,
4364781388,00000264,false,Rx,0,6,34,00,00,00,A0,00,00,00,
4364781637,00000224,false,Rx,0,8,00,04,00,00,00,00,00,08,
4364788763,0000076C,false,Rx,0,8,0D,04,32,8F,BB,28,00,00,
4364790110,0000022A,false,Rx,0,4,00,00,70,17,00,00,00,00,
4364790358,000003B2,false,Rx,0,8,E3,5D,FB,FF,0C,66,BB,06,
4364798748,0000076C,false,Rx,0,8,0E,B3,AA,A3,BD,02,00,00,
4364800116,0000022A,false,Rx,0,4,00,00,70,17,00,00,00,00,
4364800354,000003B2,false,Rx,0,8,E5,0D,EB,FF,0C,66,BB,11,
4364808755,0000076C,false,Rx,0,8,14,1A,40,00,64,00,40,00,
4364810123,0000022A,false,Rx,0,4,00,00,70,17,00,00,00,00,
4364810360,000003B2,false,Rx,0,8,E3,5D,FB,FF,0C,66,BB,06,
4364810601,00000545,false,Rx,0,8,14,00,3F,70,9F,01,CA,77,
4364818765,0000076C,false,Rx,0,8,15,00,00,D0,20,00,00,00,
4364820112,0000022A,false,Rx,0,4,00,00,70,17,00,00,00,00,
4364820350,000003B2,false,Rx,0,8,E5,0D,EB,FF,0C,66,BB,11,
4364828763,0000076C,false,Rx,0,8,16,00,00,00,20,00,00,00,
4364830110,0000022A,false,Rx,0,4,00,00,70,17,00,00,00,00,
4364830358,000003B2,false,Rx,0,8,E3,5D,FB,FF,0C,66,BB,06,
4364838750,0000076C,false,Rx,0,8,17,04,32,8F,BB,28,00,00,
4364840118,0000022A,false,Rx,0,4,00,00,70,17,00,00,00,00,
4364840345,000003B2,false,Rx,0,8,E5,0D,EB,FF,0C,66,BB,11,
4364848746,0000076C,false,Rx,0,8,18,B1,AA,A6,BD,02,00,00,
4364850125,0000022A,false,Rx,0,4,00,00,70,17,00,00,00,00,
4364850362,000003B2,false,Rx,0,8,E3,5D,FB,FF,0C,66,BB,06,
4364858753,0000076C,false,Rx,0,8,1E,14,20,00,64,00,40,00,
4364860110,00000333,false,Rx,0,4,04,30,29,07,00,00,00,00,
4364860307,000002B2,false,Rx,0,5,00,00,00,05,78,00,00,00,
4364860536,000003A1,false,Rx,0,8,09,62,78,9D,08,2C,12,5A,
4364860785,00000321,false,Rx,0,8,2C,B6,A8,7F,02,7F,00,00,
4364861025,0000025D,false,Rx,0,8,D9,8C,01,B5,4A,C1,0A,E0,
4364861191,0000023D,false,Rx,0,4,0A,40,FF,0F,00,00,00,00,
4364861442,0000021D,false,Rx,0,8,2D,7E,00,20,80,00,60,10,
4364861680,00000232,false,Rx,0,8,0A,02,D5,09,CB,04,00,00,
4364861898,0000020A,false,Rx,0,6,F6,15,09,82,18,01,00,00,
4364862127,00000212,false,Rx,0,8,B9,1C,94,AD,C3,15,06,63,
4364862303,0000022A,false,Rx,0,4,00,00,70,17,00,00,00,00,
4364862541,000003B2,false,Rx,0,8,E5,0D,EB,FF,0C,66,BB,11,
4364862769,00000545,false,Rx,0,8,03,19,64,32,19,00,D0,E5,
4364868752,0000076C,false,Rx,0,8,1F,49,00,D0,20,00,00,00,
4364870121,0000022A,false,Rx,0,4,00,00,70,17,00,00,00,00,
4364870358,000003B2,false,Rx,0,8,E3,5D,FB,FF,0C,66,BB,06,
4364878749,0000076C,false,Rx,0,8,20,00,00,00,30,60,00,01,
4364880118,0000022A,false,Rx,0,4,00,00,70,17,00,00,00,00,
4364880355,000003B2,false,Rx,0,8,E5,0D,EB,FF,0C,66,BB,11,
4364880902,000002C4,false,Rx,0,8,01,00,00,D2,00,00,00,00,
4364881161,00000204,false,Rx,0,8,01,00,00,00,00,00,00,10,
4364881380,00000264,false,Rx,0,6,34,00,00,00,A0,00,00,00,
4364881701,00000224,false,Rx,0,8,00,04,00,00,00,00,00,08,
4364881960,000003C4,false,Rx,0,8,0D,03,00,00,F8,3F,81,AA,
4364888749,0000076C,false,Rx,0,8,21,04,32,8F,BB,28,00,00,
4364890117,0000022A,false,Rx,0,4,00,00,70,17,00,00,00,00,
4364890355,000003B2,false,Rx,0,8,E3,5D,FB,FF,0C,66,BB,06,
4364898737,0000076C,false,Rx,0,8,22,B2,AA,A4,BD,02,00,00,
4364900116,0000022A,false,Rx,0,4,00,00,70,17,00,00,00,00,
4364900343,000003B2,false,Rx,0,8,E5,0D,EB,FF,0C,66,BB,11,
4364908747,0000076C,false,Rx,0,8,33,00,00,00,00,44,20,84,
4364910176,00000545,false,Rx,0,8,14,00,3F,70,9F,01,EA,97,
4364910353,0000022A,false,Rx,0,4,00,00,70,17,00,00,00,00,
4364910593,000003B2,false,Rx,0,8,E3,5D,FB,FF,0C,66,BB,06,
4364918757,0000076C,false,Rx,0,8,34,00,00,00,00,00,00,00,
4364920115,0000022A,false,Rx,0,4,00,00,70,17,00,00,00,00,
4364920352,000003B2,false,Rx,0,8,E5,0D,EB,FF,0C,66,BB,11,
4364928743,0000076C,false,Rx,0,8,35,2A,00,00,00,00,00,00,
4364930110,0000022A,false,Rx,0,4,00,00,70,17,00,00,00,00,
4364930358,000003B2,false,Rx,0,8,E3,5D,FB,FF,0C,66,BB,06,
4364938760,0000076C,false,Rx,0,8,64,00,00,3A,6A,50,0E,00,
4364940117,0000022A,false,Rx,0,4,00,00,70,17,00,00,00,00,
4364940355,000003B2,false,Rx,0,8,E5,0D,EB,FF,0C,66,BB,11,
4364948746,0000076C,false,Rx,0,8,66,00,00,00,00,00,00,00,
4364950114,0000022A,false,Rx,0,4,00,00,70,17,00,00,00,00,
4364950353,000003B2,false,Rx,0,8,E3,5D,FB,FF,0C,66,BB,06,
4364958742,0000076C,false,Rx,0,8,67,00,00,00,00,00,00,00,
4364960172,00000545,false,Rx,0,8,03,19,64,32,19,00,F0,05,
4364960350,00000333,false,Rx,0,4,04,30,29,07,00,00,00,00,
4364960547,000002B2,false,Rx,0,5,00,00,00,05,78,00,00,00,
4364960775,000003A1,false,Rx,0,8,09,62,78,9D,08,2C,12,5A,
4364961025,00000321,false,Rx,0,8,2C,B6,A8,7F,02,7F,00,00,
4364961264,0000025D,false,Rx,0,8,D9,8C,01,B5,4A,C1,0A,E0,
4364961432,0000023D,false,Rx,0,4,0A,40,FF,0F,00,00,00,00,
4364961680,0000021D,false,Rx,0,8,2D,7E,00,20,80,00,60,10,
4364961919,00000232,false,Rx,0,8,0A,02,D5,09,CB,04,00,00,
4364962137,0000020A,false,Rx,0,6,F6,15,09,82,18,01,00,00,
4364962365,00000212,false,Rx,0,8,B9,1C,94,AD,C3,15,06,63,
4364962542,0000022A,false,Rx,0,4,00,00,70,17,00,00,00,00,
4364962781,000003B2,false,Rx,0,8,E5,0D,EB,FF,0C,66,BB,11,
4364968752,0000076C,false,Rx,0,8,68,00,00,00,00,00,00,00,
4364970121,0000022A,false,Rx,0,4,00,00,70,17,00,00,00,00,
4364970359,000003B2,false,Rx,0,8,E3,5D,FB,FF,0C,66,BB,06,
4364978738,0000076C,false,Rx,0,8,69,00,00,00,00,00,9D,FF,
4364980116,0000022A,false,Rx,0,4,00,00,70,17,00,00,00,00,
4364980355,000003B2,false,Rx,0,8,E5,0D,EB,FF,0C,66,BB,11,
4364980881,000002C4,false,Rx,0,8,02,00,01,D2,00,00,00,00,
4364981151,00000204,false,Rx,0,8,01,00,00,00,00,00,00,10,
4364981369,00000264,false,Rx,0,6,34,00,00,00,A0,00,00,00,
4364981690,00000224,false,Rx,0,8,00,04,00,00,00,00,00,08,
4364988754,0000076C,false,Rx,0,8,6A,00,00,00,00,00,00,00,
4364990111,0000022A,false,Rx,0,4,00,00,70,17,00,00,00,00,
4364990349,000003B2,false,Rx,0,8,E3,5D,FB,FF,0C,66,BB,06,
4364998742,0000076C,false,Rx,0,8,6B,CD,06,00,00,00,00,00,
4365000109,0000022A,false,Rx,0,4,00,00,70,17,00,00,00,00,
4365000347,000003B2,false,Rx,0,8,E5,0D,EB,FF,0C,66,BB,11,
4365008738,0000076C,false,Rx,0,8,6C,00,00,00,00,00,1C,00,
4365010115,0000022A,false,Rx,0,4,00,00,70,17,00,00,00,00,
4365010364,000003B2,false,Rx,0,8,E3,5D,FB,FF,0C,66,BB,06,
4365010604,00000545,false,Rx,0,8,14,00,3F,70,9F,01,0A,B7,
4365018743,0000076C,false,Rx,0,8,6D,00,00,00,00,00,00,00,
4365020110,0000022A,false,Rx,0,4,00,00,70,17,00,00,00,00,
4365020349,000003B2,false,Rx,0,8,E5,0D,EB,FF,0C,66,BB,11,
4365028730,0000076C,false,Rx,0,8,6E,00,00,00,00,00,00,00,
4365030117,0000022A,false,Rx,0,4,00,00,70,17,00,00,00,00,
4365030356,000003B2,false,Rx,0,8,E3,5D,FB,FF,0C,66,BB,06,
4365038737,0000076C,false,Rx,0,8,6F,00,00,00,00,00,00,00,
4365040114,0000022A,false,Rx,0,4,00,00,70,17,00,00,00,00,
4365040343,000003B2,false,Rx,0,8,E5,0D,EB,FF,0C,66,BB,11,
4365048744,0000076C,false,Rx,0,8,70,00,00,00,00,00,00,00,
4365050121,0000022A,false,Rx,0,4,00,00,70,17,00,00,00,00,
4365050359,000003B2,false,Rx,0,8,E3,5D,FB,FF,0C,66,BB,06,
4365058721,0000076C,false,Rx,0,8,71,33,30,00,33,38,80,00,
4365060109,00000333,false,Rx,0,4,04,30,29,07,00,00,00,00,
4365060306,000002B2,false,Rx,0,5,00,00,00,05,78,00,00,00,
4365060545,000003A1,false,Rx,0,8,09,62,78,9D,08,2C,12,5A,
4365060783,00000321,false,Rx,0,8,2C,B6,A8,7F,02,7F,00,00,
4365061022,0000025D,false,Rx,0,8,D9,8C,01,B5,4A,C1,0A,E0,
4365061198,0000023D,false,Rx,0,4,0A,40,FF,0F,00,00,00,00,
4365061447,0000021D,false,Rx,0,8,2D,7E,00,20,80,00,60,10,
4365061685,00000232,false,Rx,0,8,0A,02,D5,09,CB,04,00,00,
4365061894,0000020A,false,Rx,0,6,F6,15,09,82,18,01,00,00,
4365062132,00000212,false,Rx,0,8,B9,1C,94,AD,C3,15,06,63,
4365062308,0000022A,false,Rx,0,4,00,00,70,17,00,00,00,00,
4365062538,000003B2,false,Rx,0,8,E5,0D,EB,FF,0C,66,BB,11,
4365062798,00000545,false,Rx,0,8,03,19,64,32,19,00,10,25,
4365068732,0000076C,false,Rx,0,8,77,00,00,FC,CE,0F,00,00,
4365070119,0000022A,false,Rx,0,4,00,00,70,17,00,00,00,00,
4365070358,000003B2,false,Rx,0,8,E3,5D,FB,FF,0C,66,BB,06,
4365078728,0000076C,false,Rx,0,8,78,00,00,F9,CE,0F,00,00,
4365080115,0000022A,false,Rx,0,4,00,00,70,17,00,00,00,00,
4365080354,000003B2,false,Rx,0,8,E5,0D,EB,FF,0C,66,BB,11,
4365080879,000002C4,false,Rx,0,8,C3,00,12,C0,00,06,80,00,
4365081139,00000204,false,Rx,0,8,01,00,00,00,00,00,00,10,
4365081356,00000264,false,Rx,0,6,34,00,00,00,A0,00,00,00,
4365081689,00000224,false,Rx,0,8,00,04,00,00,00,00,00,08,
4365088722,0000076C,false,Rx,0,8,79,00,00,00,00,00,00,00,
4365090109,0000022A,false,Rx,0,4,00,00,70,17,00,00,00,00,
4365090348,000003B2,false,Rx,0,8,E3,5D,FB,FF,0C,66,BB,06,
4365098729,0000076C,false,Rx,0,8,7A,01,09,00,00,00,00,00,
4365100128,0000022A,false,Rx,0,4,00,00,70,17,00,00,00,00,
4365100355,000003B2,false,Rx,0,8,E5,0D,EB,FF,0C,66,BB,11,
4365108716,0000076C,false,Rx,0,8,7E,8C,50,01,A2,00,E8,21,
4365110115,0000022A,false,Rx,0,4,00,00,70,17,00,00,00,00,
4365110363,000003B2,false,Rx,0,8,E3,5D,FB,FF,0C,66,BB,06,
4365110602,00000545,false,Rx,0,8,14,00,3F,70,9F,01,2A,D7,
4365118779,0000076C,false,Rx,0,8,01,10,10,0E,19,15,25,00,
4365120116,0000022A,false,Rx,0,4,00,00,70,17,00,00,00,00,
4365120353,000003B2,false,Rx,0,8,E5,0D,EB,FF,0C,66,BB,11,
4365128724,0000076C,false,Rx,0,8,02,02,02,02,03,00,01,00,
4365130112,0000022A,false,Rx,0,4,00,00,70,17,00,00,00,00,
4365130349,000003B2,false,Rx,0,8,E3,5D,FB,FF,0C,66,BB,06,
4365138709,0000076C,false,Rx,0,8,03,62,62,4B,4B,62,70,00,
4365140108,0000022A,false,Rx,0,4,00,00,70,17,00,00,00,00,
4365140345,000003B2,false,Rx,0,8,E5,0D,EB,FF,0C,66,BB,11,
4365148727,0000076C,false,Rx,0,8,04,15,17,00,07,00,02,00,
4365150115,0000022A,false,Rx,0,4,00,00,70,17,00,00,00,00,
4365150353,000003B2,false,Rx,0,8,E3,5D,FB,FF,0C,66,BB,06,
4365158703,0000076C,false,Rx,0,8,05,AB,CC,36,41,D4,2E,00,
4365160112,00000333,false,Rx,0,4,04,30,29,07,00,00,00,00,
4365160308,000002B2,false,Rx,0,5,00,00,00,05,78,00,00,00,
4365160537,000003A1,false,Rx,0,8,09,62,78,9D,08,2C,12,5A,
4365160786,00000321,false,Rx,0,8,2C,B6,A8,7F,02,7F,00,00,
4365161024,0000025D,false,Rx,0,8,D9,8C,01,B5,4A,C1,0A,E0,
4365161190,0000023D,false,Rx,0,4,0A,40,FF,0F,00,00,00,00,
4365161439,0000021D,false,Rx,0,8,2D,7E,00,20,80,00,60,10,
4365161678,00000232,false,Rx,0,8,0A,02,D5,09,CB,04,00,00,
4365161896,0000020A,false,Rx,0,6,F6,15,09,82,18,01,00,00,
4365162123,00000212,false,Rx,0,8,B9,1C,94,AD,C3,15,06,63,
4365162300,0000022A,false,Rx,0,4,00,00,70,17,00,00,00,00,
4365162540,000003B2,false,Rx,0,8,E5,0D,EB,FF,0C,66,BB,11,
4365162780,00000545,false,Rx,0,8,03,19,64,32,19,00,30,45,
4365168724,0000076C,false,Rx,0,8,8A,13,20,01,64,00,40,00,
4365170113,0000022A,false,Rx,0,4,00,00,70,17,00,00,00,00,
4365170360,000003B2,false,Rx,0,8,E3,5D,FB,FF,0C,66,BB,06,
4365178711,0000076C,false,Rx,0,8,0B,0D,00,D0,20,FF,0F,00,
4365180120,0000022A,false,Rx,0,4,00,00,70,17,00,00,00,00,
4365180347,000003B2,false,Rx,0,8,E5,0D,EB,FF,0C,66,BB,11,
4365180873,000002C4,false,Rx,0,8,04,00,00,00,00,20,D1,51,
4365181142,00000204,false,Rx,0,8,01,00,00,00,00,00,00,10,
4365181350,00000264,false,Rx,0,6,34,00,00,00,A0,00,00,00,
4365181682,00000224,false,Rx,0,8,00,04,00,00,00,00,00,08,
4365188716,0000076C,false,Rx,0,8,0C,00,00,00,20,20,40,00,
4365190115,0000022A,false,Rx,0,4,00,00,70,17,00,00,00,00,
4365190352,000003B2,false,Rx,0,8,E3,5D,FB,FF,0C,66,BB,06,
4365198712,0000076C,false,Rx,0,8,0D,04,32,8F,BB,28,00,00,
4365200121,0000022A,false,Rx,0,4,00,00,70,17,00,00,00,00,
4365200358,000003B2,false,Rx,0,8,E5,0D,EB,FF,0C,66,BB,11,
4365208708,0000076C,false,Rx,0,8,0E,B0,AA,A6,BD,02,00,00,
4365210117,0000022A,false,Rx,0,4,00,00,70,17,00,00,00,00,
4365210365,000003B2,false,Rx,0,8,E3,5D,FB,FF,0C,66,BB,06,
4365210604,00000545,false,Rx,0,8,14,00,3F,70,9F,01,4A,F7,
4365218719,0000076C,false,Rx,0,8,14,1A,40,00,64,00,40,00,
4365220118,0000022A,false,Rx,0,4,00,00,70,17,00,00,00,00,
4365220355,000003B2,false,Rx,0,8,E5,0D,EB,FF,0C,66,BB,11,
4365228717,0000076C,false,Rx,0,8,15,00,00,D0,20,00,00,00,
4365230116,0000022A,false,Rx,0,4,00,00,70,17,00,00,00,00,
4365230353,000003B2,false,Rx,0,8,E3,5D,FB,FF,0C,66,BB,06,
4365238714,0000076C,false,Rx,0,8,16,00,00,00,20,00,00,00,
4365240113,0000022A,false,Rx,0,4,00,00,70,17,00,00,00,00,
4365240351,000003B2,false,Rx,0,8,E5,0D,EB,FF,0C,66,BB,11,
4365248711,0000076C,false,Rx,0,8,17,04,32,8F,BB,28,00,00,
4365250120,0000022A,false,Rx,0,4,00,00,70,17,00,00,00,00,
4365250358,000003B2,false,Rx,0,8,E3,5D,FB,FF,0C,66,BB,06,
4365258698,0000076C,false,Rx,0,8,18,AF,AA,A8,BD,02,00,00,
4365260107,00000333,false,Rx,0,4,04,30,29,07,00,00,00,00,
4365260303,000002B2,false,Rx,0,5,00,00,00,05,78,00,00,00,
4365260542,000003A1,false,Rx,0,8,09,62,78,9D,08,2C,12,5A,
4365260781,00000321,false,Rx,0,8,2C,B6,A8,7F,02,7F,00,00,
4365261019,0000025D,false,Rx,0,8,D9,8C,01,B5,4A,C1,0A,E0,
4365261196,0000023D,false,Rx,0,4,0A,40,FF,0F,00,00,00,00,
4365261446,0000021D,false,Rx,0,8,2D,7E,00,20,80,00,60,10,
4365261684,00000232,false,Rx,0,8,0A,02,D5,09,CB,04,00,00,
4365261891,0000020A,false,Rx,0,6,F6,15,09,82,18,01,00,00,
4365262129,00000212,false,Rx,0,8,B9,1C,94,AD,C3,15,06,63,
4365262307,0000022A,false,Rx,0,4,00,00,70,17,00,00,00,00,
4365262535,000003B2,false,Rx,0,8,E5,0D,EB,FF,0C,66,BB,11,
4365262775,00000545,false,Rx,0,8,03,19,64,32,19,00,50,65,
4365268710,0000076C,false,Rx,0,8,9E,13,20,00,64,00,40,00,
4365270119,0000022A,false,Rx,0,4,00,00,70,17,00,00,00,00,
4365270356,000003B2,false,Rx,0,8,E3,5D,FB,FF,0C,66,BB,06,
4365278716,0000076C,false,Rx,0,8,1F,4A,00,D0,20,00,00,00,
4365280116,0000022A,false,Rx,0,4,00,00,70,17,00,00,00,00,
4365280353,000003B2,false,Rx,0,8,E5,0D,EB,FF,0C,66,BB,11,
4365280869,000002C4,false,Rx,0,8,25,22,00,00,00,00,00,20,
4365281138,00000204,false,Rx,0,8,01,00,00,00,00,00,00,10,
4365281367,00000264,false,Rx,0,6,34,00,00,00,A0,00,00,00,
4365281678,00000224,false,Rx,0,8,00,04,00,00,00,00,00,08,
4365288711,0000076C,false,Rx,0,8,20,00,00,00,30,60,00,01,
4365290110,0000022A,false,Rx,0,4,00,00,70,17,00,00,00,00,
4365290347,000003B2,false,Rx,0,8,E3,5D,FB,FF,0C,66,BB,06,
4365298697,0000076C,false,Rx,0,8,21,04,32,8F,BB,28,00,00,
4365300117,0000022A,false,Rx,0,4,00,00,70,17,00,00,00,00,
4365300354,000003B2,false,Rx,0,8,E5,0D,EB,FF,0C,66,BB,11,
4365308693,0000076C,false,Rx,0,8,22,AF,AA,A6,BD,02,00,00,
4365310113,0000022A,false,Rx,0,4,00,00,70,17,00,00,00,00,
4365310361,000003B2,false,Rx,0,8,E3,5D,FB,FF,0C,66,BB,06,
4365310602,00000545,false,Rx,0,8,14,00,3F,70,9F,01,6A,17,
4365318715,0000076C,false,Rx,0,8,33,00,00,00,00,44,20,84,
4365320114,0000022A,false,Rx,0,4,00,00,70,17,00,00,00,00,
4365320352,000003B2,false,Rx,0,8,E5,0D,EB,FF,0C,66,BB,11,
4365328712,0000076C,false,Rx,0,8,34,00,00,00,00,00,00,00,
4365330111,0000022A,false,Rx,0,4,00,00,70,17,00,00,00,00,
4365330348,000003B2,false,Rx,0,8,E3,5D,FB,FF,0C,66,BB,06,
4365338708,0000076C,false,Rx,0,8,35,2A,00,00,00,00,00,00,
4365340107,0000022A,false,Rx,0,4,00,00,70,17,00,00,00,00,
4365340344,000003B2,false,Rx,0,8,E5,0D,EB,FF,0C,66,BB,11,
4365348716,0000076C,false,Rx,0,8,64,00,00,3A,6A,50,0E,00,
4365350125,0000022A,false,Rx,0,4,00,00,70,17,00,00,00,00,
4365350362,000003B2,false,Rx,0,8,E3,5D,FB,FF,0C,66,BB,06,
4365358702,0000076C,false,Rx,0,8,66,00,00,00,00,00,00,00,
4365360111,00000333,false,Rx,0,4,04,30,29,07,00,00,00,00,
4365360307,000002B2,false,Rx,0,5,00,00,00,05,78,00,00,00,
4365360537,000003A1,false,Rx,0,8,09,62,78,9D,08,2C,12,5A,
4365360785,00000321,false,Rx,0,8,2C,B6,A8,7F,02,7F,00,00,
4365361023,0000025D,false,Rx,0,8,D9,8C,01,B5,4A,C1,0A,E0,
4365361189,0000023D,false,Rx,0,4,0A,40,FF,0F,00,00,00,00,
4365361439,0000021D,false,Rx,0,8,2D,7E,00,20,80,00,60,10,
4365361677,00000232,false,Rx,0,8,0A,02,D5,09,CB,04,00,00,
4365361895,0000020A,false,Rx,0,6,F6,15,09,82,18,01,00,00,
4365362124,00000212,false,Rx,0,8,B9,1C,94,AD,C3,15,06,63,
4365362300,0000022A,false,Rx,0,4,00,00,70,17,00,00,00,00,
4365362539,000003B2,false,Rx,0,8,E5,0D,EB,FF,0C,66,BB,11,
4365362780,00000545,false,Rx,0,8,03,19,64,32,19,00,70,85,
4365368695,0000076C,false,Rx,0,8,67,00,00,00,00,00,00,00,
4365370114,0000022A,false,Rx,0,4,00,00,70,17,00,00,00,00,
4365370352,000003B2,false,Rx,0,8,E3,5D,FB,FF,0C,66,BB,06,
4365378712,0000076C,false,Rx,0,8,68,00,00,00,00,00,00,00,
4365380111,0000022A,false,Rx,0,4,00,00,70,17,00,00,00,00,
4365380348,000003B2,false,Rx,0,8,E5,0D,EB,FF,0C,66,BB,11,
4365380864,000002C4,false,Rx,0,8,26,28,3A,0A,00,00,00,96,
4365381122,00000204,false,Rx,0,8,01,00,00,00,00,00,00,10,
4365381362,00000264,false,Rx,0,6,34,00,00,00,A0,00,00,00,
4365381663,00000224,false,Rx,0,8,00,04,00,00,00,00,00,08,
4365381911,000003C4,false,Rx,0,8,10,00,00,00,23,89,BD,E3,
4365388690,0000076C,false,Rx,0,8,69,00,00,00,00,00,8F,FF,
4365390110,0000022A,false,Rx,0,4,00,00,70,17,00,00,00,00,
4365390347,000003B2,false,Rx,0,8,E3,5D,FB,FF,0C,66,BB,06,
4365398710,0000076C,false,Rx,0,8,6A,00,00,00,00,00,00,00,
4365400110,0000022A,false,Rx,0,4,00,00,70,17,00,00,00,00,
4365400348,000003B2,false,Rx,0,8,E5,0D,EB,FF,0C,66,BB,11,
4365408690,0000076C,false,Rx,0,8,6B,CD,06,00,00,00,00,00,
4365410172,00000545,false,Rx,0,8,14,00,3F,70,9F,01,8A,37,
4365410349,0000022A,false,Rx,0,4,00,00,70,17,00,00,00,00,
4365410588,000003B2,false,Rx,0,8,E3,5D,FB,FF,0C,66,BB,06,
4365418691,0000076C,false,Rx,0,8,6C,00,00,00,00,00,1C,00,
4365420120,0000022A,false,Rx,0,4,00,00,70,17,00,00,00,00,
4365420348,000003B2,false,Rx,0,8,E5,0D,EB,FF,0C,66,BB,11,
4365428697,0000076C,false,Rx,0,8,6D,00,00,00,00,00,00,00,
4365430116,0000022A,false,Rx,0,4,00,00,70,17,00,00,00,00,
4365430355,000003B2,false,Rx,0,8,E3,5D,FB,FF,0C,66,BB,06,
4365438695,0000076C,false,Rx,0,8,6E,00,00,00,00,00,00,00,
4365440114,0000022A,false,Rx,0,4,00,00,70,17,00,00,00,00,
4365440353,000003B2,false,Rx,0,8,E5,0D,EB,FF,0C,66,BB,11,
4365448702,0000076C,false,Rx,0,8,6F,00,00,00,00,00,00,00,
4365450111,0000022A,false,Rx,0,4,00,00,70,17,00,00,00,00,
4365450349,000003B2,false,Rx,0,8,E3,5D,FB,FF,0C,66,BB,06,
4365458698,0000076C,false,Rx,0,8,70,00,00,00,00,00,00,00,
4365460169,00000545,false,Rx,0,8,03,19,64,32,19,00,90,A5,
4365460346,00000333,false,Rx,0,4,04,30,29,07,00,00,00,00,
4365460534,000002B2,false,Rx,0,5,00,00,00,05,78,00,00,00,
4365460771,000003A1,false,Rx,0,8,09,62,78,9D,08,2C,12,5A,
4365461019,00000321,false,Rx,0,8,2C,B6,A8,7F,02,7F,00,00,
4365461259,0000025D,false,Rx,0,8,D9,8C,01,B5,4A,C1,0A,E0,
4365461425,0000023D,false,Rx,0,4,0A,40,FF,0F,00,00,00,00,
4365461674,0000021D,false,Rx,0,8,2D,7E,00,20,80,00,60,10,
4365461913,00000232,false,Rx,0,8,0A,02,D5,09,CB,04,00,00,
4365462131,0000020A,false,Rx,0,6,F6,15,09,82,18,01,00,00,
4365462358,00000212,false,Rx,0,8,B9,1C,94,AD,C3,15,06,63,
4365462536,0000022A,false,Rx,0,4,00,00,70,17,00,00,00,00,
4365462777,000003B2,false,Rx,0,8,E5,0D,EB,FF,0C,66,BB,11,
4365468679,0000076C,false,Rx,0,8,71,33,30,00,33,38,80,00,
4365470119,0000022A,false,Rx,0,4,00,00,70,17,00,00,00,00,
4365470357,000003B2,false,Rx,0,8,E3,5D,FB,FF,0C,66,BB,06,
4365478695,0000076C,false,Rx,0,8,77,00,00,FC,CE,0F,00,00,
4365480115,0000022A,false,Rx,0,4,00,00,70,17,00,00,00,00,
4365480353,000003B2,false,Rx,0,8,E5,0D,EB,FF,0C,66,BB,11,
4365480858,000002C4,false,Rx,0,8,07,00,00,00,00,00,00,00,
4365481118,00000204,false,Rx,0,8,01,00,00,00,00,00,00,10,
4365481356,00000264,false,Rx,0,6,34,00,00,00,A0,00,00,00,
4365481646,00000224,false,Rx,0,8,00,04,00,00,00,00,00,08,
4365482680,000002A4,false,Rx,0,8,71,47,BB,DA,D3,AE,76,26,
4365482819,00000364,false,Rx,0,2,00,78,00,00,00,00,00,00,
4365483087,000003A4,false,Rx,0,8,00,00,00,00,00,00,00,00,
4365488682,0000076C,false,Rx,0,8,78,00,00,F9,CE,0F,00,00,
4365490112,0000022A,false,Rx,0,4,00,00,70,17,00,00,00,00,
4365490361,000003B2,false,Rx,0,8,E3,5D,FB,FF,0C,66,BB,06,
4365498690,0000076C,false,Rx,0,8,79,00,00,00,00,00,00,00,
4365500110,0000022A,false,Rx,0,4,00,00,70,17,00,00,00,00,
4365500349,000003B2,false,Rx,0,8,E5,0D,EB,FF,0C,66,BB,11,
4365508689,0000076C,false,Rx,0,8,7A,01,09,00,00,00,00,00,
4365510107,0000022A,false,Rx,0,4,00,00,70,17,00,00,00,00,
4365510356,000003B2,false,Rx,0,8,E3,5D,FB,FF,0C,66,BB,06,
4365510595,00000545,false,Rx,0,8,14,00,3F,70,9F,01,AA,57,
4365518667,0000076C,false,Rx,0,8,7E,8C,50,01,A1,00,E8,21,
4365520116,0000022A,false,Rx,0,4,00,00,70,17,00,00,00,00,
4365520355,000003B2,false,Rx,0,8,E5,0D,EB,FF,0C,66,BB,11,
4365528738,0000076C,false,Rx,0,8,01,10,10,16,19,15,25,00,
4365530115,0000022A,false,Rx,0,4,00,00,70,17,00,00,00,00,
4365530354,000003B2,false,Rx,0,8,E3,5D,FB,FF,0C,66,BB,06,
4365538672,0000076C,false,Rx,0,8,02,02,02,03,03,01,01,00,
4365540111,0000022A,false,Rx,0,4,00,00,70,17,00,00,00,00,
4365540350,000003B2,false,Rx,0,8,E5,0D,EB,FF,0C,66,BB,11,
4365548660,0000076C,false,Rx,0,8,03,62,62,4B,4B,62,70,00,
4365550119,0000022A,false,Rx,0,4,00,00,70,17,00,00,00,00,
4365550358,000003B2,false,Rx,0,8,E3,5D,FB,FF,0C,66,BB,06,
4365558677,0000076C,false,Rx,0,8,04,17,17,00,07,00,02,00,
4365560116,0000022A,false,Rx,0,4,00,00,70,17,00,00,00,00,
4365560344,000003B2,false,Rx,0,8,E5,0D,EB,FF,0C,66,BB,11,
4365560583,00000545,false,Rx,0,8,03,19,64,32,19,00,B0,C5,
4365560760,00000333,false,Rx,0,4,04,30,29,07,00,00,00,00,
4365560947,000002B2,false,Rx,0,5,00,00,00,05,78,00,00,00,
4365561185,000003A1,false,Rx,0,8,09,62,78,9D,08,2C,12,5A,
4365561434,00000321,false,Rx,0,8,2C,B6,A8,7F,02,7F,00,00,
4365561662,0000025D,false,Rx,0,8,D9,8C,01,B5,4A,C1,0A,E0,
4365561840,0000023D,false,Rx,0,4,0A,40,FF,0F,00,00,00,00,
4365562088,0000021D,false,Rx,0,8,2D,7E,00,20,80,00,60,10,
4365562326,00000232,false,Rx,0,8,0A,02,D5,09,CB,04,00,00,
4365562536,0000020A,false,Rx,0,6,F6,15,09,82,18,01,00,00,
4365562775,00000212,false,Rx,0,8,B9,1C,94,AD,C3,15,06,63,
4365568657,0000076C,false,Rx,0,8,05,AC,BC,36,42,E4,2E,00,
4365570106,0000022A,false,Rx,0,4,00,00,70,17,00,00,00,00,
4365570345,000003B2,false,Rx,0,8,E3,5D,FB,FF,0C,66,BB,06,
4365578685,0000076C,false,Rx,0,8,8A,13,00,01,64,00,40,00,
4365580116,0000022A,false,Rx,0,4,00,00,70,17,00,00,00,00,
4365580353,000003B2,false,Rx,0,8,E5,0D,EB,FF,0C,66,BB,11,
4365580837,000002C4,false,Rx,0,8,08,00,00,00,1C,00,00,00,
4365581107,00000204,false,Rx,0,8,01,00,00,00,00,00,00,10,
4365581345,00000264,false,Rx,0,6,34,00,00,00,A0,00,00,00,
4365581648,00000224,false,Rx,0,8,00,04,00,00,00,00,00,08,
4365588660,0000076C,false,Rx,0,8,0B,0D,00,D0,20,FF,0F,00,
4365590110,0000022A,false,Rx,0,4,00,00,70,17,00,00,00,00,
4365590357,000003B2,false,Rx,0,8,E3,5D,FB,FF,0C,66,BB,06,
4365598676,0000076C,false,Rx,0,8,0C,00,00,00,20,20,40,00,
4365600116,0000022A,false,Rx,0,4,00,00,70,17,00,00,00,00,
4365600354,000003B2,false,Rx,0,8,E5,0D,EB,FF,0C,66,BB,11,
4365608673,0000076C,false,Rx,0,8,0D,04,32,8F,BB,28,00,00,
4365610113,0000022A,false,Rx,0,4,00,00,70,17,00,00,00,00,
4365610350,000003B2,false,Rx,0,8,E3,5D,FB,FF,0C,66,BB,06,
4365610600,00000545,false,Rx,0,8,14,00,3F,70,9F,01,CA,77,
4365618665,0000076C,false,Rx,0,8,0E,AF,AA,A8,BD,02,00,00,
4365620115,0000022A,false,Rx,0,4,00,00,70,17,00,00,00,00,
4365620352,000003B2,false,Rx,0,8,E5,0D,EB,FF,0C,66,BB,11,
4365628671,0000076C,false,Rx,0,8,14,1A,40,00,64,00,40,00,
4365630121,0000022A,false,Rx,0,4,00,00,70,17,00,00,00,00,
4365630359,000003B2,false,Rx,0,8,E3,5D,FB,FF,0C,66,BB,06,
4365638667,0000076C,false,Rx,0,8,15,00,00,D0,20,00,00,00,
4365640117,0000022A,false,Rx,0,4,00,00,70,17,00,00,00,00,
4365640355,000003B2,false,Rx,0,8,E5,0D,EB,FF,0C,66,BB,11,
4365648675,0000076C,false,Rx,0,8,16,00,00,00,20,00,00,00,
4365650116,0000022A,false,Rx,0,4,00,00,70,17,00,00,00,00,
4365650353,000003B2,false,Rx,0,8,E3,5D,FB,FF,0C,66,BB,06,
4365658664,0000076C,false,Rx,0,8,17,04,32,8F,BB,28,00,00,
4365661219,0000022A,false,Rx,0,4,00,00,70,17,00,00,00,00,
4365661453,000003B2,false,Rx,0,8,E5,0D,EB,FF,0C,66,BB,11,
4365661682,00000545,false,Rx,0,8,03,19,64,32,19,00,D0,E5,
4365661859,00000333,false,Rx,0,4,04,30,29,07,00,00,00,00,
4365662055,000002B2,false,Rx,0,5,00,00,00,05,78,00,00,00,
4365662294,000003A1,false,Rx,0,8,09,62,78,9D,08,2C,12,5A,
4365662533,00000321,false,Rx,0,8,2C,B6,A8,7F,02,7F,00,00,
4365662771,0000025D,false,Rx,0,8,D9,8C,01,B5,4A,C1,0A,E0,
4365662948,0000023D,false,Rx,0,4,0A,40,FF,0F,00,00,00,00,
4365663186,0000021D,false,Rx,0,8,2D,7E,00,20,80,00,60,10,
4365663438,00000232,false,Rx,0,8,0A,02,D5,09,CB,04,00,00,
4365663645,0000020A,false,Rx,0,6,F6,15,09,82,18,01,00,00,
4365663874,00000212,false,Rx,0,8,B9,1C,94,AD,C3,15,06,63,
4365668654,0000076C,false,Rx,0,8,18,AF,AA,A8,BD,02,00,00,
4365670114,0000022A,false,Rx,0,4,00,00,70,17,00,00,00,00,
4365670362,000003B2,false,Rx,0,8,E3,5D,FB,FF,0C,66,BB,06,
4365678671,0000076C,false,Rx,0,8,1E,14,20,00,64,00,40,00,
4365680121,0000022A,false,Rx,0,4,00,00,70,17,00,00,00,00,
4365680348,000003B2,false,Rx,0,8,E5,0D,EB,FF,0C,66,BB,11,
4365680792,000002C4,false,Rx,0,8,49,DC,E5,2E,B0,84,25,87,
4365681051,00000204,false,Rx,0,8,01,00,00,00,00,00,00,10,
4365681268,00000264,false,Rx,0,6,34,00,00,00,A0,00,00,00,
4365681529,00000224,false,Rx,0,8,00,04,00,00,00,00,00,08,
4365688665,0000076C,false,Rx,0,8,1F,49,00,D0,20,00,00,00,
4365690116,0000022A,false,Rx,0,4,00,00,70,17,00,00,00,00,
4365690353,000003B2,false,Rx,0,8,E3,5D,FB,FF,0C,66,BB,06,
4365698662,0000076C,false,Rx,0,8,20,00,00,00,30,60,00,01,
4365700113,0000022A,false,Rx,0,4,00,00,70,17,00,00,00,00,
4365700350,000003B2,false,Rx,0,8,E5,0D,EB,FF,0C,66,BB,11,
4365708659,0000076C,false,Rx,0,8,21,04,32,4F,B1,28,00,00,
4365710109,0000022A,false,Rx,0,4,00,00,70,17,00,00,00,00,
4365710346,000003B2,false,Rx,0,8,E3,5D,FB,FF,0C,66,BB,06,
4365710586,00000545,false,Rx,0,8,14,00,3F,70,9F,01,EA,97,
4365718649,0000076C,false,Rx,0,8,22,AF,AA,A8,BD,02,00,00,
4365720119,0000022A,false,Rx,0,4,00,00,70,17,00,00,00,00,
4365720357,000003B2,false,Rx,0,8,E5,0D,EB,FF,0C,66,BB,11,
4365728665,0000076C,false,Rx,0,8,33,00,00,00,00,44,20,84,
4365730115,0000022A,false,Rx,0,4,00,00,70,17,00,00,00,00,
4365730353,000003B2,false,Rx,0,8,E3,5D,FB,FF,0C,66,BB,06,
4365738662,0000076C,false,Rx,0,8,34,00,00,00,00,00,00,00,
4365740112,0000022A,false,Rx,0,4,00,00,70,17,00,00,00,00,
4365740349,000003B2,false,Rx,0,8,E5,0D,EB,FF,0C,66,BB,11,
4365748659,0000076C,false,Rx,0,8,35,2A,00,00,00,00,00,00,
4365750110,0000022A,false,Rx,0,4,00,00,70,17,00,00,00,00,
4365750348,000003B2,false,Rx,0,8,E3,5D,FB,FF,0C,66,BB,06,
4365758679,0000076C,false,Rx,0,8,64,00,00,3A,6A,50,1C,00,
4365760108,0000022A,false,Rx,0,4,00,00,70,17,00,00,00,00,
4365760346,000003B2,false,Rx,0,8,E5,0D,EB,FF,0C,66,BB,11,
4365760586,00000545,false,Rx,0,8,03,19,64,32,19,00,F0,05,
4365760752,00000333,false,Rx,0,4,04,30,29,07,00,00,00,00,
4365760949,000002B2,false,Rx,0,5,00,00,00,05,78,00,00,00,
4365761186,000003A1,false,Rx,0,8,09,62,78,9D,08,2C,12,5A,
4365761437,00000321,false,Rx,0,8,2C,B6,A8,7F,02,7F,00,00,
4365761665,0000025D,false,Rx,0,8,D9,8C,01,B5,4A,C1,0A,E0,
4365761842,0000023D,false,Rx,0,4,0A,40,FF,0F,00,00,00,00,
4365762089,0000021D,false,Rx,0,8,2D,7E,00,20,80,00,60,10,
4365762329,00000232,false,Rx,0,8,0A,02,D5,09,CB,04,00,00,
4365762547,0000020A,false,Rx,0,6,F6,15,09,82,18,01,00,00,
4365762776,00000212,false,Rx,0,8,B9,1C,94,AD,C3,15,06,63,
4365768659,0000076C,false,Rx,0,8,66,00,00,00,00,00,00,00,
4365770120,0000022A,false,Rx,0,4,00,00,70,17,00,00,00,00,
4365770358,000003B2,false,Rx,0,8,E3,5D,FB,FF,0C,66,BB,06,
4365778667,0000076C,false,Rx,0,8,67,00,00,00,00,00,00,00,
4365780117,0000022A,false,Rx,0,4,00,00,70,17,00,00,00,00,
4365780354,000003B2,false,Rx,0,8,E5,0D,EB,FF,0C,66,BB,11,
4365780808,000002C4,false,Rx,0,8,0A,00,00,00,97,DF,00,00,
4365781067,00000204,false,Rx,0,8,01,00,00,00,00,00,00,10,
4365781274,00000264,false,Rx,0,6,35,00,00,00,A0,00,00,00,
4365781535,00000224,false,Rx,0,8,00,04,00,00,00,00,00,08,
4365788661,0000076C,false,Rx,0,8,68,00,00,00,00,00,00,00,
4365790111,0000022A,false,Rx,0,4,00,00,70,17,00,00,00,00,
4365790348,000003B2,false,Rx,0,8,E3,5D,FB,FF,0C,66,BB,06,
4365798649,0000076C,false,Rx,0,8,69,00,00,00,00,00,9D,FF,
4365800109,0000022A,false,Rx,0,4,00,00,70,17,00,00,00,00,
4365800347,000003B2,false,Rx,0,8,E5,0D,EB,FF,0C,66,BB,11,
4365808666,0000076C,false,Rx,0,8,6A,00,00,00,00,00,00,00,
4365810105,0000022A,false,Rx,0,4,00,00,70,17,00,00,00,00,
4365810353,000003B2,false,Rx,0,8,E3,5D,FB,FF,0C,66,BB,06,
4365810593,00000545,false,Rx,0,8,14,00,3F,70,9F,01,0A,B7,
4365818646,0000076C,false,Rx,0,8,6B,CD,06,00,00,00,00,00,
4365820117,0000022A,false,Rx,0,4,00,00,70,17,00,00,00,00,
4365820354,000003B2,false,Rx,0,8,E5,0D,EB,FF,0C,66,BB,11,
4365828654,0000076C,false,Rx,0,8,6C,00,00,00,00,00,1C,00,
4365830114,0000022A,false,Rx,0,4,00,00,70,17,00,00,00,00,
4365830352,000003B2,false,Rx,0,8,E3,5D,FB,FF,0C,66,BB,06,
4365838661,0000076C,false,Rx,0,8,6D,00,00,00,00,00,00,00,
4365840111,0000022A,false,Rx,0,4,00,00,70,17,00,00,00,00,
4365840348,000003B2,false,Rx,0,8,E5,0D,EB,FF,0C,66,BB,11,
4365848646,0000076C,false,Rx,0,8,6E,00,00,00,00,00,00,00,
4365850107,0000022A,false,Rx,0,4,00,00,70,17,00,00,00,00,
4365850354,000003B2,false,Rx,0,8,E3,5D,FB,FF,0C,66,BB,06,
4365858654,0000076C,false,Rx,0,8,6F,00,00,00,00,00,00,00,
4365860104,0000022A,false,Rx,0,4,00,00,70,17,00,00,00,00,
4365860341,000003B2,false,Rx,0,8,E5,0D,EB,FF,0C,66,BB,11,
4365860582,00000545,false,Rx,0,8,03,19,64,32,19,00,10,25,
4365860758,00000333,false,Rx,0,4,04,30,29,07,00,00,00,00,
4365860955,000002B2,false,Rx,0,5,00,00,00,05,78,00,00,00,
4365861182,000003A1,false,Rx,0,8,09,62,78,9D,08,2C,12,5A,
4365861433,00000321,false,Rx,0,8,2C,B6,A8,7F,02,7F,00,00,
4365861671,0000025D,false,Rx,0,8,D9,8C,01,B5,4A,C1,0A,E0,
4365861837,0000023D,false,Rx,0,4,0A,40,FF,0F,00,00,00,00,
4365862086,0000021D,false,Rx,0,8,2D,7E,00,20,80,00,60,10,
4365862324,00000232,false,Rx,0,8,0A,02,D5,09,CB,04,00,00,
4365862544,0000020A,false,Rx,0,6,F6,15,09,82,18,01,00,00,
4365862774,00000212,false,Rx,0,8,B9,1C,94,AD,C3,15,06,63,
4365868648,0000076C,false,Rx,0,8,70,00,00,00,00,00,00,00,
4365870119,0000022A,false,Rx,0,4,00,00,70,17,00,00,00,00,
4365870356,000003B2,false,Rx,0,8,E3,5D,FB,FF,0C,66,BB,06,
4365878633,0000076C,false,Rx,0,8,71,33,30,00,33,38,80,00,
4365880114,0000022A,false,Rx,0,4,00,00,70,17,00,00,00,00,
4365880352,000003B2,false,Rx,0,8,E5,0D,EB,FF,0C,66,BB,11,
4365880796,000002C4,false,Rx,0,8,0B,00,00,80,FD,CC,00,00,
4365881064,00000204,false,Rx,0,8,01,00,00,00,00,00,00,10,
4365881273,00000264,false,Rx,0,6,34,00,00,00,A0,00,00,00,
4365881615,00000224,false,Rx,0,8,00,04,00,00,00,00,00,08,
4365881873,000003C4,false,Rx,0,8,11,00,00,00,00,00,00,00,
4365888654,0000076C,false,Rx,0,8,77,00,00,FC,CE,0F,00,00,
4365890114,0000022A,false,Rx,0,4,00,00,70,17,00,00,00,00,
4365890351,000003B2,false,Rx,0,8,E3,5D,FB,FF,0C,66,BB,06,
4365898639,0000076C,false,Rx,0,8,78,00,00,F9,CE,0F,00,00,
4365900110,0000022A,false,Rx,0,4,00,00,70,17,00,00,00,00,
4365900347,000003B2,false,Rx,0,8,E5,0D,EB,FF,0C,66,BB,11,
4365908646,0000076C,false,Rx,0,8,79,00,00,00,00,00,00,00,
4365910106,0000022A,false,Rx,0,4,00,00,70,17,00,00,00,00,
4365910355,000003B2,false,Rx,0,8,E3,5D,FB,FF,0C,66,BB,06,
4365910595,00000545,false,Rx,0,8,14,00,3F,70,9F,01,2A,D7,
4365918646,0000076C,false,Rx,0,8,7A,01,09,00,00,00,00,00,
4365920117,0000022A,false,Rx,0,4,00,00,70,17,00,00,00,00,
4365920355,000003B2,false,Rx,0,8,E5,0D,EB,FF,0C,66,BB,11,
4365928623,0000076C,false,Rx,0,8,7E,8C,50,01,A1,00,E8,21,
4365930116,0000022A,false,Rx,0,4,00,00,70,17,00,00,00,00,
4365930355,000003B2,false,Rx,0,8,E3,5D,FB,FF,0C,66,BB,06,
4365938695,0000076C,false,Rx,0,8,01,0D,10,16,19,17,25,00,
4365940115,0000022A,false,Rx,0,4,00,00,70,17,00,00,00,00,
4365940353,000003B2,false,Rx,0,8,E5,0D,EB,FF,0C,66,BB,11,
4365948629,0000076C,false,Rx,0,8,02,02,02,02,03,00,01,00,
4365950110,0000022A,false,Rx,0,4,00,00,70,17,00,00,00,00,
4365950349,000003B2,false,Rx,0,8,E3,5D,FB,FF,0C,66,BB,06,
4365958618,0000076C,false,Rx,0,8,03,62,62,4B,4B,62,70,00,
4365960109,0000022A,false,Rx,0,4,00,00,70,17,00,00,00,00,
4365960347,000003B2,false,Rx,0,8,E5,0D,EB,FF,0C,66,BB,11,
4365960587,00000545,false,Rx,0,8,03,19,64,32,19,00,30,45,
4365960763,00000333,false,Rx,0,4,04,30,29,07,00,00,00,00,
4365960949,000002B2,false,Rx,0,5,00,00,00,05,78,00,00,00,
4365961188,000003A1,false,Rx,0,8,09,62,78,9D,08,2C,12,5A,
4365961437,00000321,false,Rx,0,8,2C,B6,A8,7F,02,7F,00,00,
4365961665,0000025D,false,Rx,0,8,D9,8C,01,B5,4A,C1,0A,E0,
4365961843,0000023D,false,Rx,0,4,0A,40,FF,0F,00,00,00,00,
4365962091,0000021D,false,Rx,0,8,2D,7E,00,20,80,00,60,10,
4365962329,00000232,false,Rx,0,8,0A,02,D5,09,CB,04,00,00,
4365962548,0000020A,false,Rx,0,6,F6,15,09,82,18,01,00,00,
4365962778,00000212,false,Rx,0,8,B9,1C,94,AD,C3,15,06,63,
4365968638,0000076C,false,Rx,0,8,04,15,17,00,07,00,02,00,
4365970119,0000022A,false,Rx,0,4,00,00,70,17,00,00,00,00,
4365970358,000003B2,false,Rx,0,8,E3,5D,FB,FF,0C,66,BB,06,
4365978624,0000076C,false,Rx,0,8,05,AC,B4,36,41,D4,2E,00,
4365980116,0000022A,false,Rx,0,4,00,00,70,17,00,00,00,00,
4365980354,000003B2,false,Rx,0,8,E5,0D,EB,FF,0C,66,BB,11,
4365980776,000002C4,false,Rx,0,8,0C,00,00,80,E4,CC,00,00,
4365981036,00000204,false,Rx,0,8,01,00,00,00,00,00,00,10,
4365981254,00000264,false,Rx,0,6,34,00,00,00,A0,00,00,00,
4365981513,00000224,false,Rx,0,8,00,04,00,00,00,00,00,08,
4365988639,0000076C,false,Rx,0,8,8A,13,E0,00,64,00,40,00,
4365990110,0000022A,false,Rx,0,4,00,00,70,17,00,00,00,00,
4365990349,000003B2,false,Rx,0,8,E3,5D,FB,FF,0C,66,BB,06,
4365998617,0000076C,false,Rx,0,8,0B,0D,00,D0,20,FF,0F,00,
4366000109,0000022A,false,Rx,0,4,00,00,70,17,00,00,00,00,
4366000348,000003B2,false,Rx,0,8,E5,0D,EB,FF,0C,66,BB,11,
4366008635,0000076C,false,Rx,0,8,0C,00,00,00,20,20,40,00,
4366010105,0000022A,false,Rx,0,4,00,00,70,17,00,00,00,00,
4366010354,000003B2,false,Rx,0,8,E3,5D,FB,FF,0C,66,BB,06,
4366010593,00000545,false,Rx,0,8,14,00,3F,70,9F,01,4A,F7,
4366018624,0000076C,false,Rx,0,8,0D,04,32,8F,BB,28,00,00,
4366020115,0000022A,false,Rx,0,4,00,00,70,17,00,00,00,00,
4366020354,000003B2,false,Rx,0,8,E5,0D,EB,FF,0C,66,BB,11,
4366028621,0000076C,false,Rx,0,8,0E,AF,AA,A8,BD,02,00,00,
4366030111,0000022A,false,Rx,0,4,00,00,70,17,00,00,00,00,
4366030350,000003B2,false,Rx,0,8,E3,5D,FB,FF,0C,66,BB,06,
4366038629,0000076C,false,Rx,0,8,14,1A,40,00,64,00,40,00,
4366040109,0000022A,false,Rx,0,4,00,00,70,17,00,00,00,00,
4366040347,000003B2,false,Rx,0,8,E5,0D,EB,FF,0C,66,BB,11,
4366048626,0000076C,false,Rx,0,8,15,00,00,D0,20,00,00,00,
4366050105,0000022A,false,Rx,0,4,00,00,70,17,00,00,00,00,
4366050354,000003B2,false,Rx,0,8,E3,5D,FB,FF,0C,66,BB,06,
4366058621,0000076C,false,Rx,0,8,16,00,00,00,20,00,00,00,
4366060113,0000022A,false,Rx,0,4,00,00,70,17,00,00,00,00,
4366060350,000003B2,false,Rx,0,8,E5,0D,EB,FF,0C,66,BB,11,
4366060579,00000545,false,Rx,0,8,03,19,64,32,19,00,50,65,
4366060755,00000333,false,Rx,0,4,04,30,29,07,00,00,00,00,
4366060953,000002B2,false,Rx,0,5,00,00,00,05,78,00,00,00,
4366061191,000003A1,false,Rx,0,8,09,62,78,9D,08,2C,12,5A,
4366061429,00000321,false,Rx,0,8,2C,B6,A8,7F,02,7F,00,00,
4366061669,0000025D,false,Rx,0,8,D9,8C,01,B5,4A,C1,0A,E0,
4366061836,0000023D,false,Rx,0,4,0A,40,FF,0F,00,00,00,00,
4366062083,0000021D,false,Rx,0,8,2D,7E,00,20,80,00,60,10,
4366062332,00000232,false,Rx,0,8,0A,02,D5,09,CB,04,00,00,
4366062542,0000020A,false,Rx,0,6,F6,15,09,82,18,01,00,00,
4366062771,00000212,false,Rx,0,8,B9,1C,94,AD,C3,15,06,63,
4366068624,0000076C,false,Rx,0,8,17,04,32,8F,BB,28,00,00,
4366070116,0000022A,false,Rx,0,4,00,00,70,17,00,00,00,00,
4366070353,000003B2,false,Rx,0,8,E3,5D,FB,FF,0C,66,BB,06,
4366078611,0000076C,false,Rx,0,8,18,B0,AA,A6,BD,02,00,00,
4366080113,0000022A,false,Rx,0,4,00,00,70,17,00,00,00,00,
4366080350,000003B2,false,Rx,0,8,E5,0D,EB,FF,0C,66,BB,11,
4366080772,000002C4,false,Rx,0,8,0D,00,00,00,00,00,00,00,
4366081032,00000204,false,Rx,0,8,01,00,00,00,00,00,00,10,
4366081249,00000264,false,Rx,0,6,35,00,00,00,A0,00,00,00,
4366081591,00000224,false,Rx,0,8,00,04,00,00,00,00,00,08,
4366088628,0000076C,false,Rx,0,8,9E,13,20,00,64,00,40,00,
4366090110,0000022A,false,Rx,0,4,00,00,70,17,00,00,00,00,
4366090347,000003B2,false,Rx,0,8,E3,5D,FB,FF,0C,66,BB,06,
4366098625,0000076C,false,Rx,0,8,1F,4A,00,D0,20,00,00,00,
4366100116,0000022A,false,Rx,0,4,00,00,70,17,00,00,00,00,
4366100343,000003B2,false,Rx,0,8,E5,0D,EB,FF,0C,66,BB,11,
4366108624,0000076C,false,Rx,0,8,20,00,00,00,30,60,00,01,
4366110105,0000022A,false,Rx,0,4,00,00,70,17,00,00,00,00,
4366110353,000003B2,false,Rx,0,8,E3,5D,FB,FF,0C,66,BB,06,
4366110592,00000545,false,Rx,0,8,14,00,3F,70,9F,01,6A,17,
4366118614,0000076C,false,Rx,0,8,21,04,32,8F,BB,28,00,00,
4366120115,0000022A,false,Rx,0,4,00,00,70,17,00,00,00,00,
4366120353,000003B2,false,Rx,0,8,E5,0D,EB,FF,0C,66,BB,11,
4366128610,0000076C,false,Rx,0,8,22,AF,AA,A6,BD,02,00,00,
4366130112,0000022A,false,Rx,0,4,00,00,70,17,00,00,00,00,
4366130349,000003B2,false,Rx,0,8,E3,5D,FB,FF,0C,66,BB,06,
4366138628,0000076C,false,Rx,0,8,33,00,00,00,00,44,20,84,
4366140110,0000022A,false,Rx,0,4,00,00,70,17,00,00,00,00,
4366140348,000003B2,false,Rx,0,8,E5,0D,EB,FF,0C,66,BB,11,
4366148627,0000076C,false,Rx,0,8,34,00,00,00,00,00,00,00,
4366150108,0000022A,false,Rx,0,4,00,00,70,17,00,00,00,00,
4366150356,000003B2,false,Rx,0,8,E3,5D,FB,FF,0C,66,BB,06,
4366158613,0000076C,false,Rx,0,8,35,2A,00,00,00,00,00,00,
4366160104,0000022A,false,Rx,0,4,00,00,70,17,00,00,00,00,
4366160342,000003B2,false,Rx,0,8,E5,0D,EB,FF,0C,66,BB,11,
4366160581,00000545,false,Rx,0,8,03,19,64,32,19,00,70,85,
4366160748,00000333,false,Rx,0,4,04,30,29,07,00,00,00,00,
4366160945,000002B2,false,Rx,0,5,00,00,00,05,78,00,00,00,
4366161182,000003A1,false,Rx,0,8,09,62,78,9D,08,2C,12,5A,
4366161432,00000321,false,Rx,0,8,2C,B6,A8,7F,02,7F,00,00,
4366161661,0000025D,false,Rx,0,8,D9,8C,01,B5,4A,C1,0A,E0,
4366161838,0000023D,false,Rx,0,4,0A,40,FF,0F,00,00,00,00,
4366162085,0000021D,false,Rx,0,8,2D,7E,00,20,80,00,60,10,
4366162324,00000232,false,Rx,0,8,0A,02,D5,09,CB,04,00,00,
4366162534,0000020A,false,Rx,0,6,F6,15,09,82,18,01,00,00,
4366162773,00000212,false,Rx,0,8,B9,1C,94,AD,C3,15,06,63,
4366168637,0000076C,false,Rx,0,8,64,00,00,3A,6A,50,2A,00,
4366170118,0000022A,false,Rx,0,4,00,00,70,17,00,00,00,00,
4366170356,000003B2,false,Rx,0,8,E3,5D,FB,FF,0C,66,BB,06,
4366178613,0000076C,false,Rx,0,8,66,00,00,00,00,00,00,00,
4366180114,0000022A,false,Rx,0,4,00,00,70,17,00,00,00,00,
4366180352,000003B2,false,Rx,0,8,E5,0D,EB,FF,0C,66,BB,11,
4366180775,000002C4,false,Rx,0,8,12,00,00,00,00,00,00,00,
4366181034,00000204,false,Rx,0,8,01,00,00,00,00,00,00,10,
4366181251,00000264,false,Rx,0,6,34,00,00,00,A0,00,00,00,
4366181584,00000224,false,Rx,0,8,00,04,00,00,00,00,00,08,
4366188608,0000076C,false,Rx,0,8,67,00,00,00,00,00,00,00,
4366190109,0000022A,false,Rx,0,4,00,00,70,17,00,00,00,00,
4366190357,000003B2,false,Rx,0,8,E3,5D,FB,FF,0C,66,BB,06,
4366198624,0000076C,false,Rx,0,8,68,00,00,00,00,00,00,00,
4366200105,0000022A,false,Rx,0,4,00,00,70,17,00,00,00,00,
4366200343,000003B2,false,Rx,0,8,E5,0D,EB,FF,0C,66,BB,11,
4366208603,0000076C,false,Rx,0,8,69,00,00,00,00,00,9D,FF,
4366210114,0000022A,false,Rx,0,4,00,00,70,17,00,00,00,00,
4366210352,000003B2,false,Rx,0,8,E3,5D,FB,FF,0C,66,BB,06,
4366210591,00000545,false,Rx,0,8,14,00,3F,70,9F,01,8A,37,
4366218624,0000076C,false,Rx,0,8,6A,00,00,00,00,00,00,00,
4366220115,0000022A,false,Rx,0,4,00,00,70,17,00,00,00,00,
4366220353,000003B2,false,Rx,0,8,E5,0D,EB,FF,0C,66,BB,11,
4366228610,0000076C,false,Rx,0,8,6B,CD,06,00,00,00,00,00,
4366230111,0000022A,false,Rx,0,4,00,00,70,17,00,00,00,00,
4366230359,000003B2,false,Rx,0,8,E3,5D,FB,FF,0C,66,BB,06,
4366238607,0000076C,false,Rx,0,8,6C,00,00,00,00,00,1C,00,
4366240108,0000022A,false,Rx,0,4,00,00,70,17,00,00,00,00,
4366240346,000003B2,false,Rx,0,8,E5,0D,EB,FF,0C,66,BB,11,
4366248613,0000076C,false,Rx,0,8,6D,00,00,00,00,00,00,00,
4366250115,0000022A,false,Rx,0,4,00,00,70,17,00,00,00,00,
4366250352,000003B2,false,Rx,0,8,E3,5D,FB,FF,0C,66,BB,06,
4366258602,0000076C,false,Rx,0,8,6E,00,00,00,00,00,00,00,
4366260114,0000022A,false,Rx,0,4,00,00,70,17,00,00,00,00,
4366260341,000003B2,false,Rx,0,8,E5,0D,EB,FF,0C,66,BB,11,
4366260582,00000545,false,Rx,0,8,03,19,64,32,19,00,90,A5,
4366260758,00000333,false,Rx,0,4,04,30,29,07,00,00,00,00,
4366260955,000002B2,false,Rx,0,5,00,00,00,05,78,00,00,00,
4366261182,000003A1,false,Rx,0,8,09,62,78,9D,08,2C,12,5A,
4366261433,00000321,false,Rx,0,8,2C,B6,A8,7F,02,7F,00,00,
4366261661,0000025D,false,Rx,0,8,D9,8C,01,B5,4A,C1,0A,E0,
4366261837,0000023D,false,Rx,0,4,0A,40,FF,0F,00,00,00,00,
4366262086,0000021D,false,Rx,0,8,2D,7E,00,20,80,00,60,10,
4366262324,00000232,false,Rx,0,8,0A,02,D5,09,CB,04,00,00,
4366262544,0000020A,false,Rx,0,6,F6,15,09,82,18,01,00,00,
4366262773,00000212,false,Rx,0,8,B9,1C,94,AD,C3,15,06,63,
4366268605,0000076C,false,Rx,0,8,6F,00,00,00,00,00,00,00,
4366270117,0000022A,false,Rx,0,4,00,00,70,17,00,00,00,00,
4366270354,000003B2,false,Rx,0,8,E3,5D,FB,FF,0C,66,BB,06,
4366278612,0000076C,false,Rx,0,8,70,00,00,00,00,00,00,00,
4366280114,0000022A,false,Rx,0,4,00,00,70,17,00,00,00,00,
4366280351,000003B2,false,Rx,0,8,E5,0D,EB,FF,0C,66,BB,11,
4366280764,000002C4,false,Rx,0,8,13,00,00,00,00,00,00,00,
4366281033,00000204,false,Rx,0,8,01,00,00,00,00,00,00,10,
4366281261,00000264,false,Rx,0,6,34,00,00,00,A0,00,00,00,
4366281583,00000224,false,Rx,0,8,00,04,00,00,00,00,00,08,
4366288597,0000076C,false,Rx,0,8,71,33,30,00,33,38,80,00,
4366290109,0000022A,false,Rx,0,4,00,00,70,17,00,00,00,00,
4366290356,000003B2,false,Rx,0,8,E3,5D,FB,FF,0C,66,BB,06,
4366298603,0000076C,false,Rx,0,8,77,00,00,FC,CE,0F,00,00,
4366300105,0000022A,false,Rx,0,4,00,00,70,17,00,00,00,00,
4366300343,000003B2,false,Rx,0,8,E5,0D,EB,FF,0C,66,BB,11,
4366308603,0000076C,false,Rx,0,8,78,00,00,F9,CE,0F,00,00,
4366310105,0000022A,false,Rx,0,4,00,00,70,17,00,00,00,00,
4366310353,000003B2,false,Rx,0,8,E3,5D,FB,FF,0C,66,BB,06,
4366310594,00000545,false,Rx,0,8,14,00,3F,70,9F,01,AA,57,
4366318597,0000076C,false,Rx,0,8,79,00,00,00,00,00,00,00,
4366320119,0000022A,false,Rx,0,4,00,00,70,17,00,00,00,00,
4366320356,000003B2,false,Rx,0,8,E5,0D,EB,FF,0C,66,BB,11,
4366328603,0000076C,false,Rx,0,8,7A,01,09,00,00,00,00,00,
4366330116,0000022A,false,Rx,0,4,00,00,70,17,00,00,00,00,
4366330353,000003B2,false,Rx,0,8,E3,5D,FB,FF,0C,66,BB,06,
4366338581,0000076C,false,Rx,0,8,7E,8C,50,01,A1,00,E8,21,
4366340113,0000022A,false,Rx,0,4,00,00,70,17,00,00,00,00,
4366340351,000003B2,false,Rx,0,8,E5,0D,EB,FF,0C,66,BB,11,
4366348649,0000076C,false,Rx,0,8,01,0D,10,0E,19,15,25,00,
4366350110,0000022A,false,Rx,0,4,00,00,70,17,00,00,00,00,
4366350347,000003B2,false,Rx,0,8,E3,5D,FB,FF,0C,66,BB,06,
4366358587,0000076C,false,Rx,0,8,02,02,02,02,03,00,01,00,
4366360109,0000022A,false,Rx,0,4,00,00,70,17,00,00,00,00,
4366360346,000003B2,false,Rx,0,8,E5,0D,EB,FF,0C,66,BB,11,
4366360576,00000545,false,Rx,0,8,03,19,64,32,19,00,B0,C5,
4366360752,00000333,false,Rx,0,4,04,30,29,07,00,00,00,00,
4366360949,000002B2,false,Rx,0,5,00,00,00,05,78,00,00,00,
4366361188,000003A1,false,Rx,0,8,09,62,78,9D,08,2C,12,5A,
4366361426,00000321,false,Rx,0,8,2C,B6,A8,7F,02,7F,00,00,
4366361665,0000025D,false,Rx,0,8,D9,8C,01,B5,4A,C1,0A,E0,
4366361831,0000023D,false,Rx,0,4,0A,40,FF,0F,00,00,00,00,
4366362080,0000021D,false,Rx,0,8,2D,7E,00,20,80,00,60,10,
4366362329,00000232,false,Rx,0,8,0A,02,D5,09,CB,04,00,00,
4366362537,0000020A,false,Rx,0,6,F6,15,09,82,18,01,00,00,
4366362767,00000212,false,Rx,0,8,B9,1C,94,AD,C3,15,06,63,
4366368576,0000076C,false,Rx,0,8,03,62,62,4B,4B,65,70,00,
4366370119,0000022A,false,Rx,0,4,00,00,70,17,00,00,00,00,
4366370356,000003B2,false,Rx,0,8,E3,5D,FB,FF,0C,66,BB,06,
4366378593,0000076C,false,Rx,0,8,04,17,17,00,07,00,02,00,
4366380116,0000022A,false,Rx,0,4,00,00,70,17,00,00,00,00,
4366380353,000003B2,false,Rx,0,8,E5,0D,EB,FF,0C,66,BB,11,
4366380756,000002C4,false,Rx,0,8,14,00,00,00,19,02,00,00,
4366381024,00000204,false,Rx,0,8,01,00,00,00,00,00,00,10,
4366381253,00000264,false,Rx,0,6,34,00,00,00,A0,00,00,00,
4366381564,00000224,false,Rx,0,8,00,04,00,00,00,00,00,08,
4366381803,000003C4,false,Rx,0,8,12,16,48,B4,7A,66,41,FD,
4366388581,0000076C,false,Rx,0,8,05,AC,BC,36,41,E4,2E,00,
4366390113,0000022A,false,Rx,0,4,00,00,70,17,00,00,00,00,
4366390352,000003B2,false,Rx,0,8,E3,5D,FB,FF,0C,66,BB,06,
4366398598,0000076C,false,Rx,0,8,8A,13,E0,00,64,00,40,00,
4366400110,0000022A,false,Rx,0,4,00,00,70,17,00,00,00,00,
4366400349,000003B2,false,Rx,0,8,E5,0D,EB,FF,0C,66,BB,11,
4366408584,0000076C,false,Rx,0,8,0B,0D,00,D0,20,FF,0F,00,
4366410106,0000022A,false,Rx,0,4,00,00,70,17,00,00,00,00,
4366410355,000003B2,false,Rx,0,8,E3,5D,FB,FF,0C,66,BB,06,
4366410596,00000545,false,Rx,0,8,14,00,3F,70,9F,01,CA,77,
4366418587,0000076C,false,Rx,0,8,0C,00,00,00,20,20,40,00,
4366420119,0000022A,false,Rx,0,4,00,00,70,17,00,00,00,00,
4366420347,000003B2,false,Rx,0,8,E5,0D,EB,FF,0C,66,BB,11,
4366428583,0000076C,false,Rx,0,8,0D,04,32,8F,BB,28,00,00,
4366430116,0000022A,false,Rx,0,4,00,00,70,17,00,00,00,00,
4366430354,000003B2,false,Rx,0,8,E3,5D,FB,FF,0C,66,BB,06,
4366438581,0000076C,false,Rx,0,8,0E,B3,AA,A4,BD,02,00,00,
4366440113,0000022A,false,Rx,0,4,00,00,70,17,00,00,00,00,
4366440352,000003B2,false,Rx,0,8,E5,0D,EB,FF,0C,66,BB,11,
4366448587,0000076C,false,Rx,0,8,14,1A,20,00,64,00,40,00,
4366450110,0000022A,false,Rx,0,4,00,00,70,17,00,00,00,00,
4366450349,000003B2,false,Rx,0,8,E3,5D,FB,FF,0C,66,BB,06,
4366458584,0000076C,false,Rx,0,8,15,00,00,D0,20,00,00,00,
4366460106,0000022A,false,Rx,0,4,00,00,70,17,00,00,00,00,
4366460344,000003B2,false,Rx,0,8,E5,0D,EB,FF,0C,66,BB,11,
4366460583,00000545,false,Rx,0,8,03,19,64,32,19,00,D0,E5,
4366460749,00000333,false,Rx,0,4,04,30,29,07,00,00,00,00,
4366460946,000002B2,false,Rx,0,5,00,00,00,05,78,00,00,00,
4366461185,000003A1,false,Rx,0,8,09,62,78,9D,08,2C,12,5A,
4366461434,00000321,false,Rx,0,8,2C,B6,A8,7F,02,7F,00,00,
4366461662,0000025D,false,Rx,0,8,D9,8C,01,B5,4A,C1,0A,E0,
4366461840,0000023D,false,Rx,0,4,0A,40,FF,0F,00,00,00,00,
4366462087,0000021D,false,Rx,0,8,2D,7E,00,20,80,00,60,10,
4366462325,00000232,false,Rx,0,8,0A,02,D5,09,CB,04,00,00,
4366462535,0000020A,false,Rx,0,6,F6,15,09,82,18,01,00,00,
4366462774,00000212,false,Rx,0,8,B9,1C,94,AD,C3,15,06,63,
4366468584,0000076C,false,Rx,0,8,16,00,00,00,20,00,00,00,
4366470106,0000022A,false,Rx,0,4,00,00,70,17,00,00,00,00,
4366470345,000003B2,false,Rx,0,8,E3,5D,FB,FF,0C,66,BB,06,
4366478581,0000076C,false,Rx,0,8,17,04,32,8F,BB,28,00,00,
4366480113,0000022A,false,Rx,0,4,00,00,70,17,00,00,00,00,
4366480352,000003B2,false,Rx,0,8,E5,0D,EB,FF,0C,66,BB,11,
4366480733,000002C4,false,Rx,0,8,35,00,01,04,10,40,FF,00,
4366480993,00000204,false,Rx,0,8,01,00,00,00,00,00,00,10,
4366481210,00000264,false,Rx,0,6,34,00,00,00,A0,00,00,00,
4366481542,00000224,false,Rx,0,8,00,04,00,00,00,00,00,08,
4366482575,000002A4,false,Rx,0,8,71,4F,BB,DA,D3,AE,76,26,
4366482725,00000364,false,Rx,0,2,00,78,00,00,00,00,00,00,
4366482972,000003A4,false,Rx,0,8,01,00,00,00,00,00,00,00,
4366488567,0000076C,false,Rx,0,8,18,B3,AA,A3,BD,02,00,00,
4366490110,0000022A,false,Rx,0,4,00,00,70,17,00,00,00,00,
4366490348,000003B2,false,Rx,0,8,E3,5D,FB,FF,0C,66,BB,06,
4366498573,0000076C,false,Rx,0,8,1E,14,20,00,64,00,40,00,
4366500116,0000022A,false,Rx,0,4,00,00,70,17,00,00,00,00,
4366500354,000003B2,false,Rx,0,8,E5,0D,EB,FF,0C,66,BB,11,
4366508581,0000076C,false,Rx,0,8,1F,49,00,D0,20,00,00,00,
4366510113,0000022A,false,Rx,0,4,00,00,70,17,00,00,00,00,
4366510352,000003B2,false,Rx,0,8,E3,5D,FB,FF,0C,66,BB,06,
4366510591,00000545,false,Rx,0,8,14,00,3F,70,9F,01,EA,97,
4366518581,0000076C,false,Rx,0,8,20,00,00,00,30,60,00,01,
4366520113,0000022A,false,Rx,0,4,00,00,70,17,00,00,00,00,
4366520352,000003B2,false,Rx,0,8,E5,0D,EB,FF,0C,66,BB,11,
4366528577,0000076C,false,Rx,0,8,21,04,32,4F,B1,28,00,00,
4366530109,0000022A,false,Rx,0,4,00,00,70,17,00,00,00,00,
4366530348,000003B2,false,Rx,0,8,E3,5D,FB,FF,0C,66,BB,06,
4366538563,0000076C,false,Rx,0,8,22,B3,AA,A3,BD,02,00,00,
4366540107,0000022A,false,Rx,0,4,00,00,70,17,00,00,00,00,
4366540344,000003B2,false,Rx,0,8,E5,0D,EB,FF,0C,66,BB,11,
4366548572,0000076C,false,Rx,0,8,33,00,00,00,00,44,20,84,
4366550114,0000022A,false,Rx,0,4,00,00,70,17,00,00,00,00,
4366550362,000003B2,false,Rx,0,8,E3,5D,FB,FF,0C,66,BB,06,
4366558577,0000076C,false,Rx,0,8,34,00,00,00,00,00,00,00,
4366560110,00000333,false,Rx,0,4,04,30,29,07,00,00,00,00,
4366560306,000002B2,false,Rx,0,5,00,00,00,05,78,00,00,00,
4366560535,000003A1,false,Rx,0,8,09,62,78,9D,08,2C,12,5A,
4366560783,00000321,false,Rx,0,8,2C,B6,A8,7F,02,7F,00,00,
4366561022,0000025D,false,Rx,0,8,D9,8C,01,B5,4A,C1,0A,E0,
4366561188,0000023D,false,Rx,0,4,0A,40,FF,0F,00,00,00,00,
4366561437,0000021D,false,Rx,0,8,2D,7E,00,20,80,00,60,10,
4366561687,00000232,false,Rx,0,8,0A,02,D5,09,CB,04,00,00,
4366561894,0000020A,false,Rx,0,6,F6,15,09,82,18,01,00,00,
4366562121,00000212,false,Rx,0,8,B9,1C,94,AD,C3,15,06,63,
4366562298,0000022A,false,Rx,0,4,00,00,70,17,00,00,00,00,
4366562538,000003B2,false,Rx,0,8,E5,0D,EB,FF,0C,66,BB,11,
4366562778,00000545,false,Rx,0,8,03,19,64,32,19,00,F0,05,
4366568578,0000076C,false,Rx,0,8,35,2A,00,00,00,00,00,00,
4366570110,0000022A,false,Rx,0,4,00,00,70,17,00,00,00,00,
4366570347,000003B2,false,Rx,0,8,E3,5D,FB,FF,0C,66,BB,06,
4366578595,0000076C,false,Rx,0,8,64,00,00,3A,6A,50,00,00,
4366580107,0000022A,false,Rx,0,4,00,00,70,17,00,00,00,00,
4366580345,000003B2,false,Rx,0,8,E5,0D,EB,FF,0C,66,BB,11,
4366580717,000002C4,false,Rx,0,8,16,20,D9,00,00,00,00,01,
4366580976,00000204,false,Rx,0,8,01,00,00,00,00,00,00,10,
